(1427493542.173245) can0 475#0013200000028000
(1427493542.173427) can0 306#0F003A02F4060000
(1427493542.173671) can0 294#B80E9CFFFA005309
(1427493542.173890) can0 270#3113890654FB6F11
(1427493542.210437) can0 477#70050978C6001400
(1427493542.273220) can0 475#0013200000028100
(1427493542.273424) can0 306#0E003E0203070000
(1427493542.273633) can0 294#6F0E9CFFFA002E09
(1427493542.273849) can0 270#341369063AFB2511
(1427493542.307395) can0 477#42051378C6001400
(1427493542.372990) can0 475#0F13200000027B00
(1427493542.373440) can0 306#0E00440215070000
(1427493542.373734) can0 294#0E0E9CFFFA00FD08
(1427493542.373997) can0 270#34133E0630FB9311
(1427493542.405458) can0 477#39052178C6001400
(1427493542.473123) can0 475#0A13200000027F00
(1427493542.473469) can0 306#0E00480220070000
(1427493542.473723) can0 294#FB0D9CFFFA00DF08
(1427493542.473977) can0 270#381336061EFB2F11
(1427493542.501329) can0 477#31052278C6001400
(1427493542.573222) can0 475#0F13200000027C00
(1427493542.573559) can0 306#0D004C022C070000
(1427493542.573819) can0 294#B10D9CFFFA00CD08
(1427493542.574071) can0 270#3813150613FB8211
(1427493542.598379) can0 477#18052978C6001400
(1427493542.673970) can0 306#0E004F0237070000
(1427493542.674252) can0 475#1113200000027E00
(1427493542.696432) can0 477#15052A78C6001400
(1427493542.773546) can0 475#1313200000027600
(1427493542.773872) can0 306#0E00530242070000
(1427493542.774128) can0 294#520D9CFFFA00AA08
(1427493542.774377) can0 270#3913EA05F3FAF111
(1427493542.792289) can0 477#F3042B78C6001400
(1427493542.873558) can0 475#0F13200000027C00
(1427493542.873887) can0 306#0F0057024F070000
(1427493542.874170) can0 294#140D9CFFFA008908
(1427493542.874422) can0 270#3A13CF05E7FA6B11
(1427493542.889209) can0 477#FC043978C6001400
(1427493542.973532) can0 475#1113200000027D00
(1427493542.973846) can0 306#0F005A0259070000
(1427493542.974248) can0 294#170D9CFFFA007708
(1427493542.974497) can0 270#3A13D005D8FA5C11
(1427493542.986204) can0 477#ED043878C5001400
(1427493543.073513) can0 475#1513200000027E00
(1427493543.073852) can0 306#0F005F0269070000
(1427493543.074111) can0 294#B10C9CFFFA005408
(1427493543.074365) can0 270#3C13A305CEFAC510
(1427493543.083714) can0 477#E8044C78C5001400
(1427493543.173360) can0 475#1313200000027A00
(1427493543.173719) can0 306#0F00620272070000
(1427493543.173971) can0 294#6C0C9CFFFA003A08
(1427493543.174220) can0 270#3F138405BFFA7411
(1427493543.181478) can0 477#DB045078C5001400
(1427493543.273393) can0 475#1113200000027500
(1427493543.273800) can0 306#100065027C070000
(1427493543.274064) can0 294#100C9CFFFA002F08
(1427493543.274326) can0 270#3F135B05B2FACA11
(1427493543.277086) can0 477#BC045378C5001400
(1427493543.373379) can0 475#1313200000027400
(1427493543.373732) can0 306#1000690287070000
(1427493543.373989) can0 294#230C9CFFFA001608
(1427493543.374237) can0 270#40136405A8FAAC11
(1427493543.374637) can0 477#9A045078C5001400
(1427493543.471090) can0 477#85045A78C5001400
(1427493543.473412) can0 475#1713200000027800
(1427493543.473689) can0 306#10006B028F070000
(1427493543.474083) can0 294#B50B9CFFFA00FF07
(1427493543.474346) can0 270#42132105A5FA5011
(1427493543.568294) can0 477#5A048478C5001400
(1427493543.573639) can0 475#1D13200000027100
(1427493543.573919) can0 306#10006F029C070000
(1427493543.574169) can0 294#1A0B9CFFFA00BC07
(1427493543.574378) can0 270#4213E504B3FAA011
(1427493543.665015) can0 477#2F049078C5001400
(1427493543.673497) can0 475#2513200000026C00
(1427493543.673843) can0 306#0F007202A5070000
(1427493543.674095) can0 294#CA0A9CFFFA008107
(1427493543.674345) can0 270#4813C704AFFAE111
(1427493543.762006) can0 477#1D048E78C5001400
(1427493543.773504) can0 475#2713200000026F00
(1427493543.773800) can0 306#0F007602AF070000
(1427493543.774056) can0 270#49138204B5FA5D11
(1427493543.774260) can0 294#730A9CFFFA004007
(1427493543.858952) can0 477#1404AE78C5001400
(1427493543.873509) can0 475#1B13200000027600
(1427493543.873807) can0 306#0E007702B4070000
(1427493543.874073) can0 294#660A9CFFFA001007
(1427493543.874323) can0 270#49139E04ADFA1111
(1427493543.955916) can0 477#DB03B278C5001400
(1427493543.973284) can0 475#2713200000027100
(1427493543.974213) can0 306#0E007A02BD070000
(1427493544.052849) can0 477#D503CC78C5001400
(1427493544.073466) can0 475#2113200000026400
(1427493544.073745) can0 306#0E007C02C2070000
(1427493544.073994) can0 294#90099CFFFA00B506
(1427493544.074242) can0 270#53134504B8FA1312
(1427493544.149838) can0 477#AC03CC78C5001400
(1427493544.173345) can0 475#2E13200000026B00
(1427493544.173648) can0 306#0E007D02C7070000
(1427493544.173899) can0 294#63099CFFFA009406
(1427493544.174144) can0 270#53133704C2FA4C11
(1427493544.246786) can0 477#B903E478C5001400
(1427493544.273135) can0 475#2C13200000026C00
(1427493544.273596) can0 306#0E007F02CD070000
(1427493544.273852) can0 294#06099CFFFA006F06
(1427493544.274102) can0 270#53130B04BFFA5F11
(1427493544.343765) can0 477#9103EB78C5001400
(1427493544.373363) can0 475#2E13200000026600
(1427493544.373648) can0 306#0F008002D1070000
(1427493544.373898) can0 294#F2089CFFFA005306
(1427493544.374146) can0 270#5613EB03C1FA7811
(1427493544.440744) can0 477#7F03EC78C5001400
(1427493544.473123) can0 475#3613200000026900
(1427493544.473967) can0 306#0F008202D5070000
(1427493544.537723) can0 477#7503F978C5001400
(1427493544.573219) can0 475#3013200000026E00
(1427493544.573508) can0 306#0F008202D6070000
(1427493544.573773) can0 294#01099CFFFA002C06
(1427493544.574024) can0 270#5913EE03C4FA5511
(1427493544.634743) can0 477#9703F578C5001400
(1427493544.673028) can0 475#3A13200000026100
(1427493544.673337) can0 306#0F008402DB070000
(1427493544.673716) can0 294#83089CFFFA002306
(1427493544.673964) can0 270#5A13BD03C8FA0612
(1427493544.731644) can0 477#4C031179C5001400
(1427493544.773009) can0 475#3413200000026400
(1427493544.773331) can0 306#0F008602E3070000
(1427493544.773698) can0 294#13089CFFFA00F005
(1427493544.773946) can0 270#5A139603D0FA9111
(1427493544.828646) can0 477#1D031F79C5001400
(1427493544.873233) can0 475#3C13200000026500
(1427493544.873511) can0 306#0F008902ED070000
(1427493544.873766) can0 294#AC079CFFFA00AE05
(1427493544.874119) can0 270#5E135B03D7FA9611
(1427493544.925570) can0 477#0C033679C5001400
(1427493544.973170) can0 475#3613200000026600
(1427493544.973599) can0 306#10008A02EF070000
(1427493544.973847) can0 294#E6079CFFFA008605
(1427493544.974091) can0 270#64139703D9FAA211
(1427493545.022532) can0 477#32032979C5001400
(1427493545.073150) can0 475#3813200000026600
(1427493545.073582) can0 306#10008A02F0070000
(1427493545.073831) can0 294#D9079CFFFA008605
(1427493545.074077) can0 270#64137A03DDFA6E11
(1427493545.119585) can0 477#1D033579C5001400
(1427493545.173362) can0 475#3613200000026400
(1427493545.173649) can0 306#10008B02F2070000
(1427493545.173900) can0 294#DF079CFFFA007C05
(1427493545.174152) can0 270#62137F03DFFAFC10
(1427493545.216496) can0 477#05032B79C5001400
(1427493545.273144) can0 475#3E13200000026200
(1427493545.273562) can0 306#10008D02F8070000
(1427493545.273813) can0 294#80079CFFFA006605
(1427493545.274075) can0 270#63135503E1FA8311
(1427493545.313451) can0 477#FF024779C5001400
(1427493545.373253) can0 475#3A13200000026300
(1427493545.373574) can0 306#10008F02FE070000
(1427493545.373825) can0 294#3D079CFFFA003D05
(1427493545.374075) can0 270#63133703E1FA6C11
(1427493545.410430) can0 477#E3024E79C5001400
(1427493545.473093) can0 475#4513200000025D00
(1427493545.473505) can0 306#1000900200080000
(1427493545.473756) can0 294#40079CFFFA002C05
(1427493545.474005) can0 270#68133803DFFAD511
(1427493545.507574) can0 477#05035179C5001400
(1427493545.573225) can0 475#3413200000025D00
(1427493545.573540) can0 306#0F008E02FB070000
(1427493545.573787) can0 294#B6079CFFFA004205
(1427493545.574038) can0 270#69136D03DCFA1712
(1427493545.604351) can0 477#2A034079C5001400
(1427493545.673233) can0 475#3813200000025900
(1427493545.673562) can0 306#0F008E02FC070000
(1427493545.673817) can0 294#90079CFFFA006005
(1427493545.674069) can0 270#69135C03E0FA1312
(1427493545.702002) can0 477#14033779C5001400
(1427493545.773212) can0 475#3C13200000026700
(1427493545.773549) can0 306#0F008E02FB070000
(1427493545.773817) can0 294#B9079CFFFA007605
(1427493545.774069) can0 270#63136E03DDFAAD11
(1427493545.798328) can0 477#EE022E79C5001400
(1427493545.873194) can0 475#4713200000026100
(1427493545.873644) can0 306#0F0093020A080000
(1427493545.873911) can0 294#B5069CFFFA003D05
(1427493545.874160) can0 270#6313FA02EAFAFC11
(1427493545.895250) can0 477#D2025579C5001400
(1427493545.973483) can0 475#3E13200000026800
(1427493545.973829) can0 306#1000910205080000
(1427493545.974082) can0 294#D9079CFFFA002E05
(1427493545.974329) can0 270#63137C03E2FAA911
(1427493545.992328) can0 477#1A034879C5001400
(1427493546.073318) can0 475#4213200000025F00
(1427493546.073642) can0 306#1100920207080000
(1427493546.073896) can0 294#08079CFFFA003A05
(1427493546.074144) can0 270#6A131F03E0FAB411
(1427493546.089249) can0 477#03034979C5001400
(1427493546.173116) can0 475#3E13200000025E00
(1427493546.173530) can0 306#1100900202080000
(1427493546.173774) can0 294#0F079CFFFA004905
(1427493546.174016) can0 270#67132203E2FA3212
(1427493546.186523) can0 477#D8023879C5001400
(1427493546.273034) can0 475#3A13200000025600
(1427493546.273529) can0 306#1100950210080000
(1427493546.273786) can0 294#12069CFFFA00F404
(1427493546.274034) can0 270#6713B20216FBE711
(1427493546.283643) can0 477#60026E79C5001400
(1427493546.373225) can0 475#4B13200000025300
(1427493546.373559) can0 306#11009B0224080000
(1427493546.373827) can0 294#C3049CFFFA004F04
(1427493546.374077) can0 270#68131D0227FB0612
(1427493546.380107) can0 477#EB01BA79C5001400
(1427493546.473365) can0 475#5D13200000024E00
(1427493546.473699) can0 306#11009D022A080000
(1427493546.473952) can0 294#BA049CFFFA00CB03
(1427493546.474202) can0 270#791319024CFB2512
(1427493546.477050) can0 477#FC01E079C5001400
(1427493546.573478) can0 475#5B13200000024600
(1427493546.573822) can0 306#12009D0229080000
(1427493546.574078) can0 294#89049CFFFA009503
(1427493546.574325) can0 270#7F13040249FB9D12
(1427493546.575060) can0 477#DD01DE79C5001400
(1427493546.671048) can0 477#1F02D279C5001400
(1427493546.673566) can0 475#5313200000025800
(1427493546.673856) can0 306#120099021E080000
(1427493546.674108) can0 294#4B059CFFFA009803
(1427493546.674356) can0 270#7F13590270FBF711
(1427493546.768001) can0 477#1A02CD79C5001400
(1427493546.773363) can0 475#5713200000025500
(1427493546.773786) can0 306#1100970218080000
(1427493546.774047) can0 294#F2049CFFFA00B603
(1427493546.774310) can0 270#7D13320258FBD211
(1427493546.864957) can0 477#EA01DC79C5001400
(1427493546.873568) can0 475#5913200000025600
(1427493546.873856) can0 306#1100980219080000
(1427493546.874105) can0 294#F6049CFFFA00A003
(1427493546.874355) can0 270#7D1334026DFBED11
(1427493546.961964) can0 477#9C01E779C5001400
(1427493546.973365) can0 475#5513200000024C00
(1427493546.973647) can0 306#110099021D080000
(1427493546.973997) can0 294#1C049CFFFA007203
(1427493546.974268) can0 270#7D13D3013FFB7012
(1427493547.058991) can0 477#C001007AC5001400
(1427493547.073430) can0 475#5913200000024F00
(1427493547.073782) can0 306#100099021F080000
(1427493547.074045) can0 294#1F049CFFFA003303
(1427493547.074307) can0 270#8313D40164FBA911
(1427493547.155925) can0 477#AA010B7AC5001400
(1427493547.173413) can0 475#5B13200000025200
(1427493547.173763) can0 306#0F0098021B080000
(1427493547.174026) can0 294#26049CFFFA002A03
(1427493547.174289) can0 270#8613D70178FB4D12
(1427493547.252875) can0 477#9901097AC5001400
(1427493547.273357) can0 475#6213200000024B00
(1427493547.273728) can0 306#0F00980219080000
(1427493547.273998) can0 294#16049CFFFA001303
(1427493547.274259) can0 270#8613D0014FFB5412
(1427493547.349831) can0 477#9C01107AC5001400
(1427493547.373202) can0 475#6413200000024F00
(1427493547.373523) can0 306#0F00970218080000
(1427493547.373906) can0 294#B8039CFFFA000603
(1427493547.374156) can0 270#8613A6016AFBCE11
(1427493547.446976) can0 477#5701317AC5001400
(1427493547.473397) can0 475#6A13200000025100
(1427493547.473703) can0 306#0F0098021B080000
(1427493547.473955) can0 294#A3039CFFFA00CF02
(1427493547.474202) can0 270#8C139D016EFBE911
(1427493547.543832) can0 477#6E012A7AC5001400
(1427493547.573343) can0 475#6413200000024500
(1427493547.573666) can0 306#0F00970218080000
(1427493547.574492) can0 270#8C138E0184FB6912
(1427493547.574751) can0 294#81039CFFFA00C202
(1427493547.640712) can0 477#6301317AC5001400
(1427493547.673282) can0 475#6A13200000024D00
(1427493547.673609) can0 306#0E00970216080000
(1427493547.673867) can0 294#86039CFFFA00AB02
(1427493547.674128) can0 270#8C1390016BFB0E12
(1427493547.737747) can0 477#6D01377AC5001400
(1427493547.773117) can0 475#6A13200000024800
(1427493547.773533) can0 306#0E00950211080000
(1427493547.773783) can0 294#A4039CFFFA00B102
(1427493547.774029) can0 270#8D139E0185FBFC11
(1427493547.834671) can0 477#5701327AC5001400
(1427493547.873293) can0 475#6A13200000024F00
(1427493547.873569) can0 306#0E00950210080000
(1427493547.873822) can0 294#4E039CFFFA00A502
(1427493547.874168) can0 270#8D13780186FBC211
(1427493547.931646) can0 477#58013E7AC5001400
(1427493547.973255) can0 475#6413200000024F00
(1427493547.973568) can0 306#0D0094020D080000
(1427493547.973820) can0 294#98039CFFFA009B02
(1427493547.974023) can0 270#8F13990187FBB511
(1427493548.028589) can0 477#3C01427AC5001400
(1427493548.073187) can0 475#7013200000024600
(1427493548.073656) can0 306#0E0094020F080000
(1427493548.073912) can0 294#0F039CFFFA007E02
(1427493548.074173) can0 270#91135B0184FB8812
(1427493548.125636) can0 477#4B01527AC5001400
(1427493548.173201) can0 475#6613200000024F00
(1427493548.174079) can0 306#0E00920209080000
(1427493548.222553) can0 477#6B013E7AC5001400
(1427493548.273212) can0 475#6613200000024800
(1427493548.273492) can0 306#0E00900201080000
(1427493548.273839) can0 294#AB039CFFFA009E02
(1427493548.274102) can0 270#9013A1018AFB1A12
(1427493548.319517) can0 477#68013E7AC5001400
(1427493548.373377) can0 475#5F13200000024C00
(1427493548.373678) can0 306#0F008E02FC070000
(1427493548.373933) can0 294#ED039CFFFA00B202
(1427493548.374137) can0 270#8F13BE018AFB0012
(1427493548.416476) can0 477#6901337AC5001400
(1427493548.473360) can0 475#6C13200000025100
(1427493548.473664) can0 306#0F008F02FF070000
(1427493548.473916) can0 294#21039CFFFA00B202
(1427493548.474120) can0 270#8F1363018AFBCC11
(1427493548.513442) can0 477#43013F7AC5001400
(1427493548.573223) can0 475#7413200000024700
(1427493548.573559) can0 306#0F00910204080000
(1427493548.573812) can0 294#E7029CFFFA007402
(1427493548.574062) can0 270#8F134A018CFBDD11
(1427493548.610413) can0 477#2501697AC5001400
(1427493548.663886) can0 475#7013200000024B00
(1427493548.664216) can0 306#1000910205080000
(1427493548.664479) can0 294#96029CFFFA004F02
(1427493548.664681) can0 270#941326018EFB9D11
(1427493548.707384) can0 477#FD00657AC5001400
(1427493548.763751) can0 475#7D13200000024C00
(1427493548.764160) can0 306#1000910206080000
(1427493548.764426) can0 294#B0029CFFFA002602
(1427493548.764671) can0 270#9413310191FBF011
(1427493548.804351) can0 477#2701797AC5001400
(1427493548.863803) can0 475#7613200000024A00
(1427493548.864256) can0 306#1000900201080000
(1427493548.864510) can0 294#01039CFFFA002402
(1427493548.864708) can0 270#9813550191FBFE11
(1427493548.901332) can0 477#1901707AC5001400
(1427493548.963962) can0 475#6E13200000024D00
(1427493548.964293) can0 306#10008F02FD070000
(1427493548.964559) can0 294#02039CFFFA002E02
(1427493548.964807) can0 270#9713560191FBF911
(1427493548.998280) can0 477#36016C7AC5001400
(1427493549.064012) can0 475#6E13200000024C00
(1427493549.064318) can0 306#10008C02F4070000
(1427493549.064572) can0 294#77039CFFFA005402
(1427493549.064818) can0 270#97138A0197FBB411
(1427493549.095483) can0 477#5A015B7AC5001400
(1427493549.163912) can0 475#7813200000024D00
(1427493549.164256) can0 306#10008B02F3070000
(1427493549.164509) can0 294#59039CFFFA005D02
(1427493549.164754) can0 270#93137C019BFBB211
(1427493549.192284) can0 477#3E01607AC5001400
(1427493549.263874) can0 475#6E13200000024900
(1427493549.264234) can0 306#10008B02F1070000
(1427493549.264488) can0 294#2D039CFFFA006602
(1427493549.264739) can0 270#931369019EFBD711
(1427493549.289181) can0 477#32015C7AC5001400
(1427493549.363842) can0 475#6C13200000024A00
(1427493549.364182) can0 306#11008C02F4070000
(1427493549.364439) can0 294#B8029CFFFA004D02
(1427493549.365233) can0 270#93133501A0FB3C12
(1427493549.386620) can0 477#2301677AC5001400
(1427493549.463845) can0 475#7613200000024500
(1427493549.464217) can0 306#11008B02F2070000
(1427493549.464475) can0 270#95134E01A2FB2B12
(1427493549.464679) can0 294#F1029CFFFA003E02
(1427493549.484332) can0 477#2C016F7AC5001400
(1427493549.563765) can0 475#7813200000024C00
(1427493549.564190) can0 306#10008B02F3070000
(1427493549.564442) can0 294#95029CFFFA003302
(1427493549.564705) can0 270#96132501A3FB7C11
(1427493549.581177) can0 477#1801797AC5001400
(1427493549.663755) can0 475#6C13200000024900
(1427493549.664275) can0 306#10008A02EE070000
(1427493549.664530) can0 294#2C039CFFFA003302
(1427493549.664736) can0 270#96136901A4FB8A11
(1427493549.678077) can0 477#2A016E7AC5001400
(1427493549.763903) can0 475#7413200000024800
(1427493549.764233) can0 306#10008802EA070000
(1427493549.764487) can0 294#0D039CFFFA004A02
(1427493549.764735) can0 270#96135B01A7FBD511
(1427493549.774060) can0 477#4801697AC5001400
(1427493549.864024) can0 475#6813200000024C00
(1427493549.864348) can0 306#0F008702E6070000
(1427493549.864595) can0 294#63039CFFFA005C02
(1427493549.864803) can0 270#95138101ADFBF711
(1427493549.870978) can0 477#4401637AC5001400
(1427493549.963920) can0 475#6E13200000024C00
(1427493549.964339) can0 306#0F008702E4070000
(1427493549.964599) can0 294#4D039CFFFA006A02
(1427493549.964847) can0 270#95137701B3FBB011
(1427493549.968015) can0 477#35015F7AC5001400
(1427493550.063935) can0 475#6E13200000024700
(1427493550.064395) can0 306#0F008702E6070000
(1427493550.064647) can0 270#94136401B4FB0A12
(1427493550.065025) can0 477#34016A7AC5001400
(1427493550.161978) can0 477#3C016D7AC5001400
(1427493550.163830) can0 475#7413200000024900
(1427493550.164126) can0 306#0F008702E6070000
(1427493550.164403) can0 294#14039CFFFA004B02
(1427493550.164654) can0 270#96135E01B5FB2B12
(1427493550.258927) can0 477#1A01787AC5001400
(1427493550.263819) can0 475#7013200000024800
(1427493550.264190) can0 306#0E008802E8070000
(1427493550.264455) can0 294#D0029CFFFA003602
(1427493550.264704) can0 270#96134001B5FBC211
(1427493550.355867) can0 477#2F01797AC5001400
(1427493550.363784) can0 475#7413200000024A00
(1427493550.364221) can0 306#0E008702E5070000
(1427493550.364482) can0 294#F5029CFFFA003B02
(1427493550.364731) can0 270#98135001B5FB3811
(1427493550.452847) can0 477#3201707AC5001400
(1427493550.463792) can0 475#7613200000024300
(1427493550.464172) can0 306#0E008602E2070000
(1427493550.464434) can0 270#97137601B7FBDF11
(1427493550.464636) can0 294#4B039CFFFA003F02
(1427493550.550087) can0 477#4901717AC5001400
(1427493550.563676) can0 475#6A13200000024B00
(1427493550.564009) can0 306#0D008502DE070000
(1427493550.564285) can0 294#2D039CFFFA005702
(1427493550.564534) can0 270#97136901BAFBD011
(1427493550.646792) can0 477#3A01647AC5001400
(1427493550.663723) can0 475#6A13200000023E00
(1427493550.664109) can0 306#0D008402DD070000
(1427493550.664368) can0 270#95137D01BCFB4612
(1427493550.664569) can0 294#5A039CFFFA005F02
(1427493550.743725) can0 477#6201647AC5001400
(1427493550.763715) can0 475#6213200000024C00
(1427493550.764039) can0 306#0D008302D9070000
(1427493550.764291) can0 294#66039CFFFA007402
(1427493550.764538) can0 270#95138201BFFB8111
(1427493550.840687) can0 477#4F015E7AC5001400
(1427493550.863634) can0 475#6C13200000024400
(1427493550.864122) can0 306#0C008302D9070000
(1427493550.864375) can0 294#3F039CFFFA007702
(1427493550.864582) can0 270#95137101C0FBE711
(1427493550.937697) can0 477#5701647AC5001400
(1427493550.963624) can0 475#6E13200000024A00
(1427493550.963946) can0 306#0D008302D9070000
(1427493550.964201) can0 294#4C039CFFFA007202
(1427493550.964444) can0 270#95137701C4FBD511
(1427493551.034657) can0 477#3B015F7AC5001400
(1427493551.063569) can0 475#6E13200000024500
(1427493551.064075) can0 306#0E008302DA070000
(1427493551.064345) can0 294#4E039CFFFA006702
(1427493551.064553) can0 270#94137801C6FBBB11
(1427493551.131650) can0 477#3301737AC5001400
(1427493551.163928) can0 475#7B13200000024900
(1427493551.165036) can0 294#03039CFFFA005302
(1427493551.165788) can0 270#94135601C6FBCE11
(1427493551.228608) can0 477#3D016E7AC5001400
(1427493551.263792) can0 475#7613200000024800
(1427493551.264192) can0 294#07039CFFFA005A02
(1427493551.264410) can0 306#0E008302DA070000
(1427493551.264657) can0 270#96135801C6FB1212
(1427493551.325720) can0 477#49016F7AC5001400
(1427493551.363840) can0 475#6E13200000024B00
(1427493551.364174) can0 306#0E008202D7070000
(1427493551.364428) can0 294#5D039CFFFA006002
(1427493551.364785) can0 270#96137E01C6FB7611
(1427493551.422509) can0 477#54016D7AC5001400
(1427493551.463936) can0 475#6813200000024000
(1427493551.464326) can0 306#0E008202D5070000
(1427493551.464537) can0 294#78039CFFFA007302
(1427493551.464781) can0 270#96138A01C6FB1F12
(1427493551.519501) can0 477#54015E7AC5001400
(1427493551.563757) can0 475#6A13200000024900
(1427493551.564110) can0 306#0E008202D5070000
(1427493551.564369) can0 294#11039CFFFA007302
(1427493551.564617) can0 270#95135C01C9FB1312
(1427493551.616480) can0 477#5A01677AC5001400
(1427493551.663756) can0 475#7213200000024C00
(1427493551.664167) can0 306#0E008102D3070000
(1427493551.664434) can0 270#9613A101CBFBB411
(1427493551.664638) can0 294#AC039CFFFA007C02
(1427493551.713459) can0 477#55015F7AC5001400
(1427493551.763713) can0 475#6E13200000024300
(1427493551.764050) can0 306#0E008102D4070000
(1427493551.764300) can0 294#5A039CFFFA007402
(1427493551.764545) can0 270#96137D01CAFB2712
(1427493551.810389) can0 477#41016B7AC5001400
(1427493551.863825) can0 475#6C13200000024700
(1427493551.864244) can0 306#0F008102D3070000
(1427493551.864504) can0 270#96137C01CDFBFC11
(1427493551.864698) can0 294#58039CFFFA007402
(1427493551.907412) can0 477#5001637AC5001400
(1427493551.963676) can0 475#7813200000024300
(1427493551.964017) can0 306#0E008102D3070000
(1427493551.964269) can0 294#5E039CFFFA007902
(1427493551.964519) can0 270#94137F01CFFBE111
(1427493552.004331) can0 477#5601637AC5001400
(1427493552.063750) can0 475#6A13200000024900
(1427493552.064249) can0 306#0E008002CE070000
(1427493552.064511) can0 294#C4039CFFFA008602
(1427493552.064716) can0 270#9413AC01CFFB2312
(1427493552.101288) can0 477#9201617AC5001400
(1427493552.164321) can0 306#0F007F02CB070000
(1427493552.164598) can0 294#93039CFFFA00A602
(1427493552.165067) can0 270#94139601D1FBD011
(1427493552.198260) can0 477#6C014F7AC5001400
(1427493552.263875) can0 475#7213200000024400
(1427493552.264305) can0 306#0F007E02CA070000
(1427493552.264569) can0 270#9113D601D2FBB411
(1427493552.264770) can0 294#23049CFFFA00B602
(1427493552.295290) can0 477#8401517AC5001400
(1427493552.363818) can0 475#6813200000024500
(1427493552.364147) can0 306#0E007F02CC070000
(1427493552.364402) can0 294#A2039CFFFA00B702
(1427493552.364647) can0 270#91139D01C4FBE511
(1427493552.392310) can0 477#4E01557AC5001400
(1427493552.463825) can0 475#6C13200000024300
(1427493552.464226) can0 306#0E008002D0070000
(1427493552.464493) can0 270#92137E01D4FB0A12
(1427493552.464700) can0 294#5D039CFFFA009702
(1427493552.490420) can0 477#7601607AC5001400
(1427493552.563789) can0 475#7013200000024F00
(1427493552.564129) can0 306#0D008002CE070000
(1427493552.564383) can0 294#BF039CFFFA009C02
(1427493552.564629) can0 270#9413AA01D4FBA911
(1427493552.586137) can0 477#6E01587AC5001400
(1427493552.663897) can0 475#7013200000024600
(1427493552.664313) can0 306#0D007F02CC070000
(1427493552.664532) can0 294#EE039CFFFA00A102
(1427493552.664783) can0 270#9413BF01D4FB6D12
(1427493552.683122) can0 477#85015C7AC5001400
(1427493552.763807) can0 475#6813200000024500
(1427493552.764130) can0 306#0C007D02C5070000
(1427493552.764490) can0 294#1A049CFFFA00CB02
(1427493552.764736) can0 270#9313D201D3FB0612
(1427493552.780191) can0 477#AB01427AC5001400
(1427493552.863923) can0 475#6413200000024700
(1427493552.864347) can0 306#0C007D02C5070000
(1427493552.864612) can0 270#8E13E901D4FBC011
(1427493552.864814) can0 294#4E049CFFFA00DE02
(1427493552.878475) can0 477#9801467AC5001400
(1427493552.964063) can0 475#6613200000024C00
(1427493552.964384) can0 306#0C007C02C3070000
(1427493552.964638) can0 294#39049CFFFA00EF02
(1427493552.965861) can0 270#8E13E001D6FB9211
(1427493552.974419) can0 477#BF01417AC5001400
(1427493553.063821) can0 475#6A13200000024900
(1427493553.064334) can0 306#0C007D02C5070000
(1427493553.064550) can0 294#F7039CFFFA00F102
(1427493553.064801) can0 270#8F13C301D6FBC011
(1427493553.070964) can0 477#9401437AC5001400
(1427493553.163918) can0 475#6613200000024700
(1427493553.164246) can0 306#0C007C02C2070000
(1427493553.164497) can0 270#8F130002D6FBF511
(1427493553.164697) can0 294#81049CFFFA00F902
(1427493553.167932) can0 477#B8013F7AC5001400
(1427493553.263891) can0 475#6413200000024A00
(1427493553.264284) can0 306#0C007C02C3070000
(1427493553.264552) can0 294#57049CFFFA000603
(1427493553.264757) can0 270#8F13ED01D7FB1F12
(1427493553.265279) can0 477#A101347AC5001400
(1427493553.361979) can0 477#C101347AC5001400
(1427493553.363853) can0 475#6213200000024600
(1427493553.364124) can0 306#0C007C02C2070000
(1427493553.364376) can0 294#AC049CFFFA000E03
(1427493553.364619) can0 270#8D131302D2FBEF11
(1427493553.458932) can0 477#A9012C7AC5001400
(1427493553.463859) can0 475#6413200000024900
(1427493553.464181) can0 306#0C007C02C3070000
(1427493553.464501) can0 270#8D13E501D6FBEF11
(1427493553.464711) can0 294#45049CFFFA001703
(1427493553.555876) can0 477#9201397AC5001400
(1427493553.563824) can0 475#6A13200000024D00
(1427493553.564102) can0 306#0B007D02C6070000
(1427493553.564493) can0 294#39049CFFFA000403
(1427493553.564747) can0 270#8D13E001D6FBD011
(1427493553.652840) can0 477#9F01397AC5001400
(1427493553.663708) can0 475#6413200000024B00
(1427493553.664040) can0 306#0B007D02C7070000
(1427493553.664393) can0 270#8E13C801D6FB8E11
(1427493553.664608) can0 294#03049CFFFA00FF02
(1427493553.749826) can0 477#7D01447AC5001400
(1427493553.763706) can0 475#6C13200000024300
(1427493553.763999) can0 306#0B007E02CA070000
(1427493553.764568) can0 294#00049CFFFA00E302
(1427493553.765601) can0 270#8D13C701D6FB1F12
(1427493553.846771) can0 477#C101447AC5001400
(1427493553.863708) can0 475#6C13200000024600
(1427493553.864115) can0 306#0B007D02C7070000
(1427493553.864466) can0 294#57049CFFFA00F002
(1427493553.864680) can0 270#8D13ED01D6FBF911
(1427493553.943729) can0 477#AF01317AC5001400
(1427493553.964144) can0 475#6213200000024C00
(1427493553.964469) can0 270#9013EB01D6FB8211
(1427493553.964678) can0 306#0B007C02C4070000
(1427493554.040715) can0 477#D001277AC5001400
(1427493554.063429) can0 475#6E13200000024A00
(1427493554.063848) can0 306#0B007B02BF070000
(1427493554.064101) can0 294#E5049CFFFA002603
(1427493554.064551) can0 270#8C132C02C6FB4C12
(1427493554.137639) can0 477#CC011F7AC5001400
(1427493554.163609) can0 475#6413200000024600
(1427493554.163917) can0 306#0B007B02C0070000
(1427493554.164181) can0 294#84049CFFFA003F03
(1427493554.164438) can0 270#8C130102D3FBF311
(1427493554.234655) can0 477#C6012D7AC5001400
(1427493554.263761) can0 475#6413200000024500
(1427493554.264071) can0 306#0B007B02C1070000
(1427493554.264382) can0 270#89131502D4FB2D12
(1427493554.264598) can0 294#B0049CFFFA003003
(1427493554.331598) can0 477#D201287AC5001400
(1427493554.363521) can0 475#6213200000024A00
(1427493554.363888) can0 306#0C007C02C3070000
(1427493554.364143) can0 294#4C049CFFFA003203
(1427493554.364392) can0 270#8B13E801D4FBB711
(1427493554.428582) can0 477#A401307AC5001400
(1427493554.464011) can0 475#6813200000024A00
(1427493554.464329) can0 306#0C007D02C5070000
(1427493554.464636) can0 270#8B130A02D4FBAD11
(1427493554.464845) can0 294#98049CFFFA001E03
(1427493554.525548) can0 477#CC01297AC5001400
(1427493554.563784) can0 475#6213200000024200
(1427493554.564147) can0 306#0C007C02C4070000
(1427493554.564401) can0 294#62049CFFFA002F03
(1427493554.564649) can0 270#8C13F201D4FB6912
(1427493554.622522) can0 477#AA01277AC5001400
(1427493554.663651) can0 475#6413200000024C00
(1427493554.663998) can0 306#0C007D02C5070000
(1427493554.664289) can0 294#A2049CFFFA002603
(1427493554.664588) can0 270#8B130F02D1FB0A12
(1427493554.719494) can0 477#D301277AC5001400
(1427493554.763893) can0 475#6613200000024800
(1427493554.764215) can0 306#0D007C02C3070000
(1427493554.765023) can0 270#8B132402D4FBF711
(1427493554.765279) can0 294#D3049CFFFA003703
(1427493554.816526) can0 477#C6011E7AC5001400
(1427493554.863709) can0 475#6413200000024B00
(1427493554.864074) can0 306#0C007D02C6070000
(1427493554.864443) can0 294#59049CFFFA002B03
(1427493554.864720) can0 270#8A13EE01D4FB0C12
(1427493554.913386) can0 477#B4012D7AC5001400
(1427493554.963632) can0 475#6413200000024A00
(1427493554.963985) can0 306#0C007D02C6070000
(1427493554.964252) can0 294#A6049CFFFA002703
(1427493554.964500) can0 270#8C131002C8FBF111
(1427493555.010390) can0 477#AB01287AC5001400
(1427493555.063856) can0 475#6413200000024900
(1427493555.064179) can0 306#0C007E02C9070000
(1427493555.064537) can0 294#32049CFFFA001A03
(1427493555.064800) can0 270#8C13DD01D4FBCE11
(1427493555.107362) can0 477#B401377AC5001400
(1427493555.163789) can0 475#6013200000025000
(1427493555.164089) can0 306#0B007D02C7070000
(1427493555.164354) can0 294#83049CFFFA002103
(1427493555.164627) can0 270#8C130102D4FB0512
(1427493555.205413) can0 477#D401297AC5001400
(1427493555.263887) can0 475#6813200000024800
(1427493555.264227) can0 306#0B007E02C8070000
(1427493555.264583) can0 294#8D049CFFFA002403
(1427493555.264796) can0 270#8B130502C3FB1A12
(1427493555.301696) can0 477#A6012E7AC5001400
(1427493555.364010) can0 475#6413200000024A00
(1427493555.364319) can0 306#0B007D02C7070000
(1427493555.364568) can0 294#86049CFFFA001F03
(1427493555.364767) can0 270#8B130202D4FB8111
(1427493555.398255) can0 477#B9012E7AC5001400
(1427493555.463731) can0 475#6C13200000025000
(1427493555.464136) can0 306#0C007F02CB070000
(1427493555.464488) can0 294#22049CFFFA001A03
(1427493555.464849) can0 270#8C13D601D4FBD411
(1427493555.496356) can0 477#9301337AC5001400
(1427493555.563708) can0 475#6E13200000024200
(1427493555.564138) can0 306#0D007F02CC070000
(1427493555.564389) can0 294#3D049CFFFA000503
(1427493555.564638) can0 270#8D13E201D0FB8112
(1427493555.592290) can0 477#B701377AC5001400
(1427493555.663692) can0 475#6413200000024B00
(1427493555.664111) can0 306#0D007E02C9070000
(1427493555.664405) can0 294#9B049CFFFA001503
(1427493555.664846) can0 270#8D130C02D4FBED11
(1427493555.689208) can0 477#C301277AC5001400
(1427493555.763821) can0 475#7013200000024C00
(1427493555.764154) can0 306#0C007E02C8070000
(1427493555.764408) can0 294#7E049CFFFA001B03
(1427493555.764658) can0 270#8D13FF01D3FBB911
(1427493555.786186) can0 477#C101307AC5001400
(1427493555.863769) can0 475#6013200000024B00
(1427493555.864088) can0 306#0D007C02C4070000
(1427493555.864341) can0 294#B6049CFFFA003603
(1427493555.864694) can0 270#8C131702D4FBE211
(1427493555.883275) can0 477#D0011B7AC5001400
(1427493555.963766) can0 475#5D13200000024600
(1427493555.964250) can0 306#0D007D02C6070000
(1427493555.964506) can0 294#96049CFFFA003903
(1427493555.964754) can0 270#89130902D4FBC911
(1427493555.980080) can0 477#B1011F7AC5001400
(1427493556.063953) can0 475#6013200000024700
(1427493556.064268) can0 306#0D007D02C6070000
(1427493556.064620) can0 270#89130602D0FBDE11
(1427493556.064831) can0 294#8E049CFFFA003A03
(1427493556.077029) can0 477#DA01287AC5001400
(1427493556.163852) can0 475#6A13200000024F00
(1427493556.164153) can0 306#0C007E02CA070000
(1427493556.164539) can0 294#63049CFFFA002C03
(1427493556.164738) can0 270#8B13F201D4FBAB11
(1427493556.175340) can0 477#AD012C7AC5001400
(1427493556.263741) can0 475#6A13200000024C00
(1427493556.264164) can0 306#0C007E02C9070000
(1427493556.264450) can0 294#93049CFFFA002103
(1427493556.264851) can0 270#8C130802D4FBD411
(1427493556.271027) can0 477#BE012F7AC5001400
(1427493556.363721) can0 475#6613200000024100
(1427493556.364359) can0 306#0C007F02CD070000
(1427493556.364757) can0 270#8C13E101D4FB7912
(1427493556.368022) can0 477#A101307AC5001400
(1427493556.463707) can0 475#6013200000024E00
(1427493556.464138) can0 306#0C007E02CA070000
(1427493556.464389) can0 294#74049CFFFA000F03
(1427493556.464845) can0 270#8C13FA01D4FB6811
(1427493556.465093) can0 477#CE01347AC5001400
(1427493556.561916) can0 477#DE01217AC5001400
(1427493556.563614) can0 475#6213200000024A00
(1427493556.564414) can0 306#0C007D02C6070000
(1427493556.658896) can0 477#C701277AC5001400
(1427493556.663574) can0 475#6213200000024700
(1427493556.663953) can0 306#0D007D02C7070000
(1427493556.664231) can0 294#C6049CFFFA003D03
(1427493556.664526) can0 270#8A131F02D1FBB911
(1427493556.755850) can0 477#C6011B7AC5001400
(1427493556.763577) can0 475#5B13200000024F00
(1427493556.763860) can0 306#0E007D02C6070000
(1427493556.764222) can0 294#A0049CFFFA004903
(1427493556.764467) can0 270#8B130E02C3FBDB11
(1427493556.852808) can0 477#B801377AC5001400
(1427493556.863794) can0 475#5D13200000024200
(1427493556.864071) can0 306#0E007F02CB070000
(1427493556.864325) can0 294#60049CFFFA002103
(1427493556.864759) can0 270#8A13F101D0FB6112
(1427493556.949781) can0 477#0302167AC5001400
(1427493556.963715) can0 475#6213200000024C00
(1427493556.964013) can0 306#0D007C02C3070000
(1427493556.964259) can0 294#10059CFFFA004C03
(1427493556.964508) can0 270#8A134002D0FB4D12
(1427493557.046797) can0 477#FE01107AC5001400
(1427493557.063749) can0 475#6213200000024C00
(1427493557.064033) can0 306#0D007B02C0070000
(1427493557.064288) can0 294#17059CFFFA006A03
(1427493557.064531) can0 270#88134202CAFB0512
(1427493557.143862) can0 477#0602017AC5001400
(1427493557.163671) can0 475#6413200000024B00
(1427493557.163956) can0 306#0D007A02BE070000
(1427493557.164216) can0 294#24059CFFFA008803
(1427493557.164559) can0 270#85134802C6FBFA11
(1427493557.240743) can0 477#F401FD79C5001400
(1427493557.263673) can0 475#5B13200000024D00
(1427493557.263950) can0 306#0D007B02C1070000
(1427493557.264207) can0 294#02059CFFFA008903
(1427493557.264631) can0 270#85133902CBFBD611
(1427493557.337680) can0 477#F801117AC5001400
(1427493557.363648) can0 475#5D13200000024C00
(1427493557.363974) can0 306#0D007B02BF070000
(1427493557.364229) can0 294#57059CFFFA008703
(1427493557.364480) can0 270#86135F02CBFBDC11
(1427493557.434617) can0 477#2402FD79C5001400
(1427493557.463786) can0 475#5F13200000025100
(1427493557.464116) can0 306#0D007A02BE070000
(1427493557.464378) can0 294#5D059CFFFA009E03
(1427493557.464827) can0 270#84136202C3FBFE11
(1427493557.531577) can0 477#0B02FE79C5001400
(1427493557.563966) can0 475#5B13200000025100
(1427493557.564264) can0 306#0E007A02BD070000
(1427493557.564520) can0 294#A5059CFFFA00A603
(1427493557.564766) can0 270#84138202C9FBC611
(1427493557.628589) can0 477#2302F179C5001400
(1427493557.663966) can0 475#5D13200000024D00
(1427493557.664296) can0 306#0F007A02BE070000
(1427493557.664573) can0 294#4A059CFFFA00BA03
(1427493557.664882) can0 270#84135902C6FBEF11
(1427493557.725565) can0 477#0002FC79C5001400
(1427493557.763896) can0 475#5F13200000024F00
(1427493557.764231) can0 306#0F007B02C1070000
(1427493557.764500) can0 294#31059CFFFA00A603
(1427493557.764752) can0 270#84134E02C6FBF111
(1427493557.822523) can0 477#1502007AC5001400
(1427493557.863832) can0 475#5913200000025100
(1427493557.864154) can0 306#0F007B02C0070000
(1427493557.864418) can0 294#67059CFFFA00A703
(1427493557.864769) can0 270#84136602B9FBC211
(1427493557.919499) can0 477#2702F579C5001400
(1427493557.963889) can0 475#5F13200000024F00
(1427493557.964188) can0 306#0F007B02C0070000
(1427493557.964440) can0 294#61059CFFFA00AF03
(1427493557.964694) can0 270#83136302C6FB0312
(1427493558.016449) can0 477#1502FA79C5001400
(1427493558.063650) can0 475#5B13200000025400
(1427493558.063983) can0 306#0F007A02BE070000
(1427493558.064251) can0 294#82059CFFFA00BC03
(1427493558.064502) can0 270#83137202C6FBEB11
(1427493558.113414) can0 477#1B02EC79C5001400
(1427493558.163844) can0 475#5B13200000024900
(1427493558.164158) can0 306#10007B02BF070000
(1427493558.164561) can0 294#4C059CFFFA00BF03
(1427493558.164822) can0 270#83135A02C6FBE011
(1427493558.210349) can0 477#2902F279C5001400
(1427493558.263858) can0 475#5513200000024A00
(1427493558.264142) can0 306#10007A02BC070000
(1427493558.264395) can0 294#EC059CFFFA00CF03
(1427493558.264826) can0 270#8213A102C4FB3412
(1427493558.307354) can0 477#3B02EA79C5001400
(1427493558.363848) can0 475#5313200000024800
(1427493558.364266) can0 306#10007A02BD070000
(1427493558.365079) can0 294#87059CFFFA00E003
(1427493558.365341) can0 270#80137402C2FB5712
(1427493558.404296) can0 477#4902E679C5001400
(1427493558.463992) can0 475#5713200000024A00
(1427493558.464308) can0 306#10007902BB070000
(1427493558.464559) can0 294#E6059CFFFA00E403
(1427493558.464925) can0 270#80139E02C2FB3612
(1427493558.502014) can0 477#2D02E879C5001400
(1427493558.563994) can0 475#5713200000024C00
(1427493558.564453) can0 306#11007A02BE070000
(1427493558.564664) can0 294#A5059CFFFA00EC03
(1427493558.564932) can0 270#81138202C2FBBF11
(1427493558.598257) can0 477#2202E379C5001400
(1427493558.663991) can0 475#5913200000025000
(1427493558.664314) can0 306#10007B02BF070000
(1427493558.664569) can0 294#93059CFFFA00DF03
(1427493558.664868) can0 270#80137A02C2FB4612
(1427493558.695251) can0 477#3002E879C5001400
(1427493558.763867) can0 475#5F13200000024C00
(1427493558.764197) can0 306#10007B02C1070000
(1427493558.764449) can0 294#6F059CFFFA00E303
(1427493558.764698) can0 270#80136A02A8FBFC11
(1427493558.792227) can0 477#1D02DF79C5001400
(1427493558.863905) can0 475#5F13200000024E00
(1427493558.864197) can0 306#0F007B02C1070000
(1427493558.864449) can0 294#8D059CFFFA00D803
(1427493558.864879) can0 270#7F137702C2FBFE11
(1427493558.890015) can0 477#3D02E679C5001400
(1427493558.963882) can0 475#5513200000024E00
(1427493558.964297) can0 306#10007B02C0070000
(1427493558.964544) can0 294#96059CFFFA00E503
(1427493558.964783) can0 270#80137B02B3FBF911
(1427493558.986384) can0 477#1D02DF79C5001400
(1427493559.064038) can0 475#5913200000024F00
(1427493559.064348) can0 306#0F007C02C3070000
(1427493559.064598) can0 270#80136F02C2FB7D11
(1427493559.064894) can0 294#7B059CFFFA00DA03
(1427493559.083250) can0 477#2502EC79C5001400
(1427493559.164090) can0 475#5B13200000025400
(1427493559.164399) can0 294#D5059CFFFA00E703
(1427493559.164605) can0 306#0F007B02C1070000
(1427493559.164853) can0 270#81139702AFFBFE11
(1427493559.180142) can0 477#2502DE79C5001400
(1427493559.264012) can0 475#6013200000024700
(1427493559.264344) can0 306#0F007D02C5070000
(1427493559.264596) can0 270#7F135602C2FB2712
(1427493559.264881) can0 294#75059CFFFA00DA03
(1427493559.277045) can0 477#3002E579C5001400
(1427493559.363962) can0 475#5713200000025100
(1427493559.364295) can0 306#0F007D02C5070000
(1427493559.364551) can0 294#7E059CFFFA00CF03
(1427493559.364802) can0 270#7F138502C2FBE911
(1427493559.374020) can0 477#2C02E379C5001400
(1427493559.463953) can0 475#5913200000024B00
(1427493559.464318) can0 306#0E007E02C8070000
(1427493559.464582) can0 270#80136202B5FB4D12
(1427493559.464867) can0 294#20059CFFFA00C303
(1427493559.470970) can0 477#1402EB79C5001400
(1427493559.563917) can0 475#5713200000025000
(1427493559.564231) can0 306#0E007D02C6070000
(1427493559.564486) can0 294#9F059CFFFA00C503
(1427493559.564733) can0 270#82137B02BFFBE311
(1427493559.567915) can0 477#3A02EB79C5001400
(1427493559.663704) can0 475#5713200000025100
(1427493559.664127) can0 306#0E007D02C6070000
(1427493559.664381) can0 294#6C059CFFFA00D003
(1427493559.664637) can0 270#82136802B5FBFC11
(1427493559.665094) can0 477#1D02E279C5001400
(1427493559.761893) can0 477#2702EA79C5001400
(1427493559.763850) can0 475#6013200000024900
(1427493559.764132) can0 306#0F007E02C9070000
(1427493559.764387) can0 294#4D059CFFFA00C403
(1427493559.764641) can0 270#80135A02BEFB1512
(1427493559.858843) can0 477#FC01EB79C5001400
(1427493559.863840) can0 475#6013200000024F00
(1427493559.864117) can0 306#0F007F02CB070000
(1427493559.864367) can0 294#52059CFFFA00B703
(1427493559.864616) can0 270#81135D02C2FB1112
(1427493559.955835) can0 477#F901F979C5001400
(1427493559.963863) can0 475#6213200000024F00
(1427493559.964245) can0 306#0F008002CE070000
(1427493559.964499) can0 294#F1049CFFFA009E03
(1427493559.964743) can0 270#81134402C0FB5A12
(1427493560.052839) can0 477#0F02F279C5001400
(1427493560.063880) can0 475#5313200000025000
(1427493560.064184) can0 306#0E007E02C9070000
(1427493560.064435) can0 294#8E059CFFFA00B103
(1427493560.064686) can0 270#84137802BDFBC011
(1427493560.149770) can0 477#2602F079C5001400
(1427493560.163765) can0 475#4D13200000024A00
(1427493560.164107) can0 306#0D007E02CA070000
(1427493560.164359) can0 294#8E059CFFFA00BB03
(1427493560.164612) can0 270#80135402C2FBCC11
(1427493560.246738) can0 477#2002EE79C5001400
(1427493560.263752) can0 475#5713200000024C00
(1427493560.264073) can0 306#0D007E02C9070000
(1427493560.264325) can0 294#52059CFFFA00BE03
(1427493560.264574) can0 270#80135D02C2FB2F12
(1427493560.343669) can0 477#E601ED79C5001400
(1427493560.363718) can0 475#5F13200000024D00
(1427493560.364040) can0 306#0D008002D0070000
(1427493560.364299) can0 294#C8049CFFFA009E03
(1427493560.364546) can0 270#81133202C2FBFE11
(1427493560.440651) can0 477#FA01057AC5001400
(1427493560.464106) can0 475#5F13200000024F00
(1427493560.464534) can0 270#85133A02C5FBC411
(1427493560.537834) can0 477#FC01F679C5001400
(1427493560.563641) can0 475#5B13200000024C00
(1427493560.563983) can0 306#0D008002CF070000
(1427493560.564363) can0 294#00059CFFFA008F03
(1427493560.564617) can0 270#85134402B1FB1512
(1427493560.634606) can0 477#1B02F979C5001400
(1427493560.664047) can0 475#5B13200000025000
(1427493560.664373) can0 306#0C007E02CA070000
(1427493560.664623) can0 294#96059CFFFA009E03
(1427493560.664948) can0 270#84137B02C1FBDE11
(1427493560.731552) can0 477#1902E879C5001400
(1427493560.763996) can0 475#5F13200000025400
(1427493560.764309) can0 306#0D007E02C8070000
(1427493560.764559) can0 294#64059CFFFA00C203
(1427493560.764807) can0 270#82136502C5FB7D11
(1427493560.828578) can0 477#0C02EC79C5001400
(1427493560.863955) can0 475#5F13200000024500
(1427493560.864265) can0 306#0C007E02CA070000
(1427493560.864515) can0 294#45059CFFFA00BA03
(1427493560.864764) can0 270#82135702C5FB6112
(1427493560.925512) can0 477#1202EA79C5001400
(1427493560.963947) can0 475#5513200000024F00
(1427493560.964240) can0 306#0C007E02CA070000
(1427493560.964494) can0 294#58059CFFFA00B503
(1427493560.964741) can0 270#83136002B1FBE711
(1427493561.022682) can0 477#1B02ED79C5001400
(1427493561.063973) can0 475#5313200000025400
(1427493561.064260) can0 306#0C007F02CD070000
(1427493561.064511) can0 294#32059CFFFA00A903
(1427493561.064761) can0 270#82134E02C5FBBD11
(1427493561.119498) can0 477#1602F279C5001400
(1427493561.163968) can0 475#5713200000025000
(1427493561.164266) can0 306#0C007E02C8070000
(1427493561.164538) can0 294#86059CFFFA00BA03
(1427493561.164788) can0 270#82137402C5FBC811
(1427493561.216436) can0 477#1C02E679C5001400
(1427493561.263907) can0 475#5913200000024800
(1427493561.264351) can0 306#0D007E02CA070000
(1427493561.264605) can0 294#39059CFFFA00C103
(1427493561.264881) can0 270#80135202C1FB2112
(1427493561.313373) can0 477#1D02E479C5001400
(1427493561.364061) can0 475#5F13200000025100
(1427493561.364387) can0 306#0C007E02C8070000
(1427493561.364640) can0 294#AA059CFFFA00C703
(1427493561.364886) can0 270#80138402C5FB1112
(1427493561.410340) can0 477#1702E579C5001400
(1427493561.464144) can0 475#5913200000024F00
(1427493561.464438) can0 306#0D007F02CB070000
(1427493561.464690) can0 294#5F059CFFFA00BD03
(1427493561.464929) can0 270#80136302C3FBD611
(1427493561.507371) can0 477#1E02E579C5001400
(1427493561.564124) can0 475#5913200000025000
(1427493561.564428) can0 294#5A059CFFFA00B903
(1427493561.564640) can0 306#0D007E02CA070000
(1427493561.564891) can0 270#80136002B9FBD611
(1427493561.604312) can0 477#1D02E479C5001400
(1427493561.664019) can0 475#5F13200000024A00
(1427493561.664343) can0 306#0D007E02CA070000
(1427493561.664596) can0 294#7F059CFFFA00C003
(1427493561.664845) can0 270#80137102C5FB1112
(1427493561.701321) can0 477#2A02E879C5001400
(1427493561.764042) can0 475#5313200000025200
(1427493561.764383) can0 306#0D007E02C9070000
(1427493561.764636) can0 294#7F059CFFFA00C203
(1427493561.764883) can0 270#80137102C5FBC011
(1427493561.798271) can0 477#1E02E679C5001400
(1427493561.864040) can0 475#5713200000024E00
(1427493561.864368) can0 306#0D007E02C9070000
(1427493561.864622) can0 294#5D059CFFFA00C903
(1427493561.864867) can0 270#80136202A7FBF911
(1427493561.895202) can0 477#2E02E079C5001400
(1427493561.963948) can0 475#6013200000025100
(1427493561.964898) can0 306#0D007F02CB070000
(1427493561.992277) can0 477#0B02E279C5001400
(1427493562.063950) can0 475#5513200000024800
(1427493562.064373) can0 306#0D007F02CD070000
(1427493562.064622) can0 294#11059CFFFA00BA03
(1427493562.064874) can0 270#80134002C5FB4012
(1427493562.089176) can0 477#0802EA79C5001400
(1427493562.163935) can0 475#5F13200000024900
(1427493562.164256) can0 306#0D007F02CD070000
(1427493562.164511) can0 294#52059CFFFA00AD03
(1427493562.164759) can0 270#81135D02AAFB3812
(1427493562.186103) can0 477#FE01EF79C5001400
(1427493562.263895) can0 475#5113200000024D00
(1427493562.264216) can0 306#0D007E02C9070000
(1427493562.264586) can0 294#B1059CFFFA00BE03
(1427493562.264834) can0 270#82138702C5FBD211
(1427493562.284386) can0 477#2A02E879C5001400
(1427493562.364027) can0 475#5313200000025300
(1427493562.364350) can0 306#0E007F02CC070000
(1427493562.364601) can0 294#4A059CFFFA00B903
(1427493562.364848) can0 270#82135902C5FBC411
(1427493562.380771) can0 477#1202E879C5001400
(1427493562.464027) can0 475#5313200000024B00
(1427493562.464356) can0 306#0E007F02CC070000
(1427493562.464607) can0 294#3A059CFFFA00B403
(1427493562.464848) can0 270#80135202A7FB6E12
(1427493562.476987) can0 477#1802EA79C5001400
(1427493562.563819) can0 475#5913200000025200
(1427493562.564247) can0 306#0E007F02CC070000
(1427493562.564506) can0 294#87059CFFFA00B403
(1427493562.564755) can0 270#80137402C5FBC011
(1427493562.575343) can0 477#1602E879C5001400
(1427493562.663965) can0 475#5B13200000024E00
(1427493562.664287) can0 306#0E007E02C8070000
(1427493562.664538) can0 294#A9059CFFFA00C903
(1427493562.664784) can0 270#80138402BFFBFA11
(1427493562.672293) can0 477#4902E079C5001400
(1427493562.763725) can0 475#5913200000024C00
(1427493562.764124) can0 306#0E007D02C7070000
(1427493562.764384) can0 294#9C059CFFFA00DD03
(1427493562.764631) can0 270#80137E02C3FB0E12
(1427493562.767878) can0 477#4002DC79C5001400
(1427493562.863977) can0 475#5713200000025300
(1427493562.864290) can0 294#3C059CFFFA00CE03
(1427493562.864497) can0 306#0E007F02CB070000
(1427493562.864745) can0 270#7F135302BFFB2112
(1427493562.865151) can0 477#0E02DF79C5001400
(1427493562.962126) can0 477#E801F379C5001400
(1427493562.963918) can0 475#5313200000025100
(1427493562.964284) can0 306#0D008002D0070000
(1427493562.964560) can0 294#F9049CFFFA00AD03
(1427493562.964808) can0 270#7F133502C3FBFA11
(1427493563.058853) can0 477#D901007AC5001400
(1427493563.064026) can0 475#6013200000024100
(1427493563.064345) can0 306#0D008102D4070000
(1427493563.064598) can0 294#01059CFFFA008203
(1427493563.064847) can0 270#83133902C6FB6312
(1427493563.155804) can0 477#3902F879C5001400
(1427493563.163773) can0 475#5713200000025000
(1427493563.164292) can0 306#0D007F02CD070000
(1427493563.164500) can0 294#6A059CFFFA009903
(1427493563.164747) can0 270#85136702C3FBAB11
(1427493563.252791) can0 477#4202E579C5001400
(1427493563.263838) can0 475#5713200000025100
(1427493563.264274) can0 306#0D007D02C5070000
(1427493563.264524) can0 294#D6059CFFFA00CE03
(1427493563.264765) can0 270#85139702BDFBFA11
(1427493563.349783) can0 477#6702C679C5001400
(1427493563.363746) can0 475#6413200000025700
(1427493563.364032) can0 306#0E007B02BF070000
(1427493563.364281) can0 294#2D069CFFFA000704
(1427493563.364527) can0 270#8013BE02B9FB7A11
(1427493563.446714) can0 477#4102C979C5001400
(1427493563.463722) can0 475#5D13200000024F00
(1427493563.464036) can0 306#0F007C02C4070000
(1427493563.464415) can0 294#C4059CFFFA000404
(1427493563.464661) can0 270#7A138F02A8FB2A12
(1427493563.543667) can0 477#2002DC79C5001400
(1427493563.563749) can0 475#5113200000025000
(1427493563.564163) can0 306#0F007E02C8070000
(1427493563.564412) can0 294#89059CFFFA00E903
(1427493563.564657) can0 270#7A137502B9FBE711
(1427493563.640712) can0 477#3602DB79C5001400
(1427493563.663747) can0 475#5F13200000024C00
(1427493563.664159) can0 306#10007F02CB070000
(1427493563.664415) can0 294#49059CFFFA00D803
(1427493563.664657) can0 270#7F135902B9FBFC11
(1427493563.737583) can0 477#2902DB79C5001400
(1427493563.764090) can0 475#5B13200000024F00
(1427493563.764911) can0 306#10007E02C9070000
(1427493563.765179) can0 294#C2059CFFFA00D603
(1427493563.834584) can0 477#2C02D179C5001400
(1427493563.864135) can0 475#5313200000025000
(1427493563.864543) can0 306#10007D02C7070000
(1427493563.864790) can0 294#B7059CFFFA00EA03
(1427493563.865675) can0 270#7F138A02BAFB3312
(1427493563.931553) can0 477#2502D279C5001400
(1427493563.964168) can0 475#5D13200000025200
(1427493563.964480) can0 306#10007D02C6070000
(1427493563.964732) can0 294#CC059CFFFA00F303
(1427493563.964980) can0 270#7D139302BAFBB311
(1427493564.028526) can0 477#5902C879C5001400
(1427493564.064122) can0 475#5513200000025100
(1427493564.064431) can0 306#10007D02C5070000
(1427493564.064687) can0 294#C9059CFFFA000404
(1427493564.064935) can0 270#7C139202B4FB1F12
(1427493564.125512) can0 477#4B02CE79C5001400
(1427493564.164047) can0 475#5913200000024B00
(1427493564.164456) can0 306#10007D02C6070000
(1427493564.164710) can0 294#C6059CFFFA000004
(1427493564.164959) can0 270#7C139002BAFB0A12
(1427493564.222478) can0 477#4002CF79C5001400
(1427493564.263937) can0 475#5513200000024D00
(1427493564.264253) can0 306#0F007D02C7070000
(1427493564.264506) can0 294#A9059CFFFA00FB03
(1427493564.264749) can0 270#7D138302B2FB0812
(1427493564.319427) can0 477#3B02D279C5001400
(1427493564.364006) can0 475#4413200000024D00
(1427493564.364421) can0 306#0F007D02C7070000
(1427493564.364670) can0 294#C1059CFFFA00F803
(1427493564.364916) can0 270#7C138E02B4FB2712
(1427493564.416424) can0 477#4C02C879C5001400
(1427493564.464203) can0 475#5513200000025300
(1427493564.464491) can0 306#0E007C02C4070000
(1427493564.464739) can0 294#2A069CFFFA000704
(1427493564.464983) can0 270#7C13BD02BAFB8611
(1427493564.513468) can0 477#5E02C779C5001400
(1427493564.564126) can0 475#5913200000025100
(1427493564.564474) can0 306#0E007D02C5070000
(1427493564.564729) can0 294#F1059CFFFA000C04
(1427493564.564988) can0 270#7C13A302BAFB0C12
(1427493564.610284) can0 477#4202C779C5001400
(1427493564.664129) can0 475#5913200000024A00
(1427493564.664462) can0 306#0E007D02C5070000
(1427493564.664714) can0 294#D6059CFFFA001104
(1427493564.664960) can0 270#7C139802AEFB4412
(1427493564.707301) can0 477#4A02C079C5001400
(1427493564.764117) can0 475#5113200000025500
(1427493564.764411) can0 306#0F007E02C8070000
(1427493564.764681) can0 294#D3059CFFFA000A04
(1427493564.764928) can0 270#7B139602BAFBD011
(1427493564.804307) can0 477#2C02CB79C5001400
(1427493564.864091) can0 475#5513200000025000
(1427493564.864381) can0 306#0F007E02C8070000
(1427493564.864631) can0 294#C1059CFFFA00FF03
(1427493564.864875) can0 270#7B138E02BAFB2312
(1427493564.901403) can0 477#5402C779C5001400
(1427493564.964079) can0 475#5913200000024D00
(1427493564.964488) can0 306#0F007E02C8070000
(1427493564.964736) can0 294#CE059CFFFA000504
(1427493564.964983) can0 270#7C139402A9FBDB11
(1427493564.998260) can0 477#5102C379C5001400
(1427493565.064019) can0 475#4D13200000025400
(1427493565.064323) can0 306#0F007E02C8070000
(1427493565.064596) can0 294#14069CFFFA000004
(1427493565.064847) can0 270#7C13B302BAFBE011
(1427493565.095178) can0 477#4C02C379C5001400
(1427493565.164003) can0 475#5313200000024D00
(1427493565.164294) can0 306#0F007E02C9070000
(1427493565.164544) can0 270#7C137F02BAFB0A12
(1427493565.164746) can0 294#9F059CFFFA000404
(1427493565.192651) can0 477#4002C579C5001400
(1427493565.264171) can0 475#5D13200000025000
(1427493565.264498) can0 306#0F007E02CA070000
(1427493565.264748) can0 294#C9059CFFFA00FA03
(1427493565.264955) can0 270#7B139102ACFB2912
(1427493565.289160) can0 477#4802C979C5001400
(1427493565.364209) can0 475#4D13200000025400
(1427493565.364533) can0 294#E5059CFFFA000C04
(1427493565.364741) can0 306#0F007D02C7070000
(1427493565.364989) can0 270#7B139E02B9FBCA11
(1427493565.386123) can0 477#6502BE79C5001400
(1427493565.464160) can0 475#5B13200000025400
(1427493565.464500) can0 306#10007D02C7070000
(1427493565.464754) can0 294#FC059CFFFA000E04
(1427493565.465000) can0 270#7B13A802BAFB1512
(1427493565.483833) can0 477#4A02C679C5001400
(1427493565.564119) can0 475#5D13200000024400
(1427493565.564989) can0 306#10007D02C5070000
(1427493565.565253) can0 294#29069CFFFA001C04
(1427493565.580006) can0 477#5202B679C5001400
(1427493565.664029) can0 475#4D13200000025300
(1427493565.664349) can0 306#10007E02C9070000
(1427493565.664600) can0 294#C3059CFFFA000D04
(1427493565.664846) can0 270#7B138F02BAFB4612
(1427493565.677007) can0 477#3902C679C5001400
(1427493565.764063) can0 475#4F13200000025300
(1427493565.764396) can0 306#10007F02CB070000
(1427493565.764657) can0 294#9C059CFFFA000204
(1427493565.764921) can0 270#7B137E02AEFB0812
(1427493565.775168) can0 477#4902C679C5001400
(1427493565.864078) can0 475#5313200000024E00
(1427493565.864401) can0 306#0F008002CE070000
(1427493565.864661) can0 294#8B059CFFFA00F203
(1427493565.864908) can0 270#7B137602BAFB0012
(1427493565.870919) can0 477#2C02CE79C5001400
(1427493565.963968) can0 475#5513200000025000
(1427493565.964307) can0 306#0F008002CF070000
(1427493565.964558) can0 270#7E138402BAFBFA11
(1427493565.964759) can0 294#AB059CFFFA00DF03
(1427493565.967908) can0 477#2E02D179C5001400
(1427493566.063988) can0 475#5113200000024E00
(1427493566.064327) can0 306#0F007F02CC070000
(1427493566.064581) can0 294#A6059CFFFA00E803
(1427493566.064824) can0 270#7E138202A9FB5512
(1427493566.065067) can0 477#3C02CF79C5001400
(1427493566.161877) can0 477#5F02C279C5001400
(1427493566.163925) can0 475#5513200000025200
(1427493566.164230) can0 306#0F007E02C8070000
(1427493566.164500) can0 294#0C069CFFFA00FC03
(1427493566.164750) can0 270#7D13AF02BAFB7511
(1427493566.258821) can0 477#7D02AA79C5001400
(1427493566.263918) can0 475#4B13200000025400
(1427493566.264252) can0 306#0F007C02C3070000
(1427493566.264501) can0 294#38069CFFFA002F04
(1427493566.264751) can0 270#7713C302A2FBF111
(1427493566.355831) can0 477#5802AE79C5001400
(1427493566.363883) can0 475#5D13200000025300
(1427493566.364169) can0 306#0F007C02C4070000
(1427493566.364438) can0 294#13069CFFFA003304
(1427493566.364685) can0 270#7713B302B5FB2912
(1427493566.452812) can0 477#5B02B479C5001400
(1427493566.463890) can0 475#5713200000024E00
(1427493566.464197) can0 306#0F007D02C6070000
(1427493566.464448) can0 294#C4059CFFFA003104
(1427493566.464708) can0 270#77138F02B5FB2512
(1427493566.549741) can0 477#2902C279C5001400
(1427493566.564012) can0 475#5D13200000024D00
(1427493566.564359) can0 294#E0059CFFFA001004
(1427493566.564576) can0 306#10007F02CB070000
(1427493566.564830) can0 270#7B139C0299FB3812
(1427493566.646722) can0 477#4802BF79C5001400
(1427493566.663819) can0 475#5113200000025100
(1427493566.664137) can0 306#11007E02CA070000
(1427493566.664390) can0 294#AE059CFFFA001004
(1427493566.664640) can0 270#7B138602B2FB0A12
(1427493566.743690) can0 477#3D02C479C5001400
(1427493566.763980) can0 475#4B13200000025500
(1427493566.764301) can0 306#12008002CE070000
(1427493566.764556) can0 294#98059CFFFA00FA03
(1427493566.764801) can0 270#7A137C02B5FBDE11
(1427493566.840791) can0 477#4002C779C5001400
(1427493566.863724) can0 475#4713200000024E00
(1427493566.863997) can0 306#12007F02CC070000
(1427493566.864389) can0 294#F9059CFFFA00F603
(1427493566.864644) can0 270#7C13A702A8FB2D12
(1427493566.937675) can0 477#4A02B679C5001400
(1427493566.964242) can0 475#5313210000024D00
(1427493566.964547) can0 306#11007E02CA070000
(1427493566.964801) can0 294#BD059CFFFA000804
(1427493566.965004) can0 270#7C138C02B5FB1D12
(1427493567.034607) can0 477#5902BF79C5001400
(1427493567.064009) can0 475#5113210000025000
(1427493567.064317) can0 306#12007D02C7070000
(1427493567.064595) can0 294#F9059CFFFA001904
(1427493567.064843) can0 270#7A13A702A9FBF111
(1427493567.131565) can0 477#6302B179C5001400
(1427493567.164139) can0 475#5713210000024D00
(1427493567.164457) can0 306#12007F02CC070000
(1427493567.164712) can0 294#B0059CFFFA001404
(1427493567.164961) can0 270#781386029FFB1D12
(1427493567.228514) can0 477#0602CF79C5001400
(1427493567.263949) can0 475#5713200000024B00
(1427493567.264290) can0 306#12008102D4070000
(1427493567.264544) can0 294#28059CFFFA00DF03
(1427493567.264804) can0 270#78134A02BDFB3612
(1427493567.325481) can0 477#0602E379C5001400
(1427493567.364025) can0 475#5B13210000025400
(1427493567.364359) can0 306#11008202D6070000
(1427493567.364617) can0 294#19059CFFFA00BC03
(1427493567.364871) can0 270#7D134302BDFB1312
(1427493567.422558) can0 477#0802E179C5001400
(1427493567.463806) can0 475#5113210000024A00
(1427493567.464117) can0 306#11008102D4070000
(1427493567.464365) can0 294#78059CFFFA00AD03
(1427493567.464615) can0 270#80136E0291FB2112
(1427493567.519422) can0 477#5702DA79C5001400
(1427493567.563999) can0 475#4F13200000024F00
(1427493567.564338) can0 306#11007F02CC070000
(1427493567.564590) can0 294#D7059CFFFA00DB03
(1427493567.564841) can0 270#80139802BFFB2D12
(1427493567.616422) can0 477#5302C379C5001400
(1427493567.663997) can0 475#5513210000025500
(1427493567.664431) can0 306#11007D02C6070000
(1427493567.664684) can0 294#FA059CFFFA000A04
(1427493567.664932) can0 270#7B13A802B8FBBF11
(1427493567.713446) can0 477#6902B779C5001400
(1427493567.764081) can0 475#4F13210000025300
(1427493567.764397) can0 306#11007D02C5070000
(1427493567.764651) can0 294#22069CFFFA002604
(1427493567.764900) can0 270#7813B902B1FBF311
(1427493567.810323) can0 477#5302AE79C5001400
(1427493567.864091) can0 475#5913210000024E00
(1427493567.864411) can0 306#10007E02CA070000
(1427493567.864666) can0 294#BE059CFFFA001D04
(1427493567.864915) can0 270#78138D02B8FB4612
(1427493567.907323) can0 477#3C02BA79C5001400
(1427493567.964188) can0 475#5713210000024D00
(1427493567.964494) can0 306#0F007F02CC070000
(1427493567.964747) can0 294#B9059CFFFA000104
(1427493567.964995) can0 270#79138B02B0FB4412
(1427493568.004293) can0 477#4102CA79C5001400
(1427493568.064028) can0 475#5D13210000024F00
(1427493568.064357) can0 306#0F008002D0070000
(1427493568.064613) can0 294#4F059CFFFA00F003
(1427493568.064864) can0 270#7B135C02AAFBEF11
(1427493568.101399) can0 477#1502C579C5001400
(1427493568.164077) can0 475#5B13210000024D00
(1427493568.164845) can0 306#0F008002D1070000
(1427493568.165143) can0 294#A4059CFFFA00DB03
(1427493568.198218) can0 477#3902CC79C5001400
(1427493568.263992) can0 475#5913210000024F00
(1427493568.264314) can0 306#0F008002CF070000
(1427493568.264557) can0 294#8F059CFFFA00E503
(1427493568.264806) can0 270#7E137802A7FB1312
(1427493568.295229) can0 477#2302C879C5001400
(1427493568.364009) can0 475#5713210000024F00
(1427493568.364420) can0 306#0F008002D0070000
(1427493568.364670) can0 294#7B059CFFFA00D503
(1427493568.364917) can0 270#7C136F02BAFB3412
(1427493568.392212) can0 477#4E02D379C5001400
(1427493568.464159) can0 475#4F13210000024C00
(1427493568.464471) can0 306#0E008002CE070000
(1427493568.464722) can0 270#7C138102B7FB0812
(1427493568.464924) can0 294#A4059CFFFA00EB03
(1427493568.489268) can0 477#2602C179C5001400
(1427493568.564659) can0 294#8A059CFFFA00E103
(1427493568.565099) can0 270#7B137602ACFBC611
(1427493568.587186) can0 477#2E02CD79C5001400
(1427493568.664165) can0 475#5113210000025300
(1427493568.664491) can0 294#A7059CFFFA00F303
(1427493568.664698) can0 306#0E007E02CA070000
(1427493568.664946) can0 270#7B138202B3FB3112
(1427493568.683246) can0 477#3D02B579C5001400
(1427493568.764086) can0 475#5513210000024B00
(1427493568.764421) can0 306#0F007F02CD070000
(1427493568.764675) can0 294#D2059CFFFA00FA03
(1427493568.764926) can0 270#7B139602BAFB4612
(1427493568.780157) can0 477#4002C179C5001400
(1427493568.864043) can0 475#5713210000024D00
(1427493568.864367) can0 306#0E007F02CD070000
(1427493568.864621) can0 294#B1059CFFFA00F103
(1427493568.864871) can0 270#7B138702A2FB2312
(1427493568.877846) can0 477#2D02C379C5001400
(1427493568.964055) can0 475#5313210000024F00
(1427493568.964411) can0 306#0F008002D0070000
(1427493568.964668) can0 294#34059CFFFA00DE03
(1427493568.964918) can0 270#7B134F02A8FBF911
(1427493568.973978) can0 477#1C02C479C5001400
(1427493569.063981) can0 475#5D13210000024C00
(1427493569.064313) can0 306#0F008002D1070000
(1427493569.064568) can0 294#B6059CFFFA00D403
(1427493569.064822) can0 270#7B138902BAFB3312
(1427493569.070955) can0 477#2C02D079C5001400
(1427493569.163944) can0 475#4D13210000025200
(1427493569.164284) can0 306#0E008102D3070000
(1427493569.165077) can0 270#7D135002B2FB4212
(1427493569.165336) can0 294#34059CFFFA00CA03
(1427493569.168149) can0 477#1402DA79C5001400
(1427493569.263759) can0 475#5F13210000024900
(1427493569.264370) can0 306#0E008102D4070000
(1427493569.264639) can0 270#7E134E02AFFB1112
(1427493569.265006) can0 477#1C02D579C5001400
(1427493569.361902) can0 477#F801D779C5001400
(1427493569.363840) can0 475#5B13210000024900
(1427493569.364149) can0 306#0E008202D6070000
(1427493569.364412) can0 294#07059CFFFA00AF03
(1427493569.364663) can0 270#7E133C02B9FB4F12
(1427493569.458874) can0 477#1202E279C5001400
(1427493569.463911) can0 475#5D13210000025100
(1427493569.464176) can0 306#0F008102D4070000
(1427493569.464426) can0 294#48059CFFFA00A403
(1427493569.464675) can0 270#80135802C0FBED11
(1427493569.555755) can0 477#2F02C879C5001400
(1427493569.563878) can0 475#5313210000024900
(1427493569.564157) can0 306#0F008002D0070000
(1427493569.564405) can0 294#8E059CFFFA00C003
(1427493569.564653) can0 270#7F137702ACFB4612
(1427493569.652817) can0 477#4002CE79C5001400
(1427493569.663747) can0 475#5D13210000024C00
(1427493569.664092) can0 306#10008002CE070000
(1427493569.664349) can0 294#99059CFFFA00CD03
(1427493569.664592) can0 270#7F137C02B8FB1112
(1427493569.749735) can0 477#2C02CD79C5001400
(1427493569.763822) can0 475#5713210000024D00
(1427493569.764104) can0 306#10007F02CC070000
(1427493569.764364) can0 294#8C059CFFFA00DF03
(1427493569.764613) can0 270#7C137602BFFB5012
(1427493569.846771) can0 477#1C02CF79C5001400
(1427493569.863812) can0 475#4713210000024700
(1427493569.864146) can0 306#10008002D0070000
(1427493569.864410) can0 294#4C059CFFFA00CD03
(1427493569.864661) can0 270#7C135A02B4FB8812
(1427493569.943664) can0 477#1A02D479C5001400
(1427493569.963785) can0 475#5913210000024A00
(1427493569.964138) can0 306#10008002D0070000
(1427493569.964393) can0 294#50059CFFFA00C703
(1427493569.964641) can0 270#7C135C02C0FB3612
(1427493570.040617) can0 477#1D02D979C5001400
(1427493570.063925) can0 475#5513210000025300
(1427493570.064255) can0 306#0F008102D4070000
(1427493570.064511) can0 294#16059CFFFA00B003
(1427493570.064763) can0 270#7D134202C0FBE511
(1427493570.137570) can0 477#0302E479C5001400
(1427493570.165213) can0 294#68059CFFFA00A403
(1427493570.165501) can0 270#801366029FFB1012
(1427493570.234568) can0 477#FE01DE79C5001400
(1427493570.264031) can0 475#5713210000024D00
(1427493570.264359) can0 294#F9049CFFFA00A603
(1427493570.264862) can0 270#80133502BFFB0C12
(1427493570.331547) can0 477#EF01EC79C5001400
(1427493570.363823) can0 475#5B13210000024D00
(1427493570.364161) can0 306#0E008202D5070000
(1427493570.364419) can0 294#09059CFFFA009103
(1427493570.364669) can0 270#7F133D02C3FB0012
(1427493570.428510) can0 477#0F02DC79C5001400
(1427493570.463876) can0 475#5F13210000025200
(1427493570.464171) can0 306#0E008202D6070000
(1427493570.464423) can0 294#DB049CFFFA008F03
(1427493570.464671) can0 270#811328029EFB0012
(1427493570.525492) can0 477#E601DF79C5001400
(1427493570.563838) can0 475#6413210000024400
(1427493570.564136) can0 306#0E008202D7070000
(1427493570.564402) can0 294#F7049CFFFA007B03
(1427493570.564666) can0 270#81133402C6FB9712
(1427493570.622509) can0 477#0502EE79C5001400
(1427493570.663901) can0 475#6613210000025100
(1427493570.664246) can0 306#0E008202D5070000
(1427493570.664499) can0 294#D7049CFFFA008F03
(1427493570.664757) can0 270#82132602C6FBA711
(1427493570.719573) can0 477#B901E879C5001400
(1427493570.764062) can0 475#6413210000024700
(1427493570.764366) can0 294#90049CFFFA006303
(1427493570.764574) can0 306#0F008402DB070000
(1427493570.764827) can0 270#81130702C7FB0812
(1427493570.816390) can0 477#ED01FC79C5001400
(1427493570.864043) can0 475#5D13210000024A00
(1427493570.864357) can0 306#0F008402DC070000
(1427493570.864611) can0 270#81130102BBFBEE11
(1427493570.864816) can0 294#83049CFFFA005303
(1427493570.913419) can0 477#A501FD79C5001400
(1427493570.964096) can0 475#6213210000024900
(1427493570.964547) can0 306#0F008502E0070000
(1427493570.964801) can0 270#8413F101BBFB2712
(1427493570.965005) can0 294#60049CFFFA002C03
(1427493571.010325) can0 477#C001107AC5001400
(1427493571.064023) can0 475#5913210000024E00
(1427493571.064381) can0 306#0F008402DB070000
(1427493571.064640) can0 294#AF049CFFFA003403
(1427493571.064886) can0 270#87131402D2FBC211
(1427493571.107285) can0 477#B701017AC5001400
(1427493571.164160) can0 475#5D13210000024700
(1427493571.165444) can0 306#0F008402DD070000
(1427493571.165750) can0 294#5A049CFFFA003003
(1427493571.204771) can0 477#CF010B7AC5001400
(1427493571.263843) can0 475#6213210000024F00
(1427493571.264180) can0 306#0F008402DC070000
(1427493571.264432) can0 294#80049CFFFA002503
(1427493571.264679) can0 270#86130002C3FB3F12
(1427493571.302267) can0 477#AE010F7AC5001400
(1427493571.363895) can0 475#6213210000024B00
(1427493571.364216) can0 306#0F008402DD070000
(1427493571.364468) can0 294#78049CFFFA001F03
(1427493571.364717) can0 270#8713FC01D2FBDB11
(1427493571.398187) can0 477#A801137AC5001400
(1427493571.463992) can0 475#6213210000024500
(1427493571.464322) can0 306#0F008402DC070000
(1427493571.464573) can0 294#67049CFFFA001B03
(1427493571.464818) can0 270#8713F401D1FB1612
(1427493571.495877) can0 477#B9010F7AC5001400
(1427493571.563984) can0 475#5713210000024700
(1427493571.564326) can0 306#0F008402DB070000
(1427493571.564581) can0 294#3E049CFFFA002003
(1427493571.564832) can0 270#8713E201BDFBEF11
(1427493571.592332) can0 477#C3010A7AC5001400
(1427493571.664180) can0 475#6413210000024900
(1427493571.664505) can0 306#0E008402DB070000
(1427493571.664762) can0 294#6F049CFFFA001703
(1427493571.665014) can0 270#8713F801D2FB6112
(1427493571.689134) can0 477#B101117AC5001400
(1427493571.764219) can0 475#5F13210000024500
(1427493571.764565) can0 306#0E008302D9070000
(1427493571.764818) can0 294#70049CFFFA002003
(1427493571.765064) can0 270#8713F901C4FB2B12
(1427493571.786091) can0 477#A4010A7AC5001400
(1427493571.864097) can0 475#6613210000024400
(1427493571.864422) can0 306#0E008402DB070000
(1427493571.864675) can0 294#05049CFFFA001003
(1427493571.864926) can0 270#8613C901D2FBBB12
(1427493571.883661) can0 477#AB01187AC5001400
(1427493571.964092) can0 475#6413210000024800
(1427493571.964433) can0 306#0E008302DA070000
(1427493571.964689) can0 294#52049CFFFA001503
(1427493571.964938) can0 270#8913EB01D2FB2D12
(1427493571.980743) can0 477#C301167AC4001400
(1427493572.064720) can0 294#0C049CFFFA000503
(1427493572.065232) can0 270#8913CC01D3FBC011
(1427493572.077628) can0 477#92011D7AC4001400
(1427493572.163839) can0 475#6413210000024900
(1427493572.164262) can0 306#0D008202D7070000
(1427493572.164518) can0 294#7B049CFFFA000E03
(1427493572.164768) can0 270#8813FD01BAFB0312
(1427493572.174619) can0 477#B501117AC4001400
(1427493572.263801) can0 475#6813210000024700
(1427493572.264229) can0 306#0D008402DB070000
(1427493572.264484) can0 294#E4039CFFFA000803
(1427493572.264735) can0 270#8713BA01D1FB7F12
(1427493572.270877) can0 477#9001147AC4001400
(1427493572.364018) can0 475#6213210000024900
(1427493572.364327) can0 306#0D008302D9070000
(1427493572.365053) can0 294#36049CFFFA000103
(1427493572.365300) can0 270#8713DF01D4FB0212
(1427493572.367847) can0 477#BD011B7AC4001400
(1427493572.463927) can0 475#6213210000024E00
(1427493572.464267) can0 306#0E008302DA070000
(1427493572.464536) can0 294#00049CFFFA00F902
(1427493572.464791) can0 270#8913C701D5FB4312
(1427493572.465174) can0 477#8D011B7AC4001400
(1427493572.561872) can0 477#AD01267AC4001400
(1427493572.563960) can0 475#5F13210000024900
(1427493572.564246) can0 306#0E008302D8070000
(1427493572.564499) can0 294#5A049CFFFA00F702
(1427493572.564756) can0 270#8913EF01D6FBED11
(1427493572.658959) can0 477#9101187AC4001400
(1427493572.664113) can0 475#6613210000023F00
(1427493572.664429) can0 306#0E008302D8070000
(1427493572.664686) can0 294#F8039CFFFA000603
(1427493572.664934) can0 270#8913C301D6FB6712
(1427493572.755817) can0 477#AE011C7AC4001400
(1427493572.763882) can0 475#6813210000024800
(1427493572.764171) can0 306#0F008302D8070000
(1427493572.764420) can0 294#56049CFFFA00F002
(1427493572.764670) can0 270#8813ED01D6FBCC11
(1427493572.852730) can0 477#93011E7AC4001400
(1427493572.863920) can0 475#6A13210000024400
(1427493572.864230) can0 306#0F008202D7070000
(1427493572.864493) can0 294#0A049CFFFA00F702
(1427493572.864697) can0 270#8A13CB01D6FB2A12
(1427493572.949690) can0 477#9101297AC4001400
(1427493572.964878) can0 475#6413210000024E00
(1427493572.965349) can0 306#0F008302D8070000
(1427493573.046680) can0 477#AB011C7AC4001400
(1427493573.064264) can0 475#6413210000024900
(1427493573.064805) can0 294#32049CFFFA000203
(1427493573.065451) can0 270#8B13DD01D6FBCC11
(1427493573.143636) can0 477#A601207AC4001400
(1427493573.164168) can0 475#6613210000024900
(1427493573.164506) can0 306#0F008302D8070000
(1427493573.164764) can0 294#01049CFFFA00F002
(1427493573.165012) can0 270#8813C701D6FB1612
(1427493573.240662) can0 477#8201287AC4001400
(1427493573.264272) can0 475#5F13210000024400
(1427493573.264672) can0 306#0F008202D7070000
(1427493573.264923) can0 294#17049CFFFA00E902
(1427493573.265171) can0 270#8813D101D6FB0212
(1427493573.337588) can0 477#7E01227AC4001400
(1427493573.364192) can0 475#6013210000024900
(1427493573.364479) can0 306#0E008302D9070000
(1427493573.364746) can0 294#F2039CFFFA00D702
(1427493573.365000) can0 270#8B13C001D8FBE211
(1427493573.434584) can0 477#89012F7AC4001400
(1427493573.464200) can0 475#6A13210000024B00
(1427493573.464502) can0 306#0D008202D5070000
(1427493573.464765) can0 294#31049CFFFA00E402
(1427493573.465014) can0 270#8C13DC01D8FB1F12
(1427493573.531517) can0 477#A801227AC4001400
(1427493573.564175) can0 475#6213210000024400
(1427493573.564586) can0 306#0D008202D5070000
(1427493573.564835) can0 294#0A049CFFFA00EC02
(1427493573.565084) can0 270#8C13CB01D5FB0312
(1427493573.628486) can0 477#9A01257AC4001400
(1427493573.664118) can0 475#5F13210000024D00
(1427493573.664417) can0 306#0D008102D4070000
(1427493573.664694) can0 294#77049CFFFA00EE02
(1427493573.664946) can0 270#8A13FB01D8FBB711
(1427493573.725483) can0 477#97011F7AC4001400
(1427493573.764093) can0 475#6413210000024700
(1427493573.764373) can0 306#0C008202D5070000
(1427493573.764736) can0 294#EB039CFFFA00EC02
(1427493573.764979) can0 270#8A13BD01D2FB6712
(1427493573.823197) can0 477#87012A7AC4001400
(1427493573.864311) can0 475#6213210000024900
(1427493573.864875) can0 306#0D008102D3070000
(1427493573.865387) can0 294#5A049CFFFA00E902
(1427493573.919392) can0 477#B301217AC4001400
(1427493573.964224) can0 475#5913210000024C00
(1427493573.964539) can0 306#0D008002D0070000
(1427493573.964794) can0 294#62049CFFFA00FE02
(1427493573.965043) can0 270#8B13F201D8FBAF11
(1427493574.016366) can0 477#A6011C7AC4001400
(1427493574.064256) can0 475#6613210000024400
(1427493574.064581) can0 306#0C008002D1070000
(1427493574.064837) can0 270#8913D101D3FB0612
(1427493574.065043) can0 294#17049CFFFA00FA02
(1427493574.113330) can0 477#AE01267AC4001400
(1427493574.164180) can0 475#6413210000024500
(1427493574.164533) can0 306#0C008002D0070000
(1427493574.164789) can0 294#44049CFFFA000103
(1427493574.165035) can0 270#8913E501D4FBE311
(1427493574.210369) can0 477#A301227AC4001400
(1427493574.264173) can0 475#6413210000024200
(1427493574.264523) can0 306#0D008002D1070000
(1427493574.264782) can0 294#58049CFFFA00FF02
(1427493574.265035) can0 270#8913EE01D8FB0812
(1427493574.307265) can0 477#B701237AC4001400
(1427493574.364221) can0 475#6013210000024700
(1427493574.364546) can0 306#0D008002CF070000
(1427493574.364800) can0 294#2A049CFFFA000B03
(1427493574.365049) can0 270#8A13D901D5FB0312
(1427493574.404223) can0 477#A3011C7AC4001400
(1427493574.464127) can0 475#6813210000024800
(1427493574.464466) can0 306#0D008102D3070000
(1427493574.464713) can0 294#21049CFFFA00F602
(1427493574.464965) can0 270#8913D501D4FB1612
(1427493574.501179) can0 477#9301237AC4001400
(1427493574.564131) can0 475#6213210000024300
(1427493574.564576) can0 306#0E008102D2070000
(1427493574.564830) can0 294#4B049CFFFA00F002
(1427493574.565181) can0 270#8913E801D8FB1512
(1427493574.598311) can0 477#99012A7AC4001400
(1427493574.664114) can0 475#6613210000024800
(1427493574.664544) can0 306#0E008102D4070000
(1427493574.664808) can0 294#EE039CFFFA00E302
(1427493574.665718) can0 270#8B13BE01D8FB4412
(1427493574.695154) can0 477#8C01297AC4001400
(1427493574.764334) can0 475#5F13210000024100
(1427493574.764646) can0 294#0D049CFFFA00E402
(1427493574.764854) can0 306#0F008002D1070000
(1427493574.765098) can0 270#8C13E201D8FB7D12
(1427493574.792175) can0 477#B301277AC4001400
(1427493574.864687) can0 475#6A13210000024700
(1427493574.864999) can0 270#8C13CA01D8FB1C12
(1427493574.865209) can0 306#0F008102D2070000
(1427493574.889172) can0 477#8701287AC4001400
(1427493574.964263) can0 475#5D13210000024B00
(1427493574.964608) can0 306#0E008002D1070000
(1427493574.964862) can0 294#32049CFFFA00E602
(1427493574.965113) can0 270#8B13D401D8FBB111
(1427493574.986874) can0 477#A3012A7AC4001400
(1427493575.064213) can0 475#6213210000023F00
(1427493575.064564) can0 306#0F008002D1070000
(1427493575.064822) can0 294#D0039CFFFA00EA02
(1427493575.065073) can0 270#8A13D401D8FB6612
(1427493575.083021) can0 477#8001247AC4001400
(1427493575.164209) can0 475#6613210000024500
(1427493575.164539) can0 306#0E008002D1070000
(1427493575.164796) can0 294#4B049CFFFA00E602
(1427493575.165045) can0 270#8A13D801D8FB2F12
(1427493575.180715) can0 477#B3012D7AC4001400
(1427493575.264060) can0 475#6813210000024C00
(1427493575.264394) can0 306#0F008002D0070000
(1427493575.264649) can0 294#1B049CFFFA00F302
(1427493575.264896) can0 270#8C13C001D8FBF311
(1427493575.276950) can0 477#8701217AC4001400
(1427493575.364123) can0 475#6413210000024200
(1427493575.364451) can0 306#0F008002D0070000
(1427493575.364710) can0 294#FA039CFFFA00EC02
(1427493575.364960) can0 270#8B13ED01D8FB6D12
(1427493575.373908) can0 477#A0012B7AC4001400
(1427493575.464502) can0 475#6A13210000024600
(1427493575.464835) can0 306#10008002CE070000
(1427493575.465092) can0 294#52049CFFFA00F902
(1427493575.465336) can0 270#8B13D301D5FB2112
(1427493575.470870) can0 477#8701227AC4001400
(1427493575.564525) can0 475#6A13210000024D00
(1427493575.565082) can0 294#2B049CFFFA00EE02
(1427493575.565306) can0 270#8A13DA01D8FBFC11
(1427493575.567896) can0 477#9801277AC4001400
(1427493575.664056) can0 475#6013210000024200
(1427493575.664490) can0 306#11007F02CC070000
(1427493575.664987) can0 294#45049CFFFA00FE02
(1427493575.665500) can0 270#8B130002D8FB7912
(1427493575.665713) can0 477#BA01217AC4001400
(1427493575.761834) can0 477#A0011D7AC4001400
(1427493575.763994) can0 475#6613210000024700
(1427493575.764278) can0 306#11007F02CD070000
(1427493575.764676) can0 294#5E049CFFFA000303
(1427493575.764931) can0 270#8B13E701D4FB2B12
(1427493575.858790) can0 477#C401217AC4001400
(1427493575.863938) can0 475#6013210000024700
(1427493575.864350) can0 306#11007E02CA070000
(1427493575.864623) can0 294#67049CFFFA000D03
(1427493575.864898) can0 270#8A13FD01D8FBF711
(1427493575.955786) can0 477#AB01107AC4001400
(1427493575.964351) can0 475#6013210000024A00
(1427493575.964650) can0 306#11007F02CB070000
(1427493575.964903) can0 294#6D049CFFFA001603
(1427493575.965152) can0 270#8713ED01D8FB2A12
(1427493576.052753) can0 477#D0011F7AC4001400
(1427493576.063942) can0 475#6413210000024600
(1427493576.064315) can0 306#12007E02CA070000
(1427493576.064594) can0 294#A2049CFFFA001903
(1427493576.064848) can0 270#8713F801D8FB1812
(1427493576.149683) can0 477#B0010D7AC4001400
(1427493576.164297) can0 475#6613210000024600
(1427493576.164631) can0 306#12007E02C9070000
(1427493576.164888) can0 294#51049CFFFA002903
(1427493576.165134) can0 270#8813ED01D3FB0512
(1427493576.247663) can0 477#A3011E7AC4001400
(1427493576.264270) can0 475#6213210000024500
(1427493576.264629) can0 306#13007F02CB070000
(1427493576.264896) can0 294#55049CFFFA001903
(1427493576.265157) can0 270#89130102D6FBEF11
(1427493576.343626) can0 477#A101187AC4001400
(1427493576.364444) can0 475#6613210000024F00
(1427493576.365051) can0 306#13007F02CB070000
(1427493576.365281) can0 294#24049CFFFA001D03
(1427493576.440582) can0 477#B301217AC4001400
(1427493576.464299) can0 475#6413210000024900
(1427493576.464758) can0 306#13007F02CD070000
(1427493576.465026) can0 294#46049CFFFA000B03
(1427493576.465234) can0 270#8813E601D2FB1812
(1427493576.537751) can0 477#B5011D7AC4001400
(1427493576.564249) can0 475#6613210000024600
(1427493576.564570) can0 306#13007F02CC070000
(1427493576.564830) can0 294#6F049CFFFA000F03
(1427493576.565079) can0 270#8913F801D8FB2F12
(1427493576.634554) can0 477#A1011A7AC4001400
(1427493576.664245) can0 475#6413210000024E00
(1427493576.664631) can0 306#13007F02CC070000
(1427493576.664884) can0 294#61049CFFFA000B03
(1427493576.665133) can0 270#8913F201D8FB6D11
(1427493576.731501) can0 477#C6011D7AC4001400
(1427493576.764209) can0 475#6413210000024200
(1427493576.764584) can0 306#13007E02CA070000
(1427493576.764844) can0 294#70049CFFFA001B03
(1427493576.765091) can0 270#8A13F801D8FB1812
(1427493576.828452) can0 477#C001147AC4001400
(1427493576.864173) can0 475#6013210000024C00
(1427493576.864577) can0 306#13007E02C9070000
(1427493576.864842) can0 294#89049CFFFA002203
(1427493576.865096) can0 270#88130302D4FB5012
(1427493576.925424) can0 477#C701137AC4001400
(1427493576.964336) can0 475#6013210000024B00
(1427493576.964680) can0 306#14007E02CA070000
(1427493576.964936) can0 294#77049CFFFA002203
(1427493576.965189) can0 270#8813FB01D8FBD911
(1427493577.022425) can0 477#A501137AC4001400
(1427493577.064325) can0 475#6A13210000024900
(1427493577.064605) can0 306#13007F02CD070000
(1427493577.064854) can0 294#20049CFFFA001703
(1427493577.065204) can0 270#8913D501D8FBE211
(1427493577.119405) can0 477#9A01227AC4001400
(1427493577.164281) can0 475#6413210000024700
(1427493577.164765) can0 306#13008002CE070000
(1427493577.165032) can0 294#41049CFFFA000203
(1427493577.165296) can0 270#8A13E301D8FB4112
(1427493577.216366) can0 477#AD011F7AC4001400
(1427493577.264281) can0 475#6613210000024C00
(1427493577.264581) can0 306#13007F02CD070000
(1427493577.264843) can0 294#44049CFFFA000B03
(1427493577.265092) can0 270#8A13E501D8FB9211
(1427493577.313302) can0 477#BD01207AC4001400
(1427493577.364516) can0 475#5F13210000024A00
(1427493577.364937) can0 294#59049CFFFA000603
(1427493577.365421) can0 270#8A13EE01D8FBB311
(1427493577.410309) can0 477#B6011F7AC4001400
(1427493577.464182) can0 475#6013210000024400
(1427493577.464676) can0 306#12007F02CC070000
(1427493577.464935) can0 294#1D049CFFFA001503
(1427493577.465185) can0 270#8913D301D8FB1512
(1427493577.507281) can0 477#A3011A7AC4001400
(1427493577.564165) can0 475#6413210000024900
(1427493577.564621) can0 306#12007F02CD070000
(1427493577.564876) can0 294#62049CFFFA000A03
(1427493577.565124) can0 270#8913F201D8FBBD11
(1427493577.604268) can0 477#9801207AC4001400
(1427493577.664142) can0 475#6813210000024600
(1427493577.664434) can0 306#11008002CF070000
(1427493577.664830) can0 294#16049CFFFA000203
(1427493577.665084) can0 270#8A13D001D8FBCC11
(1427493577.701196) can0 477#9901227AC4001400
(1427493577.764148) can0 475#7013210000024300
(1427493577.764573) can0 306#11008102D2070000
(1427493577.764823) can0 294#DB039CFFFA00E902
(1427493577.765071) can0 270#8B13B601D8FB5C12
(1427493577.798196) can0 477#9701317AC4001400
(1427493577.864342) can0 475#6A13210000024C00
(1427493577.864645) can0 306#11008002CF070000
(1427493577.864896) can0 294#6D049CFFFA00EA02
(1427493577.865097) can0 270#8B13F701D8FB7D11
(1427493577.895108) can0 477#9C01287AC4001400
(1427493577.964180) can0 475#6613210000024800
(1427493577.964605) can0 306#10008002D1070000
(1427493577.964854) can0 294#FD039CFFFA00E902
(1427493577.965101) can0 270#8B13C501D8FBB911
(1427493577.992188) can0 477#93012B7AC4001400
(1427493578.064309) can0 475#6013210000024300
(1427493578.064652) can0 306#10008002D0070000
(1427493578.064907) can0 294#0F049CFFFA00E902
(1427493578.065166) can0 270#8C13CD01D8FB4312
(1427493578.089487) can0 477#A3012D7AC4001400
(1427493578.164269) can0 475#6613210000024B00
(1427493578.164592) can0 306#10008002D1070000
(1427493578.164845) can0 294#0E049CFFFA00EB02
(1427493578.165092) can0 270#8C13CD01D8FBE311
(1427493578.186042) can0 477#8E01297AC4001400
(1427493578.264262) can0 475#5F13210000024A00
(1427493578.264588) can0 306#10008002D1070000
(1427493578.264843) can0 294#1C049CFFFA00DF02
(1427493578.265087) can0 270#8B13D301D8FB0512
(1427493578.283017) can0 477#8A012D7AC4001400
(1427493578.364214) can0 475#6413210000024900
(1427493578.364560) can0 306#10008102D4070000
(1427493578.364813) can0 294#AD039CFFFA00D402
(1427493578.365061) can0 270#8C13A201D4FBE211
(1427493578.380622) can0 477#7E01307AC4001400
(1427493578.464128) can0 475#5F13210000024D00
(1427493578.464459) can0 306#10008102D3070000
(1427493578.464712) can0 294#04049CFFFA00C902
(1427493578.464959) can0 270#8C13C801D9FB6011
(1427493578.477118) can0 477#9501377AC4001400
(1427493578.564145) can0 475#6213210000024B00
(1427493578.564476) can0 306#10008002D0070000
(1427493578.564737) can0 294#1F049CFFFA00DD02
(1427493578.564987) can0 270#8D13D401D9FBEE11
(1427493578.573918) can0 477#B9012A7AC4001400
(1427493578.664011) can0 475#5F13210000024500
(1427493578.664354) can0 306#10007F02CC070000
(1427493578.664607) can0 294#3D049CFFFA00F102
(1427493578.664856) can0 270#8C13E201D1FB0212
(1427493578.670828) can0 477#A701217AC4001400
(1427493578.764120) can0 475#6613210000025100
(1427493578.764453) can0 306#10007E02C8070000
(1427493578.764706) can0 294#A0049CFFFA001003
(1427493578.764952) can0 270#8C130E02D9FBCC11
(1427493578.767872) can0 477#AD01217AC4001400
(1427493578.864096) can0 475#6613210000024B00
(1427493578.864426) can0 306#10007F02CB070000
(1427493578.864680) can0 294#48049CFFFA000F03
(1427493578.864927) can0 270#8713E701D9FBBE11
(1427493578.865277) can0 477#9B011C7AC4001400
(1427493578.961827) can0 477#CE01207AC4001400
(1427493578.964011) can0 475#6013210000024200
(1427493578.964391) can0 306#10007E02C9070000
(1427493578.964656) can0 294#64049CFFFA001503
(1427493578.964900) can0 270#8A13F301D9FB4D12
(1427493579.058804) can0 477#B0011B7AC4001400
(1427493579.063954) can0 475#6013210000024E00
(1427493579.064386) can0 306#10007E02CA070000
(1427493579.064637) can0 294#5F049CFFFA001A03
(1427493579.064885) can0 270#8A13F101D9FBB511
(1427493579.155728) can0 477#C801217AC4001400
(1427493579.163951) can0 475#6013210000024800
(1427493579.164329) can0 306#10007E02C8070000
(1427493579.164603) can0 294#A1049CFFFA001903
(1427493579.164851) can0 270#89130E02D9FB0312
(1427493579.252742) can0 477#BA010F7AC4001400
(1427493579.263935) can0 475#6213210000024600
(1427493579.264307) can0 306#10007E02C9070000
(1427493579.264573) can0 294#51049CFFFA002303
(1427493579.264820) can0 270#8813EA01D8FB1A12
(1427493579.349690) can0 477#BF011E7AC4001400
(1427493579.364101) can0 475#5D13210000024F00
(1427493579.364400) can0 306#0F007D02C7070000
(1427493579.364653) can0 294#C1049CFFFA002503
(1427493579.364897) can0 270#88131D02D8FBD711
(1427493579.446650) can0 477#DE01137AC4001400
(1427493579.464425) can0 306#0F007D02C7070000
(1427493579.465430) can0 270#8813FB01D7FB1E12
(1427493579.465683) can0 294#76049CFFFA003603
(1427493579.543855) can0 477#BE01137AC4001400
(1427493579.564211) can0 475#6213210000024700
(1427493579.564566) can0 306#0E007E02C8070000
(1427493579.564819) can0 294#83049CFFFA003003
(1427493579.565067) can0 270#88130102BCFB2712
(1427493579.640591) can0 477#BC010D7AC4001400
(1427493579.664209) can0 475#5F13210000024C00
(1427493579.664547) can0 306#0E007D02C7070000
(1427493579.664799) can0 294#96049CFFFA003B03
(1427493579.665049) can0 270#88130902D6FB0312
(1427493579.737570) can0 477#A101107AC4001400
(1427493579.764272) can0 475#6613210000024C00
(1427493579.764595) can0 306#0F007E02CA070000
(1427493579.764847) can0 294#68049CFFFA002903
(1427493579.765096) can0 270#8713F501D6FB0612
(1427493579.834571) can0 477#D601177AC4001400
(1427493579.864129) can0 475#6C13210000023E00
(1427493579.864476) can0 306#10007E02C9070000
(1427493579.864740) can0 294#89049CFFFA002803
(1427493579.864988) can0 270#88130402D6FB5612
(1427493579.931517) can0 477#A9011B7AC4001400
(1427493579.964161) can0 475#5B13210000024900
(1427493579.964470) can0 306#10007F02CD070000
(1427493579.964872) can0 294#25049CFFFA001803
(1427493579.965123) can0 270#8813D701D6FBA411
(1427493580.028488) can0 477#B101227AC4001400
(1427493580.064329) can0 475#6013210000024D00
(1427493580.064639) can0 306#10007F02CC070000
(1427493580.064889) can0 294#73049CFFFA001003
(1427493580.065683) can0 270#8A13FA01D6FBDE11
(1427493580.125393) can0 477#B8011D7AC4001400
(1427493580.164144) can0 475#6C13210000024A00
(1427493580.164570) can0 306#10007F02CC070000
(1427493580.164830) can0 294#71049CFFFA001503
(1427493580.165074) can0 270#8913F901D6FB0812
(1427493580.222435) can0 477#CC011F7AC4001400
(1427493580.264277) can0 475#6013210000024800
(1427493580.264734) can0 306#10007D02C7070000
(1427493580.265208) can0 270#89132702D6FB0012
(1427493580.265430) can0 294#D8049CFFFA002903
(1427493580.319402) can0 477#EB01077AC4001400
(1427493580.364114) can0 475#6213210000024800
(1427493580.364424) can0 306#10007D02C6070000
(1427493580.364817) can0 294#A0049CFFFA004303
(1427493580.365068) can0 270#87130E02D5FBEF11
(1427493580.416507) can0 477#BF01067AC4001400
(1427493580.464181) can0 475#6413210000024D00
(1427493580.464514) can0 306#0F007D02C7070000
(1427493580.464763) can0 294#A2049CFFFA004103
(1427493580.465005) can0 270#86130F02D6FB9011
(1427493580.513343) can0 477#C7010C7AC4001400
(1427493580.564304) can0 475#5D13210000024700
(1427493580.564619) can0 306#0F007D02C7070000
(1427493580.564868) can0 294#C4049CFFFA004403
(1427493580.565112) can0 270#86131E02D1FB0512
(1427493580.610261) can0 477#B1010F7AC4001400
(1427493580.664325) can0 306#0F007E02CA070000
(1427493580.664746) can0 294#72049CFFFA003403
(1427493580.665009) can0 270#8613F901D6FBE011
(1427493580.707240) can0 477#DA01137AC4001400
(1427493580.764234) can0 475#5913210000024900
(1427493580.765100) can0 306#0F007E02C8070000
(1427493580.804197) can0 477#CD01077AC4001400
(1427493580.853980) can0 475#6013210000024B00
(1427493580.854306) can0 306#0E007E02C8070000
(1427493580.854560) can0 294#A8049CFFFA003D03
(1427493580.854806) can0 270#89131102D6FBC911
(1427493580.901197) can0 477#D0010E7AC4001400
(1427493580.953942) can0 475#6613210000024700
(1427493580.954269) can0 306#0E007E02C8070000
(1427493580.954525) can0 294#92049CFFFA003E03
(1427493580.954886) can0 270#86130802D6FBCA11
(1427493580.998187) can0 477#C9010C7AC4001400
(1427493581.054042) can0 475#6613210000024500
(1427493581.054367) can0 306#0F007E02CA070000
(1427493581.054623) can0 294#7A049CFFFA003A03
(1427493581.054872) can0 270#8713FD01C1FB1A12
(1427493581.095499) can0 477#B501107AC4001400
(1427493581.154046) can0 475#5D13210000024800
(1427493581.154510) can0 306#0F007F02CC070000
(1427493581.154812) can0 294#72049CFFFA002903
(1427493581.192207) can0 477#DA01147AC4001400
(1427493581.253811) can0 475#6613210000024C00
(1427493581.254142) can0 306#0F007F02CB070000
(1427493581.254520) can0 294#81049CFFFA002D03
(1427493581.254771) can0 270#88130002D6FBBB11
(1427493581.289102) can0 477#B001107AC4001400
(1427493581.353976) can0 475#6813210000024200
(1427493581.354309) can0 306#0F007F02CB070000
(1427493581.354562) can0 294#8F049CFFFA002703
(1427493581.354903) can0 270#89130602D4FB4412
(1427493581.386126) can0 477#BE01137AC4001400
(1427493581.453917) can0 475#6413210000024600
(1427493581.454242) can0 306#0F007F02CB070000
(1427493581.454497) can0 294#6E049CFFFA003003
(1427493581.454745) can0 270#8913F801D6FBF511
(1427493581.484291) can0 477#A6010E7AC4001400
(1427493581.553757) can0 475#5D13210000024800
(1427493581.554136) can0 306#0F008002CE070000
(1427493581.554392) can0 294#4C049CFFFA001D03
(1427493581.554675) can0 270#8813E801D6FBF111
(1427493581.581205) can0 477#E1011C7AC4001400
(1427493581.653685) can0 475#6013210000024B00
(1427493581.654104) can0 306#0F007E02CA070000
(1427493581.654352) can0 294#C0049CFFFA002B03
(1427493581.654600) can0 270#89131C02D6FB1512
(1427493581.678022) can0 477#A9010D7AC4001400
(1427493581.753669) can0 475#6013210000024900
(1427493581.754083) can0 306#0E007F02CC070000
(1427493581.754337) can0 294#72049CFFFA002A03
(1427493581.754587) can0 270#8913F901D6FB3C12
(1427493581.773920) can0 477#BC01147AC4001400
(1427493581.853789) can0 475#6613210000024900
(1427493581.854114) can0 306#0E007F02CC070000
(1427493581.854369) can0 294#71049CFFFA002A03
(1427493581.854621) can0 270#8713F901D4FBE011
(1427493581.870876) can0 477#BB01147AC4001400
(1427493581.953850) can0 475#6A13210000024800
(1427493581.954756) can0 294#50049CFFFA001703
(1427493581.955072) can0 306#0E008002CF070000
(1427493581.967880) can0 477#AE01227AC4001400
(1427493582.053717) can0 475#6613210000024400
(1427493582.054061) can0 306#0E007F02CD070000
(1427493582.054320) can0 294#79049CFFFA001403
(1427493582.054566) can0 270#8813FC01D6FB2A12
(1427493582.064844) can0 477#C401207AC4001400
(1427493582.153718) can0 475#6613210000024900
(1427493582.154058) can0 306#0E008002CE070000
(1427493582.154313) can0 270#8A13EF01D2FB3112
(1427493582.154518) can0 294#5A049CFFFA001A03
(1427493582.161748) can0 477#B1011E7AC4001400
(1427493582.253692) can0 475#5B13210000024600
(1427493582.254027) can0 306#0E007F02CB070000
(1427493582.254282) can0 294#8E049CFFFA002003
(1427493582.254528) can0 270#8A130602D6FBC811
(1427493582.258798) can0 477#D701197AC4001400
(1427493582.353738) can0 475#6213210000024F00
(1427493582.354050) can0 294#AC049CFFFA003503
(1427493582.354259) can0 306#0E007E02CA070000
(1427493582.354508) can0 270#8A131302D6FBEF11
(1427493582.355894) can0 477#BD01087AC4001400
(1427493582.452704) can0 477#D8011B7AC4001400
(1427493582.453680) can0 475#6213210000024900
(1427493582.454110) can0 306#0D007F02CC070000
(1427493582.454361) can0 294#85049CFFFA002703
(1427493582.454607) can0 270#86130202D3FBF111
(1427493582.549659) can0 477#AE01127AC4001400
(1427493582.553876) can0 475#6413210000024800
(1427493582.554146) can0 306#0D007F02CD070000
(1427493582.554396) can0 294#27049CFFFA002803
(1427493582.554642) can0 270#8813D801D3FB5612
(1427493582.646652) can0 477#9F011C7AC4001400
(1427493582.653828) can0 475#6813210000024F00
(1427493582.654123) can0 306#0E008002D1070000
(1427493582.654373) can0 294#6F049CFFFA000F03
(1427493582.654617) can0 270#8813F801D6FBBE11
(1427493582.743659) can0 477#A5011C7AC4001400
(1427493582.753788) can0 475#6013210000024700
(1427493582.754080) can0 306#0D008002CE070000
(1427493582.754331) can0 294#61049CFFFA001403
(1427493582.754578) can0 270#8913F201CFFB6612
(1427493582.840569) can0 477#A4011E7AC4001400
(1427493582.853814) can0 475#6613210000024900
(1427493582.854115) can0 306#0D008102D2070000
(1427493582.854368) can0 270#8913BC01CDFB1812
(1427493582.854574) can0 294#E8039CFFFA000103
(1427493582.937588) can0 477#B101277AC4001400
(1427493582.953712) can0 475#6013210000025000
(1427493582.954055) can0 306#0D008002CF070000
(1427493582.954806) can0 294#8F049CFFFA000803
(1427493582.955246) can0 270#89130602D6FBC411
(1427493583.034872) can0 477#9501217AC4001400
(1427493583.053689) can0 475#6A13210000024700
(1427493583.054020) can0 306#0C008002D1070000
(1427493583.054280) can0 294#11049CFFFA000203
(1427493583.054528) can0 270#8913CE01D2FBF711
(1427493583.131511) can0 477#BF012A7AC4001400
(1427493583.153677) can0 475#7013210000024500
(1427493583.154008) can0 306#0C007F02CD070000
(1427493583.154292) can0 294#53049CFFFA000503
(1427493583.154543) can0 270#8B13EC01D6FB0C12
(1427493583.228436) can0 477#9901127AC4001400
(1427493583.253708) can0 475#6813210000024600
(1427493583.253994) can0 306#0C008002D0070000
(1427493583.254360) can0 294#45049CFFFA000C03
(1427493583.254612) can0 270#8B13E501D6FBD411
(1427493583.325859) can0 477#AA01287AC4001400
(1427493583.353716) can0 475#6A13210000024700
(1427493583.354116) can0 306#0D008002D0070000
(1427493583.354370) can0 294#3B049CFFFA00FD02
(1427493583.354619) can0 270#8813E101D5FB1012
(1427493583.422404) can0 477#8D01287AC4001400
(1427493583.453919) can0 475#6E13210000024800
(1427493583.454204) can0 306#0E008102D3070000
(1427493583.454458) can0 294#C0039CFFFA00EF02
(1427493583.454706) can0 270#8A13AA01D6FB1012
(1427493583.519351) can0 477#7C01397AC4001400
(1427493583.553971) can0 475#6813210000024800
(1427493583.554317) can0 306#0E008202D6070000
(1427493583.554570) can0 294#EE039CFFFA00D402
(1427493583.554858) can0 270#8A13BF01D9FB6412
(1427493583.616315) can0 477#8901357AC4001400
(1427493583.653782) can0 475#6613210000024700
(1427493583.654138) can0 306#0E008202D5070000
(1427493583.654395) can0 294#CF039CFFFA00D102
(1427493583.654648) can0 270#8E13B101D9FBE711
(1427493583.713285) can0 477#9F013B7AC4001400
(1427493583.753556) can0 475#6813210000024100
(1427493583.754194) can0 306#0F008102D2070000
(1427493583.754732) can0 270#8E13EE01D9FB0512
(1427493583.810302) can0 477#A6012D7AC4001400
(1427493583.853919) can0 475#6613210000024600
(1427493583.854255) can0 306#0E008002CE070000
(1427493583.854510) can0 294#47049CFFFA00F502
(1427493583.854760) can0 270#8E13E601D8FBE511
(1427493583.908256) can0 477#A401217AC4001400
(1427493583.953942) can0 475#6013210000024A00
(1427493583.954267) can0 306#0E008002CE070000
(1427493583.954521) can0 294#2E049CFFFA00FB02
(1427493583.954771) can0 270#8A13DB01D9FBDC11
(1427493584.004182) can0 477#9F01257AC4001400
(1427493584.053876) can0 475#6413210000024B00
(1427493584.054210) can0 306#0D008002CE070000
(1427493584.054463) can0 294#37049CFFFA00FC02
(1427493584.054706) can0 270#8B13DF01D9FB0612
(1427493584.101157) can0 477#A801247AC4001400
(1427493584.154173) can0 475#6213210000024700
(1427493584.154487) can0 306#0D008002D1070000
(1427493584.154738) can0 270#8B13CD01D8FBDC11
(1427493584.154984) can0 294#0E049CFFFA00F202
(1427493584.198113) can0 477#96012A7AC4001400
(1427493584.253941) can0 475#6413210000024600
(1427493584.254392) can0 306#0D007E02CA070000
(1427493584.254644) can0 294#93049CFFFA000003
(1427493584.254846) can0 270#8B130802D9FB1C12
(1427493584.295227) can0 477#C501187AC4001400
(1427493584.353896) can0 475#6613210000024B00
(1427493584.354310) can0 306#0D007D02C7070000
(1427493584.354558) can0 294#63049CFFFA002303
(1427493584.354806) can0 270#8813F301D8FB4612
(1427493584.392124) can0 477#BC01137AC4001400
(1427493584.454073) can0 475#6813210000024400
(1427493584.454397) can0 306#0D007D02C6070000
(1427493584.454665) can0 270#88132002D8FB3112
(1427493584.454879) can0 294#CA049CFFFA003703
(1427493584.489075) can0 477#CF010F7AC4001400
(1427493584.553972) can0 475#5913210000024A00
(1427493584.554270) can0 306#0E007D02C7070000
(1427493584.554524) can0 294#90049CFFFA003E03
(1427493584.554772) can0 270#87130702D6FB3C12
(1427493584.586426) can0 477#C9010E7AC4001400
(1427493584.653743) can0 475#6613210000024700
(1427493584.654059) can0 306#0E007E02CA070000
(1427493584.654423) can0 294#48049CFFFA002D03
(1427493584.654669) can0 270#8713E601CFFB3312
(1427493584.683097) can0 477#C5011A7AC4001400
(1427493584.753733) can0 475#6A13210000024E00
(1427493584.754176) can0 306#0E007E02CA070000
(1427493584.754437) can0 294#99049CFFFA002A03
(1427493584.754702) can0 270#87130A02D6FB9211
(1427493584.779956) can0 477#B901127AC4001400
(1427493584.853714) can0 475#5F13210000024B00
(1427493584.854837) can0 306#0E007F02CB070000
(1427493584.855823) can0 270#8913F601D6FBC811
(1427493584.877869) can0 477#CC011B7AC4001400
(1427493584.953700) can0 475#6613210000024600
(1427493584.954130) can0 306#0E007E02C8070000
(1427493584.954383) can0 294#C4049CFFFA003103
(1427493584.954633) can0 270#89131E02D6FB5412
(1427493584.973909) can0 477#E501107AC4001400
(1427493585.053840) can0 475#6613210000024C00
(1427493585.054167) can0 306#0E007E02C9070000
(1427493585.054422) can0 294#BB049CFFFA003703
(1427493585.054674) can0 270#89131902D6FBD011
(1427493585.070903) can0 477#BF010D7AC4001400
(1427493585.153610) can0 475#5F13210000024C00
(1427493585.153922) can0 306#0F007D02C7070000
(1427493585.154280) can0 294#A0049CFFFA003C03
(1427493585.154526) can0 270#86130E02D6FBED11
(1427493585.167812) can0 477#CB01097AC4001400
(1427493585.253616) can0 475#6013210000024B00
(1427493585.254072) can0 306#0E007E02C9070000
(1427493585.254329) can0 294#9B049CFFFA003C03
(1427493585.254579) can0 270#86130C02D6FBF511
(1427493585.264814) can0 477#B1010A7AC4001400
(1427493585.353768) can0 475#5B13210000024700
(1427493585.354080) can0 306#0E007E02C8070000
(1427493585.354335) can0 270#86131002D6FBEB11
(1427493585.354540) can0 294#A5049CFFFA003603
(1427493585.361782) can0 477#DD01157AC4001400
(1427493585.453706) can0 475#5D13210000024E00
(1427493585.454042) can0 306#0E007E02C9070000
(1427493585.454297) can0 294#9F049CFFFA003E03
(1427493585.454543) can0 270#88130D02D6FBFE11
(1427493585.458758) can0 477#C8010A7AC4001400
(1427493585.553727) can0 475#6013210000024C00
(1427493585.554063) can0 306#0E007E02C8070000
(1427493585.554641) can0 294#CF049CFFFA003A03
(1427493585.554876) can0 270#86132202C9FB4312
(1427493585.555660) can0 477#D301147AC4001400
(1427493585.652663) can0 477#C901037AC4001400
(1427493585.653716) can0 475#5D13210000024D00
(1427493585.654152) can0 306#0E007D02C7070000
(1427493585.654404) can0 294#B4049CFFFA004703
(1427493585.654654) can0 270#86131602D6FBC611
(1427493585.749648) can0 477#DB010F7AC4001400
(1427493585.753681) can0 475#6013210000024F00
(1427493585.754144) can0 306#0F007E02C8070000
(1427493585.754405) can0 294#97049CFFFA004103
(1427493585.754656) can0 270#85130A02D6FB9D11
(1427493585.846637) can0 477#F101FE79C4001400
(1427493585.853847) can0 475#5913210000024100
(1427493585.854166) can0 306#0E007D02C6070000
(1427493585.854423) can0 294#CB049CFFFA005703
(1427493585.854671) can0 270#87132102D4FB8412
(1427493585.943566) can0 477#DF01077AC4001400
(1427493585.953762) can0 475#5D13210000025200
(1427493585.954067) can0 306#0F007D02C5070000
(1427493585.954326) can0 294#1B059CFFFA005703
(1427493585.954580) can0 270#87134402D4FBC411
(1427493586.040602) can0 477#F801F679C4001400
(1427493586.053825) can0 475#6013210000024A00
(1427493586.054119) can0 306#0F007C02C2070000
(1427493586.054371) can0 294#13059CFFFA007303
(1427493586.054580) can0 270#86134102CFFB1112
(1427493586.137524) can0 477#D001FF79C4001400
(1427493586.153586) can0 475#6813210000025200
(1427493586.153989) can0 306#0F007D02C7070000
(1427493586.154236) can0 294#9D049CFFFA006203
(1427493586.154488) can0 270#82130C02CFFB8211
(1427493586.234713) can0 477#E901007AC4001400
(1427493586.253785) can0 475#6013210000024D00
