(1424108218.166042) can0 475#AF13184945000000
(1424108218.166273) can0 270#CF1300000000
(1424108218.266105) can0 475#AF13184945000000
(1424108218.266341) can0 306#0D00000000000000
(1424108218.266536) can0 294#00009CFFFA000000
(1424108218.266722) can0 270#CF1300000000
(1424108218.365961) can0 475#B113184945000000
(1424108218.366203) can0 270#CF1300000000
(1424108218.465988) can0 475#AF13184945000000
(1424108218.466222) can0 270#CF1300000000
(1424108218.565891) can0 475#B513184945000000
(1424108218.566130) can0 306#0C00000000000000
(1424108218.566324) can0 294#00009CFFFA000000
(1424108218.566525) can0 270#CF1300000000
(1424108218.665839) can0 475#B513184945000000
(1424108218.666083) can0 270#CF1300000000
(1424108218.765925) can0 475#B113184945000000
(1424108218.766158) can0 270#CF1300000000
(1424108218.866080) can0 475#B913184945000000
(1424108218.866310) can0 306#0D00000000000000
(1424108218.866506) can0 294#00009CFFFA000000
(1424108218.866687) can0 270#CF1300000000
(1424108218.965926) can0 475#B913184945000000
(1424108218.966280) can0 270#CF1300000000
(1424108219.066083) can0 475#B313184945000000
(1424108219.066321) can0 270#CF1300000000
(1424108219.165831) can0 475#AF13184945000000
(1424108219.166202) can0 306#0D00000000000000
(1424108219.166392) can0 294#00009CFFFA000000
(1424108219.166575) can0 270#CF1300000000
(1424108219.265796) can0 475#AF13184945000000
(1424108219.266186) can0 270#CF1300000000
(1424108219.366004) can0 475#B113184945000000
(1424108219.366239) can0 270#CF1300000000
(1424108219.466004) can0 475#B313184945000000
(1424108219.466238) can0 306#0C00000000000000
(1424108219.466410) can0 294#00009CFFFA000000
(1424108219.466673) can0 270#CF1300000000
(1424108219.565951) can0 475#AD13184945000000
(1424108219.566194) can0 270#CF1300000000
(1424108219.665877) can0 475#B913184945000000
(1424108219.666094) can0 270#CF1300000000
(1424108219.765931) can0 475#AF13184945000000
(1424108219.766169) can0 306#0B00000000000000
(1424108219.766351) can0 294#00009CFFFA000000
(1424108219.766577) can0 270#CF1300000000
(1424108219.865617) can0 475#B313184945000000
(1424108219.865983) can0 270#CF1300000000
(1424108219.965877) can0 475#AB13184945000000
(1424108219.966086) can0 270#CF1300000000
(1424108220.065876) can0 475#AF13184945000000
(1424108220.066113) can0 306#0B00000000000000
(1424108220.066305) can0 294#00009CFFFA000000
(1424108220.066489) can0 270#CF1300000000
(1424108220.165761) can0 475#B313184945000000
(1424108220.165983) can0 270#CF1300000000
(1424108220.265999) can0 475#AB13184945000000
(1424108220.266208) can0 270#CF1300000000
(1424108220.366049) can0 475#AF13184945000000
(1424108220.366268) can0 306#0B00000000000000
(1424108220.366453) can0 294#00009CFFFA000000
(1424108220.366644) can0 270#CF1300000000
(1424108220.465936) can0 475#B513184945000000
(1424108220.466179) can0 270#CF1300000000
(1424108220.565981) can0 475#B513184945000000
(1424108220.566214) can0 270#CF1300000000
(1424108220.665846) can0 475#B513184945000000
(1424108220.666079) can0 306#0B00000000000000
(1424108220.666322) can0 294#00009CFFFA000000
(1424108220.666523) can0 270#CF1300000000
(1424108220.765942) can0 475#B113184945000000
(1424108220.766187) can0 270#CF1300000000
(1424108220.865864) can0 475#BD13184945000000
(1424108220.866084) can0 270#CF1300000000
(1424108220.965852) can0 475#B113184945000000
(1424108220.966235) can0 306#0B00000000000000
(1424108220.966425) can0 294#00009CFFFA000000
(1424108220.966650) can0 270#CF1300000000
(1424108221.066009) can0 475#B113184945000000
(1424108221.066262) can0 270#CF1300000000
(1424108221.166196) can0 475#A913184945000000
(1424108221.166435) can0 270#CF1300000000
(1424108221.266235) can0 475#AB13184945000000
(1424108221.266472) can0 306#0D00000000000000
(1424108221.266656) can0 294#00009CFFFA000000
(1424108221.266882) can0 270#CF1300000000
(1424108221.366004) can0 475#B513184945000000
(1424108221.366239) can0 270#CF1300000000
(1424108221.466148) can0 475#B713184945000000
(1424108221.466362) can0 270#CF1300000000
(1424108221.566076) can0 475#AF13184945000000
(1424108221.566318) can0 306#0E00000000000000
(1424108221.566556) can0 294#00009CFFFA000000
(1424108221.566943) can0 270#CF1300000000
(1424108221.665846) can0 475#AD13184945000000
(1424108221.666097) can0 270#CF1300000000
(1424108221.766031) can0 475#C213184945000000
(1424108221.766267) can0 270#CF1300000000
(1424108221.866103) can0 475#AB13184945000000
(1424108221.866462) can0 306#0F00000000000000
(1424108221.866666) can0 294#00009CFFFA000000
(1424108221.866850) can0 270#CF1300000000
(1424108221.958092) can0 475#A813184945000000
(1424108221.958330) can0 270#CF1300000000
(1424108222.058050) can0 475#B713184945000000
(1424108222.058279) can0 270#CF1300000000
(1424108222.166180) can0 475#B513184945000000
(1424108222.166410) can0 306#0F00000000000000
(1424108222.166805) can0 294#00009CFFFA000000
(1424108222.166998) can0 270#CF1300000000
(1424108222.266164) can0 475#B513184945000000
(1424108222.266393) can0 270#CF1300000000
(1424108222.357999) can0 475#B113184945000000
(1424108222.358234) can0 270#CF1300000000
(1424108222.458162) can0 475#B713184945000000
(1424108222.458506) can0 306#1000000000000000
(1424108222.458850) can0 294#00009CFFFA000000
(1424108222.459032) can0 270#CF1300000000
(1424108222.566212) can0 475#A613184945000000
(1424108222.566419) can0 270#CF1300000000
(1424108222.666060) can0 475#B513184945000000
(1424108222.666292) can0 270#CF1300000000
(1424108222.766145) can0 475#B113184945000000
(1424108222.766374) can0 306#0F00000000000000
(1424108222.766594) can0 294#00009CFFFA000000
(1424108222.766982) can0 270#CF1300000000
(1424108222.866049) can0 475#AD13184945000000
(1424108222.866255) can0 270#CF1300000000
(1424108222.957861) can0 475#B913184945000000
(1424108222.958242) can0 270#CF1300000000
(1424108223.058048) can0 475#AF13184945000000
(1424108223.058283) can0 306#0E00000000000000
(1424108223.058479) can0 294#00009CFFFA000000
(1424108223.058655) can0 270#CF1300000000
(1424108223.157894) can0 475#B313184945000000
(1424108223.158124) can0 270#CF1300000000
(1424108223.257955) can0 475#BD13184945000000
(1424108223.258175) can0 270#CF1300000000
(1424108223.357954) can0 475#B713184945000000
(1424108223.358330) can0 306#0E00000000000000
(1424108223.358675) can0 294#00009CFFFA000000
(1424108223.358881) can0 270#CF1300000000
(1424108223.457973) can0 475#B513184945000000
(1424108223.458341) can0 270#CF1300000000
(1424108223.557917) can0 475#AF13184945000000
(1424108223.558307) can0 270#CF1300000000
(1424108223.658111) can0 475#AB13184945000000
(1424108223.658463) can0 306#0D00000000000000
(1424108223.658659) can0 294#00009CFFFA000000
(1424108223.658994) can0 270#CF1300000000
(1424108223.758046) can0 475#AB13184945000000
(1424108223.758258) can0 270#CF1300000000
(1424108223.866053) can0 475#AB13184945000000
(1424108223.866280) can0 270#CF1300000000
(1424108223.958037) can0 475#AF13184945000000
(1424108223.958401) can0 306#0D00000000000000
(1424108223.958594) can0 294#00009CFFFA000000
(1424108223.958940) can0 270#CF1300000000
(1424108224.057990) can0 475#B113184945000000
(1424108224.058229) can0 270#CF1300000000
(1424108224.158097) can0 475#B313184945000000
(1424108224.158307) can0 270#CF1300000000
(1424108224.258475) can0 475#A813184945000000
(1424108224.258907) can0 306#0B00000000000000
(1424108224.259246) can0 294#00009CFFFA000000
(1424108224.259436) can0 270#CF1300000000
(1424108224.366361) can0 475#AB13184945000000
(1424108224.366595) can0 270#CF1300000000
(1424108224.458163) can0 475#AD13184945000000
(1424108224.458394) can0 270#CF1300000000
(1424108224.558156) can0 475#B713184945000000
(1424108224.558391) can0 306#0A00000000000000
(1424108224.558571) can0 294#00009CFFFA000000
(1424108224.558745) can0 270#CF1300000000
(1424108224.666385) can0 475#AF13184945000000
(1424108224.666631) can0 270#CF1300000000
(1424108224.766304) can0 475#AF13184945000000
(1424108224.766515) can0 270#CF1300000000
(1424108224.858248) can0 475#B713184945000000
(1424108224.858691) can0 306#0900000000000000
(1424108224.858891) can0 270#CF1300000000
(1424108224.859129) can0 294#00009CFFFA000000
(1424108224.958195) can0 475#B713184945000000
(1424108224.958429) can0 270#CF1300000000
(1424108225.058291) can0 475#B713184945000000
(1424108225.058667) can0 270#CF1300000000
(1424108225.166259) can0 475#B313184945000000
(1424108225.166634) can0 306#0A00000000000000
(1424108225.166821) can0 294#00009CFFFA000000
(1424108225.167055) can0 270#CF1300000000
(1424108225.258247) can0 475#B113184945000000
(1424108225.258622) can0 270#CF1300000000
(1424108225.358220) can0 475#B113184945000000
(1424108225.358600) can0 270#CF1300000000
(1424108225.466224) can0 475#A913184945000000
(1424108225.467004) can0 270#CF1300000000
(1424108225.467464) can0 306#0B00000000000000
(1424108225.558149) can0 475#B313184945000000
(1424108225.558847) can0 270#CF1300000000
(1424108225.658145) can0 475#B713184945000000
(1424108225.658630) can0 270#CF1300000000
(1424108225.766100) can0 475#AB13184945000000
(1424108225.766611) can0 306#0A00000000000000
(1424108225.766920) can0 294#00009CFFFA000000
(1424108225.767374) can0 270#CF1300000000
(1424108225.858108) can0 475#AB13184945000000
(1424108225.858420) can0 270#CF1300000000
(1424108225.958186) can0 475#B113184945000000
(1424108225.958389) can0 270#CF1300000000
(1424108226.058048) can0 475#A913184945000000
(1424108226.058419) can0 306#0900000000000000
(1424108226.058604) can0 294#00009CFFFA000000
(1424108226.059029) can0 270#CF1300000000
(1424108226.158216) can0 475#B513184945000000
(1424108226.158436) can0 270#CF1300000000
(1424108226.258176) can0 475#AD13184945000000
(1424108226.258387) can0 270#CF1300000000
(1424108226.357958) can0 475#AF13184945000000
(1424108226.358337) can0 306#0900000000000000
(1424108226.358534) can0 294#00009CFFFA000000
(1424108226.358725) can0 270#CF1300000000
(1424108226.458110) can0 475#B313184945000000
(1424108226.458362) can0 270#CF1300000000
(1424108226.558160) can0 475#AB13184945000000
(1424108226.558388) can0 270#CF1300000000
(1424108226.658129) can0 475#AF13184945000000
(1424108226.658495) can0 306#0900000000000000
(1424108226.658683) can0 294#00009CFFFA000000
(1424108226.658927) can0 270#CF1300000000
(1424108226.766352) can0 475#B313184945000000
(1424108226.766794) can0 270#CF1300000000
(1424108226.858086) can0 475#B513184945000000
(1424108226.858462) can0 270#CF1300000000
(1424108226.958248) can0 475#B513184945000000
(1424108226.958473) can0 306#0B00000000000000
(1424108226.958654) can0 294#00009CFFFA000000
(1424108226.958837) can0 270#CF1300000000
(1424108227.058050) can0 475#A913184945000000
(1424108227.058385) can0 270#CF1300000000
(1424108227.158248) can0 475#AD13184945000000
(1424108227.158463) can0 270#CF1300000000
(1424108227.258199) can0 475#B113184945000000
(1424108227.258425) can0 306#0B00000000000000
(1424108227.258671) can0 294#00009CFFFA000000
(1424108227.258864) can0 270#CF1300000000
(1424108227.358447) can0 475#B113184945000000
(1424108227.358677) can0 270#CF1300000000
(1424108227.458381) can0 475#B113184945000000
(1424108227.458607) can0 270#CF1300000000
(1424108227.558452) can0 475#A913184945000000
(1424108227.558861) can0 306#0B00000000000000
(1424108227.559066) can0 294#00009CFFFA000000
(1424108227.559362) can0 270#CF1300000000
(1424108227.658353) can0 475#B913184945000000
(1424108227.658572) can0 270#CF1300000000
(1424108227.758342) can0 475#B113184945000000
(1424108227.758566) can0 270#CF1300000000
(1424108227.858269) can0 475#AF13184945000000
(1424108227.858497) can0 306#0C00000000000000
(1424108227.858750) can0 294#00009CFFFA000000
(1424108227.859129) can0 270#CF1300000000
(1424108227.958343) can0 475#B113184945000000
(1424108227.958565) can0 270#CF1300000000
(1424108228.058366) can0 475#A813184945000000
(1424108228.058603) can0 270#CF1300000000
(1424108228.158586) can0 475#AB13184945000000
(1424108228.158932) can0 306#0C00000000000000
(1424108228.159281) can0 270#CF1300000000
(1424108228.159417) can0 294#00009CFFFA000000
(1424108228.256491) can0 475#AF13184945000000
(1424108228.256818) can0 270#CF1300000000
(1424108228.356399) can0 475#A913184945000000
(1424108228.356902) can0 270#CF1300000000
(1424108228.458414) can0 475#BF13184945000000
(1424108228.458927) can0 306#0C00000000000000
(1424108228.459266) can0 294#00009CFFFA000000
(1424108228.459560) can0 270#CF1300000000
(1424108228.558570) can0 475#B713184945000000
(1424108228.558778) can0 270#CF1300000000
(1424108228.658349) can0 475#B313184945000000
(1424108228.658743) can0 270#CF1300000000
(1424108228.758502) can0 475#B713184945000000
(1424108228.758731) can0 306#0D00000000000000
(1424108228.758917) can0 294#00009CFFFA000000
(1424108228.759103) can0 270#CF1300000000
(1424108228.858316) can0 475#B513184945000000
(1424108228.858650) can0 270#CF1300000000
(1424108228.958475) can0 475#B513184945000000
(1424108228.958688) can0 270#CF1300000000
(1424108229.058479) can0 475#AD13184945000000
(1424108229.058701) can0 306#0D00000000000000
(1424108229.058901) can0 294#00009CFFFA000000
(1424108229.059091) can0 270#CF1300000000
(1424108229.158456) can0 475#B313184945000000
(1424108229.158683) can0 270#CF1300000000
(1424108229.258231) can0 475#B113184945000000
(1424108229.258558) can0 270#CF1300000000
(1424108229.358218) can0 475#B713184945000000
(1424108229.358593) can0 306#0D00000000000000
(1424108229.358941) can0 294#00009CFFFA000000
(1424108229.359146) can0 270#CF1300000000
(1424108229.458306) can0 475#AF13184945000000
(1424108229.458533) can0 270#CF1300000000
(1424108229.558393) can0 475#AB13184945000000
(1424108229.558618) can0 270#CF1300000000
(1424108229.658342) can0 475#B313184945000000
(1424108229.658703) can0 306#0D00000000000000
(1424108229.658896) can0 294#00009CFFFA000000
(1424108229.659090) can0 270#CF1300000000
(1424108229.758604) can0 475#AF13184945000000
(1424108229.758833) can0 270#CF1300000000
(1424108229.858514) can0 475#B113184945000000
(1424108229.858731) can0 270#CF1300000000
(1424108229.958586) can0 475#BB13184945000000
(1424108229.958807) can0 306#0E00000000000000
(1424108229.958984) can0 294#00009CFFFA000000
(1424108229.959162) can0 270#CF1300000000
(1424108230.058416) can0 475#B513184945000000
(1424108230.058652) can0 270#CF1300000000
(1424108230.156423) can0 475#A613184945000000
(1424108230.156642) can0 270#CF1300000000
(1424108230.258392) can0 475#B313184945000000
(1424108230.258597) can0 306#0F00000000000000
(1424108230.258792) can0 294#00009CFFFA000000
(1424108230.258970) can0 270#CF1300000000
(1424108230.358477) can0 475#B313184945000000
(1424108230.358705) can0 270#CF1300000000
(1424108230.458388) can0 475#AD13184945000000
(1424108230.458616) can0 270#CF1300000000
(1424108230.556763) can0 475#AD13184945000000
(1424108230.557113) can0 306#0E00000000000000
(1424108230.557311) can0 294#00009CFFFA000000
(1424108230.557647) can0 270#CF1300000000
(1424108230.656715) can0 475#AB13184945000000
(1424108230.656943) can0 270#CF1300000000
(1424108230.758548) can0 475#AD13184945000000
(1424108230.758780) can0 270#CF1300000000
(1424108230.858694) can0 475#A813184945000000
(1424108230.859122) can0 306#0E00000000000000
(1424108230.859327) can0 270#CF1300000000
(1424108230.859624) can0 294#00009CFFFA000000
(1424108230.958556) can0 475#B313184945000000
(1424108230.958771) can0 270#CF1300000000
(1424108231.058576) can0 475#B313184945000000
(1424108231.058940) can0 270#CF1300000000
(1424108231.156528) can0 475#B713184945000000
(1424108231.157011) can0 306#0F00000000000000
(1424108231.157354) can0 270#CF1300000000
(1424108231.157496) can0 294#00009CFFFA000000
(1424108231.258591) can0 475#AD13184945000000
(1424108231.258830) can0 270#CF1300000000
(1424108231.358765) can0 475#B713184945000000
(1424108231.358975) can0 270#CF1300000000
(1424108231.458588) can0 475#AF13184945000000
(1424108231.458952) can0 306#0F00000000000000
(1424108231.459151) can0 294#00009CFFFA000000
(1424108231.459501) can0 270#CF1300000000
(1424108231.558601) can0 475#AD13184945000000
(1424108231.558979) can0 270#CF1300000000
(1424108231.658631) can0 475#AD13184945000000
(1424108231.658858) can0 270#CF1300000000
(1424108231.758535) can0 475#AB13184945000000
(1424108231.759012) can0 306#0F00000000000000
(1424108231.759219) can0 270#CF1300000000
(1424108231.759502) can0 294#00009CFFFA000000
(1424108231.856688) can0 475#B513184945000000
(1424108231.857005) can0 270#CF1300000000
(1424108231.956477) can0 475#B113184945000000
(1424108231.956851) can0 270#CF1300000000
(1424108232.056497) can0 475#B913184945000000
(1424108232.056883) can0 306#0F00000000000000
(1424108232.057058) can0 294#00009CFFFA000000
(1424108232.057245) can0 270#CF1300000000
(1424108232.158611) can0 475#B313184945000000
(1424108232.158879) can0 270#CF1300000000
(1424108232.258428) can0 475#B513184945000000
(1424108232.258656) can0 270#CF1300000000
(1424108232.356407) can0 475#AD13184945000000
(1424108232.356903) can0 306#0F00000000000000
(1424108232.357210) can0 294#00009CFFFA000000
(1424108232.357500) can0 270#CF1300000000
(1424108232.458563) can0 475#B313184945000000
(1424108232.458796) can0 270#CF1300000000
(1424108232.558359) can0 475#AF13184945000000
(1424108232.558603) can0 270#CF1300000000
(1424108232.658328) can0 475#B513184945000000
(1424108232.658690) can0 306#0F00000000000000
(1424108232.659034) can0 294#00009CFFFA000000
(1424108232.659223) can0 270#CF1300000000
(1424108232.758518) can0 475#B713184945000000
(1424108232.758763) can0 270#CF1300000000
(1424108232.858540) can0 475#B513184945000000
(1424108232.858757) can0 270#CF1300000000
(1424108232.958772) can0 475#B513184945000000
(1424108232.959197) can0 306#0E00000000000000
(1424108232.959399) can0 270#CF1300000000
(1424108232.959692) can0 294#00009CFFFA000000
(1424108233.058672) can0 475#B313184945000000
(1424108233.058908) can0 270#CF1300000000
(1424108233.156657) can0 475#B313184945000000
(1424108233.156867) can0 270#CF1300000000
(1424108233.258391) can0 475#B713184945000000
(1424108233.258755) can0 306#0E00000000000000
(1424108233.258938) can0 294#00009CFFFA000000
(1424108233.259159) can0 270#CF1300000000
(1424108233.358567) can0 475#B913184945000000
(1424108233.358849) can0 270#CF1300000000
(1424108233.458606) can0 475#B113184945000000
(1424108233.458822) can0 270#CF1300000000
(1424108233.558554) can0 475#B913184945000000
(1424108233.558848) can0 306#0E00000000000000
(1424108233.559041) can0 294#00009CFFFA000000
(1424108233.559228) can0 270#CF1300000000
(1424108233.658720) can0 475#AF13184945000000
(1424108233.658969) can0 270#CF1300000000
(1424108233.756938) can0 475#AF13184945000000
(1424108233.757174) can0 270#CF1300000000
(1424108233.856724) can0 475#AD13184945000000
(1424108233.857064) can0 306#0E00000000000000
(1424108233.857408) can0 294#00009CFFFA000000
(1424108233.857608) can0 270#CF1300000000
(1424108233.956677) can0 475#B313184945000000
(1424108233.956908) can0 270#CF1300000000
(1424108234.058487) can0 475#B513184945000000
(1424108234.058717) can0 270#CF1300000000
(1424108234.156626) can0 475#B113184945000000
(1424108234.156974) can0 306#0D00000000000000
(1424108234.157321) can0 294#00009CFFFA000000
(1424108234.157509) can0 270#CF1300000000
(1424108234.258583) can0 475#B713184945000000
(1424108234.258805) can0 270#CF1300000000
(1424108234.358771) can0 475#B113184945000000
(1424108234.359274) can0 270#CF1300000000
(1424108234.456784) can0 475#AD13184945000000
(1424108234.457382) can0 306#0D00000000000000
(1424108234.457704) can0 270#CF1300000000
(1424108234.457855) can0 294#00009CFFFA000000
(1424108234.558811) can0 475#B113184945000000
(1424108234.559351) can0 270#CF1300000000
(1424108234.658809) can0 475#A913184945000000
(1424108234.659137) can0 270#CF1300000000
(1424108234.758779) can0 475#A913184945000000
(1424108234.759079) can0 306#0E00000000000000
(1424108234.759257) can0 294#00009CFFFA000000
(1424108234.759447) can0 270#CF1300000000
(1424108234.858725) can0 475#B313184945000000
(1424108234.858966) can0 270#CF1300000000
(1424108234.958737) can0 475#B713184945000000
(1424108234.958991) can0 270#CF1300000000
(1424108235.058680) can0 475#B513184945000000
(1424108235.059033) can0 306#0E00000000000000
(1424108235.059229) can0 294#00009CFFFA000000
(1424108235.059561) can0 270#CF1300000000
(1424108235.158654) can0 475#B313184945000000
(1424108235.159080) can0 270#CF1300000000
(1424108235.258636) can0 475#B913184945000000
(1424108235.258867) can0 270#CF1300000000
(1424108235.358606) can0 475#AF13184945000000
(1424108235.359307) can0 306#0E00000000000000
(1424108235.359452) can0 294#00009CFFFA000000
(1424108235.458551) can0 475#B513184945000000
(1424108235.459037) can0 270#CF1300000000
(1424108235.558555) can0 475#B313184945000000
(1424108235.558933) can0 270#CF1300000000
(1424108235.658574) can0 475#A813184945000000
(1424108235.658971) can0 306#0E00000000000000
(1424108235.659305) can0 294#00009CFFFA000000
(1424108235.659495) can0 270#CF1300000000
(1424108235.758699) can0 475#AF13184945000000
(1424108235.758927) can0 270#CF1300000000
(1424108235.856732) can0 475#AF13184945000000
(1424108235.856943) can0 270#CF1300000000
(1424108235.958728) can0 475#B713184945000000
(1424108235.958939) can0 306#0E00000000000000
(1424108235.959457) can0 294#00009CFFFA000000
(1424108235.959763) can0 270#CF1300000000
(1424108236.056824) can0 475#AF13184945000000
(1424108236.057055) can0 270#CF1300000000
(1424108236.156789) can0 475#AD13184945000000
(1424108236.157030) can0 270#CF1300000000
(1424108236.256832) can0 475#AB13184945000000
(1424108236.257027) can0 306#0E00000000000000
(1424108236.257372) can0 294#00009CFFFA000000
(1424108236.257862) can0 270#CF1300000000
(1424108236.356811) can0 475#B313184945000000
(1424108236.357137) can0 270#CF1300000000
(1424108236.456735) can0 475#AB13184945000000
(1424108236.456950) can0 270#CF1300000000
(1424108236.558764) can0 475#B313184945000000
(1424108236.558987) can0 306#0E00000000000000
(1424108236.559254) can0 294#00009CFFFA000000
(1424108236.559433) can0 270#CF1300000000
(1424108236.658734) can0 475#AF13184945000000
(1424108236.658965) can0 270#CF1300000000
(1424108236.756758) can0 475#AD13184945000000
(1424108236.757132) can0 270#CF1300000000
(1424108236.858909) can0 475#AD13184945000000
(1424108236.859141) can0 306#0F00000000000000
(1424108236.859370) can0 294#00009CFFFA000000
(1424108236.860004) can0 270#CF1300000000
(1424108236.957071) can0 475#B913184945000000
(1424108236.957303) can0 270#CF1300000000
(1424108237.058700) can0 475#AB13184945000000
(1424108237.059035) can0 270#CF1300000000
(1424108237.158859) can0 475#B713184945000000
(1424108237.159093) can0 306#0E00000000000000
(1424108237.159361) can0 294#00009CFFFA000000
(1424108237.159538) can0 270#CF1300000000
(1424108237.258623) can0 475#BB13184945000000
(1424108237.258964) can0 270#CF1300000000
(1424108237.357001) can0 475#B913184945000000
(1424108237.357214) can0 270#CF1300000000
(1424108237.458823) can0 475#B313184945000000
(1424108237.459170) can0 306#0E00000000000000
(1424108237.459524) can0 294#00009CFFFA000000
(1424108237.459716) can0 270#CF1300000000
(1424108237.559040) can0 475#B713184945000000
(1424108237.559306) can0 270#CF1300000000
(1424108237.658969) can0 475#B513184945000000
(1424108237.659303) can0 270#CF1300000000
(1424108237.758985) can0 475#B313184945000000
(1424108237.759381) can0 306#0F00000000000000
(1424108237.759633) can0 270#CF1300000000
(1424108237.759936) can0 294#00009CFFFA000000
(1424108237.858937) can0 475#AF13184945000000
(1424108237.859174) can0 270#CF1300000000
(1424108237.956940) can0 475#B913184945000000
(1424108237.957312) can0 270#CF1300000000
(1424108238.058874) can0 475#B913184945000000
(1424108238.059239) can0 306#0F00000000000000
(1424108238.059699) can0 294#00009CFFFA000000
(1424108238.059890) can0 270#CF1300000000
(1424108238.158903) can0 475#B513184945000000
(1424108238.159252) can0 270#CF1300000000
(1424108238.256856) can0 475#B113184945000000
(1424108238.257225) can0 270#CF1300000000
(1424108238.358986) can0 475#B513184945000000
(1424108238.359204) can0 306#1000000000000000
(1424108238.359400) can0 294#00009CFFFA000000
(1424108238.359821) can0 270#CF1300000000
(1424108238.458823) can0 475#B113184945000000
(1424108238.459150) can0 270#CF1300000000
(1424108238.558784) can0 475#B113184945000000
(1424108238.559015) can0 270#CF1300000000
(1424108238.658762) can0 475#AD13184945000000
(1424108238.659127) can0 306#0F00000000000000
(1424108238.659310) can0 294#00009CFFFA000000
(1424108238.659744) can0 270#CF1300000000
(1424108238.758754) can0 475#B513184945000000
(1424108238.759078) can0 270#CF1300000000
(1424108238.858704) can0 475#B313184945000000
(1424108238.859080) can0 270#CF1300000000
(1424108238.956945) can0 475#B713184945000000
(1424108238.957167) can0 306#0F00000000000000
(1424108238.957365) can0 294#00009CFFFA000000
(1424108238.957733) can0 270#CF1300000000
(1424108239.058848) can0 475#B513184945000000
(1424108239.059226) can0 270#CF1300000000
(1424108239.158879) can0 475#B713184945000000
(1424108239.159191) can0 270#CF1300000000
(1424108239.257021) can0 475#B113184945000000
(1424108239.257254) can0 306#0E00000000000000
(1424108239.257495) can0 294#00009CFFFA000000
(1424108239.257682) can0 270#CF1300000000
(1424108239.358838) can0 475#BB13184945000000
(1424108239.359182) can0 270#CF1300000000
(1424108239.458798) can0 475#BB13184945000000
(1424108239.459008) can0 270#CF1300000000
(1424108239.558759) can0 475#B113184945000000
(1424108239.559138) can0 306#0E00000000000000
(1424108239.559326) can0 294#00009CFFFA000000
(1424108239.559547) can0 270#CF1300000000
(1424108239.658940) can0 475#AB13184945000000
(1424108239.659170) can0 270#CF1300000000
(1424108239.757006) can0 475#B513184945000000
(1424108239.757243) can0 270#CF1300000000
(1424108239.859152) can0 475#AF13184945000000
(1424108239.859388) can0 306#0E00000000000000
(1424108239.859583) can0 294#00009CFFFA000000
(1424108239.859938) can0 270#CF1300000000
(1424108239.957314) can0 475#AD13184945000000
(1424108239.957553) can0 270#CF1300000000
(1424108240.059058) can0 475#A213184945000000
(1424108240.059293) can0 270#CF1300000000
(1424108240.157272) can0 475#AF13184945000000
(1424108240.157510) can0 306#0E00000000000000
(1424108240.157694) can0 294#00009CFFFA000000
(1424108240.157880) can0 270#CF1300000000
(1424108240.259035) can0 475#AF13184945000000
(1424108240.259275) can0 270#CF1300000000
(1424108240.359224) can0 475#B313184945000000
(1424108240.359446) can0 270#CF1300000000
(1424108240.459152) can0 475#B513184945000000
(1424108240.459387) can0 306#0E00000000000000
(1424108240.459569) can0 294#00009CFFFA000000
(1424108240.459791) can0 270#CF1300000000
(1424108240.559121) can0 475#BD13184945000000
(1424108240.559370) can0 270#CF1300000000
(1424108240.659205) can0 475#B513184945000000
(1424108240.659566) can0 270#CF1300000000
(1424108240.759205) can0 475#B513184945000000
(1424108240.759591) can0 306#0F00000000000000
(1424108240.760009) can0 294#00009CFFFA000000
(1424108240.760325) can0 270#CF1300000000
(1424108240.859147) can0 475#B513184945000000
(1424108240.859380) can0 270#CF1300000000
(1424108240.959362) can0 475#B113184945000000
(1424108240.959738) can0 270#CF1300000000
(1424108241.059132) can0 475#AB13184945000000
(1424108241.059503) can0 306#0E00000000000000
(1424108241.059856) can0 294#00009CFFFA000000
(1424108241.060047) can0 270#CF1300000000
(1424108241.159093) can0 475#BB13184945000000
(1424108241.159471) can0 270#CF1300000000
(1424108241.259029) can0 475#AD13184945000000
(1424108241.259402) can0 270#CF1300000000
(1424108241.359058) can0 475#B113184945000000
(1424108241.359408) can0 306#0E00000000000000
(1424108241.359794) can0 294#00009CFFFA000000
(1424108241.360035) can0 270#CF1300000000
(1424108241.459020) can0 475#B713184945000000
(1424108241.459246) can0 270#CF1300000000
(1424108241.559180) can0 475#B113184945000000
(1424108241.559525) can0 270#CF1300000000
(1424108241.659091) can0 475#B313184945000000
(1424108241.659335) can0 306#0E00000000000000
(1424108241.659521) can0 294#00009CFFFA000000
(1424108241.659740) can0 270#CF1300000000
(1424108241.758960) can0 475#B113184945000000
(1424108241.759198) can0 270#CF1300000000
(1424108241.859123) can0 475#B513184945000000
(1424108241.859344) can0 270#CF1300000000
(1424108241.958871) can0 475#AB13184945000000
(1424108241.959250) can0 306#0F00000000000000
(1424108241.959453) can0 294#00009CFFFA000000
(1424108241.959643) can0 270#CF1300000000
(1424108242.059131) can0 475#A913184945000000
(1424108242.059366) can0 270#CF1300000000
(1424108242.157075) can0 475#A813184945000000
(1424108242.157470) can0 270#CF1300000000
(1424108242.257185) can0 475#B313184945000000
(1424108242.257416) can0 306#1000000000000000
(1424108242.257663) can0 294#00009CFFFA000000
(1424108242.258035) can0 270#CF1300000000
(1424108242.359066) can0 475#B913184945000000
(1424108242.359378) can0 270#CF1300000000
(1424108242.457237) can0 475#AD13184945000000
(1424108242.457465) can0 270#CF1300000000
(1424108242.558998) can0 475#AB13184945000000
(1424108242.559375) can0 306#0E00000000000000
(1424108242.559567) can0 294#00009CFFFA000000
(1424108242.559763) can0 270#CF1300000000
(1424108242.657197) can0 475#AF13184945000000
(1424108242.657429) can0 270#CF1300000000
(1424108242.758931) can0 475#A613184945000000
(1424108242.759311) can0 270#CF1300000000
(1424108242.859087) can0 475#B313184945000000
(1424108242.859316) can0 306#0E00000000000000
(1424108242.859490) can0 294#00009CFFFA000000
(1424108242.859741) can0 270#CF1300000000
(1424108242.959065) can0 475#B513184945000000
(1424108242.959308) can0 270#CF1300000000
(1424108243.057334) can0 475#B913184945000000
(1424108243.057547) can0 270#CF1300000000
(1424108243.159478) can0 475#AF13184945000000
(1424108243.159715) can0 306#0F00000000000000
(1424108243.159902) can0 294#00009CFFFA000000
(1424108243.160168) can0 270#CF1300000000
(1424108243.257288) can0 475#B313184945000000
(1424108243.257527) can0 270#CF1300000000
(1424108243.359186) can0 475#AF13184945000000
(1424108243.359536) can0 270#CF1300000000
(1424108243.459195) can0 475#B713184945000000
(1424108243.459429) can0 306#0F00000000000000
(1424108243.459666) can0 294#00009CFFFA000000
(1424108243.459851) can0 270#CF1300000000
(1424108243.557209) can0 475#B713184945000000
(1424108243.557447) can0 270#CF1300000000
(1424108243.659371) can0 475#B713184945000000
(1424108243.659598) can0 270#CF1300000000
(1424108243.757361) can0 475#A913184945000000
(1424108243.757599) can0 306#0F00000000000000
(1424108243.757793) can0 294#00009CFFFA000000
(1424108243.757982) can0 270#CF1300000000
(1424108243.857379) can0 475#B513184945000000
(1424108243.857763) can0 270#CF1300000000
(1424108243.959583) can0 475#AD13184945000000
(1424108243.959799) can0 270#CF1300000000
(1424108244.057344) can0 475#AF13184945000000
(1424108244.057738) can0 306#0F00000000000000
(1424108244.057928) can0 294#00009CFFFA000000
(1424108244.058109) can0 270#CF1300000000
(1424108244.159292) can0 475#B113184945000000
(1424108244.159665) can0 270#CF1300000000
(1424108244.257270) can0 475#B313184945000000
(1424108244.257636) can0 270#CF1300000000
(1424108244.357267) can0 475#A913184945000000
(1424108244.357669) can0 306#0E00000000000000
(1424108244.357850) can0 294#00009CFFFA000000
(1424108244.358036) can0 270#CF1300000000
(1424108244.457219) can0 475#A913184945000000
(1424108244.457443) can0 270#CF1300000000
(1424108244.559233) can0 475#AD13184945000000
(1424108244.559587) can0 270#CF1300000000
(1424108244.659425) can0 475#AF13184945000000
(1424108244.659645) can0 306#0D00000000000000
(1424108244.659819) can0 294#00009CFFFA000000
(1424108244.660015) can0 270#CF1300000000
(1424108244.759369) can0 475#B113184945000000
(1424108244.759594) can0 270#CF1300000000
(1424108244.859312) can0 475#B913184945000000
(1424108244.859528) can0 270#CF1300000000
(1424108244.959270) can0 475#AF13184945000000
(1424108244.959503) can0 306#0B00000000000000
(1424108244.959697) can0 294#00009CFFFA000000
(1424108244.959890) can0 270#CF1300000000
(1424108245.059200) can0 475#AB13184945000000
(1424108245.059454) can0 270#CF1300000000
(1424108245.159292) can0 475#AD13184945000000
(1424108245.159499) can0 270#CF1300000000
(1424108245.259281) can0 475#B713184945000000
(1424108245.259641) can0 306#0C00000000000000
(1424108245.259840) can0 294#00009CFFFA000000
(1424108245.260032) can0 270#CF1300000000
(1424108245.359367) can0 475#BB13184945000000
(1424108245.359614) can0 270#CF1300000000
(1424108245.457396) can0 475#B313184945000000
(1424108245.457635) can0 270#CF1300000000
(1424108245.559382) can0 475#AF13184945000000
(1424108245.559612) can0 306#0E00000000000000
(1424108245.559810) can0 294#00009CFFFA000000
(1424108245.560004) can0 270#CF1300000000
(1424108245.659434) can0 475#AB13184945000000
(1424108245.659660) can0 270#CF1300000000
(1424108245.759715) can0 270#CF1300000000
(1424108245.859261) can0 475#B113184945000000
(1424108245.859495) can0 306#0F00000000000000
(1424108245.859685) can0 294#00009CFFFA000000
(1424108245.859926) can0 270#CF1300000000
(1424108245.959338) can0 475#AF13184945000000
(1424108245.959589) can0 270#CF1300000000
(1424108246.059305) can0 475#AB13184945000000
(1424108246.059541) can0 270#CF1300000000
(1424108246.159529) can0 475#B713184945000000
(1424108246.159765) can0 306#0E00000000000000
(1424108246.159962) can0 294#00009CFFFA000000
(1424108246.160150) can0 270#CF1300000000
(1424108246.257636) can0 475#AD13184945000000
(1424108246.257880) can0 270#CF1300000000
(1424108246.359646) can0 475#AD13184945000000
(1424108246.359992) can0 270#CF1300000000
(1424108246.457596) can0 475#B113184945000000
(1424108246.457952) can0 306#0E00000000000000
(1424108246.458151) can0 294#00009CFFFA000000
(1424108246.458499) can0 270#CF1300000000
(1424108246.557600) can0 475#B313184945000000
(1424108246.557835) can0 270#CF1300000000
(1424108246.659569) can0 475#B513184945000000
(1424108246.660089) can0 270#CF1300000000
(1424108246.759326) can0 475#AD13184945000000
(1424108246.759684) can0 306#0F00000000000000
(1424108246.759881) can0 294#00009CFFFA000000
(1424108246.760226) can0 270#CF1300000000
(1424108246.859427) can0 475#AD13184945000000
(1424108246.859660) can0 270#CF1300000000
(1424108246.959485) can0 475#AD13184945000000
(1424108246.959717) can0 270#CF1300000000
(1424108247.059579) can0 475#B713184945000000
(1424108247.059816) can0 306#0E00000000000000
(1424108247.060008) can0 294#00009CFFFA000000
(1424108247.060195) can0 270#CF1300000000
(1424108247.157525) can0 475#B113184945000000
(1424108247.157861) can0 270#CF1300000000
(1424108247.257456) can0 475#B513184945000000
(1424108247.257815) can0 270#CF1300000000
(1424108247.357610) can0 475#B513184945000000
(1424108247.357852) can0 306#0E00000000000000
(1424108247.358047) can0 294#00009CFFFA000000
(1424108247.358234) can0 270#CF1300000000
(1424108247.457431) can0 475#AF13184945000000
(1424108247.457824) can0 270#CF1300000000
(1424108247.559403) can0 475#AD13184945000000
(1424108247.559611) can0 270#CF1300000000
(1424108247.659736) can0 306#0E00000000000000
(1424108247.660064) can0 270#CF1300000000
(1424108247.660185) can0 294#00009CFFFA000000
(1424108247.757368) can0 475#B313184945000000
(1424108247.757752) can0 270#CF1300000000
(1424108247.857349) can0 475#B313184945000000
(1424108247.857830) can0 270#CF1300000000
(1424108247.957309) can0 475#B513184945000000
(1424108247.957668) can0 306#0E00000000000000
(1424108247.958079) can0 294#00009CFFFA000000
(1424108247.958273) can0 270#CF1300000000
(1424108248.059315) can0 475#A913184945000000
(1424108248.059656) can0 270#CF1300000000
(1424108248.159287) can0 475#A913184945000000
(1424108248.159624) can0 270#CF1300000000
(1424108248.259423) can0 475#AD13184945000000
(1424108248.259656) can0 306#0E00000000000000
(1424108248.259858) can0 294#00009CFFFA000000
(1424108248.260238) can0 270#CF1300000000
(1424108248.359442) can0 475#B913184945000000
(1424108248.359665) can0 270#CF1300000000
(1424108248.459379) can0 475#BB13184945000000
(1424108248.459867) can0 270#CF1300000000
(1424108248.557664) can0 475#AF13184945000000
(1424108248.557892) can0 306#0F00000000000000
(1424108248.558244) can0 294#00009CFFFA000000
(1424108248.558438) can0 270#CF1300000000
(1424108248.659574) can0 475#B113184945000000
(1424108248.659807) can0 270#CF1300000000
(1424108248.757570) can0 475#A813184945000000
(1424108248.757787) can0 270#CF1300000000
(1424108248.857484) can0 475#AF13184945000000
(1424108248.857709) can0 306#0F00000000000000
(1424108248.857953) can0 294#00009CFFFA000000
(1424108248.858180) can0 270#CF1300000000
(1424108248.959513) can0 475#B913184945000000
(1424108248.959734) can0 270#CF1300000000
(1424108249.059511) can0 475#A913184945000000
(1424108249.059740) can0 270#CF1300000000
(1424108249.159497) can0 475#B113184945000000
(1424108249.159733) can0 306#0F00000000000000
(1424108249.159904) can0 294#00009CFFFA000000
(1424108249.160125) can0 270#CF1300000000
(1424108249.257678) can0 475#AF13184945000000
(1424108249.257909) can0 270#CF1300000000
(1424108249.357669) can0 475#B513184945000000
(1424108249.357900) can0 270#CF1300000000
(1424108249.459813) can0 475#AF13184945000000
(1424108249.460049) can0 306#0E00000000000000
(1424108249.460230) can0 294#00009CFFFA000000
(1424108249.460488) can0 270#CF1300000000
(1424108249.559421) can0 475#B513184945000000
(1424108249.559659) can0 270#CF1300000000
(1424108249.657790) can0 475#A813184945000000
(1424108249.658030) can0 270#CF1300000000
(1424108249.757757) can0 475#B113184945000000
(1424108249.757992) can0 306#0F00000000000000
(1424108249.758187) can0 294#00009CFFFA000000
(1424108249.758367) can0 270#CF1300000000
(1424108249.859556) can0 475#B713184945000000
(1424108249.859781) can0 270#CF1300000000
(1424108249.957682) can0 475#BB13184945000000
(1424108249.957911) can0 270#CF1300000000
(1424108250.059721) can0 475#B713184945000000
(1424108250.060089) can0 306#1000000000000000
(1424108250.060324) can0 294#00009CFFFA000000
(1424108250.060519) can0 270#CF1300000000
(1424108250.159742) can0 475#AF13184945000000
(1424108250.159982) can0 270#CF1300000000
(1424108250.259706) can0 475#AD13184945000000
(1424108250.260076) can0 270#CF1300000000
(1424108250.357887) can0 475#B513184945000000
(1424108250.358116) can0 306#0F00000000000000
(1424108250.358312) can0 294#00009CFFFA000000
(1424108250.358502) can0 270#CF1300000000
(1424108250.457676) can0 475#B313184945000000
(1424108250.458044) can0 270#CF1300000000
(1424108250.559642) can0 475#AF13184945000000
(1424108250.559878) can0 270#CF1300000000
(1424108250.659734) can0 475#B313184945000000
(1424108250.659966) can0 306#0F00000000000000
(1424108250.660341) can0 294#00009CFFFA000000
(1424108250.660535) can0 270#CF1300000000
(1424108250.759624) can0 475#B313184945000000
(1424108250.759855) can0 270#CF1300000000
(1424108250.857598) can0 475#AF13184945000000
(1424108250.857911) can0 270#CF1300000000
(1424108250.957722) can0 475#B313184945000000
(1424108250.957953) can0 306#0F00000000000000
(1424108250.958140) can0 294#00009CFFFA000000
(1424108250.958329) can0 270#CF1300000000
(1424108251.059671) can0 475#AF13184945000000
(1424108251.059869) can0 270#CF1300000000
(1424108251.159509) can0 475#AF13184945000000
(1424108251.159827) can0 270#CF1300000000
(1424108251.259687) can0 475#AD13184945000000
(1424108251.259902) can0 306#0F00000000000000
(1424108251.260104) can0 294#00009CFFFA000000
(1424108251.260288) can0 270#CF1300000000
(1424108251.359444) can0 475#B513184945000000
(1424108251.359683) can0 270#CF1300000000
(1424108251.459713) can0 475#C113184945000000
(1424108251.459943) can0 270#CF1300000000
(1424108251.557800) can0 475#BB13184945000000
(1424108251.558030) can0 306#0F00000000000000
(1424108251.558205) can0 294#00009CFFFA000000
(1424108251.558564) can0 270#CF1300000000
(1424108251.659563) can0 475#B313184945000000
(1424108251.659924) can0 270#CF1300000000
(1424108251.759621) can0 475#B313184945000000
(1424108251.759958) can0 270#CF1300000000
(1424108251.857708) can0 475#AD13184945000000
(1424108251.857937) can0 306#1000000000000000
(1424108251.858274) can0 294#00009CFFFA000000
(1424108251.858469) can0 270#CF1300000000
(1424108251.959557) can0 475#AD13184945000000
(1424108251.959878) can0 270#CF1300000000
(1424108252.059502) can0 475#AB13184945000000
(1424108252.059837) can0 270#CF1300000000
(1424108252.159693) can0 475#BB13184945000000
(1424108252.159901) can0 306#1100000000000000
(1424108252.160096) can0 294#00009CFFFA000000
(1424108252.160279) can0 270#CF1300000000
(1424108252.259723) can0 475#AD13184945000000
(1424108252.259959) can0 270#CF1300000000
(1424108252.359645) can0 475#BB13184945000000
(1424108252.359876) can0 270#CF1300000000
(1424108252.459635) can0 475#AF13184945000000
(1424108252.460015) can0 306#1000000000000000
(1424108252.460201) can0 294#00009CFFFA000000
(1424108252.460626) can0 270#CF1300000000
(1424108252.559839) can0 475#AF13184945000000
(1424108252.560055) can0 270#CF1300000000
(1424108252.659819) can0 475#B313184945000000
(1424108252.660031) can0 270#CF1300000000
(1424108252.759551) can0 475#AB13184945000000
(1424108252.760057) can0 306#0F00000000000000
(1424108252.760251) can0 294#00009CFFFA000000
(1424108252.760596) can0 270#CF1300000000
(1424108252.859567) can0 475#BB13184945000000
(1424108252.859875) can0 270#CF1300000000
(1424108252.959750) can0 475#B713184945000000
(1424108252.959957) can0 270#CF1300000000
(1424108253.059899) can0 475#B313184945000000
(1424108253.060134) can0 306#1100000000000000
(1424108253.060323) can0 294#00009CFFFA000000
(1424108253.060493) can0 270#CF1300000000
(1424108253.159950) can0 475#B913184945000000
(1424108253.160191) can0 270#CF1300000000
(1424108253.259900) can0 475#AB13184945000000
(1424108253.260115) can0 270#CF1300000000
(1424108253.359881) can0 475#B313184945000000
(1424108253.360372) can0 306#1100000000000000
(1424108253.360572) can0 294#00009CFFFA000000
(1424108253.360919) can0 270#CF1300000000
(1424108253.459886) can0 475#B713184945000000
(1424108253.460111) can0 270#CF1300000000
(1424108253.559821) can0 475#B513184945000000
(1424108253.560050) can0 270#CF1300000000
(1424108253.659797) can0 475#B713184945000000
(1424108253.660184) can0 306#1100000000000000
(1424108253.660536) can0 294#00009CFFFA000000
(1424108253.660732) can0 270#CF1300000000
(1424108253.759841) can0 475#B513184945000000
(1424108253.760043) can0 270#CF1300000000
(1424108253.859776) can0 475#BD13184945000000
(1424108253.860011) can0 270#CF1300000000
(1424108253.959731) can0 475#B913184945000000
(1424108253.959948) can0 306#1100000000000000
(1424108253.960189) can0 294#00009CFFFA000000
(1424108253.960610) can0 270#CF1300000000
(1424108254.057935) can0 475#AF13184945000000
(1424108254.058148) can0 270#CF1300000000
(1424108254.159658) can0 475#A913184945000000
(1424108254.160004) can0 270#CF1300000000
(1424108254.259665) can0 475#B713184945000000
(1424108254.259895) can0 306#1200000000000000
(1424108254.260139) can0 294#00009CFFFA000000
(1424108254.260329) can0 270#CF1300000000
(1424108254.357791) can0 475#B713184945000000
(1424108254.358030) can0 270#CF1300000000
(1424108254.459624) can0 475#AF13184945000000
(1424108254.459850) can0 270#CF1300000000
(1424108254.559813) can0 475#B313184945000000
(1424108254.560035) can0 306#1100000000000000
(1424108254.560221) can0 294#00009CFFFA000000
(1424108254.560458) can0 270#CF1300000000
(1424108254.657933) can0 475#B713184945000000
(1424108254.658288) can0 270#CF1300000000
(1424108254.759810) can0 475#B113184945000000
(1424108254.760168) can0 270#CF1300000000
(1424108254.859752) can0 475#AD13184945000000
(1424108254.860112) can0 306#1100000000000000
(1424108254.860306) can0 294#00009CFFFA000000
(1424108254.860493) can0 270#CF1300000000
(1424108254.957954) can0 475#B913184945000000
(1424108254.958158) can0 270#CF1300000000
(1424108255.059729) can0 475#B513184945000000
(1424108255.060063) can0 270#CF1300000000
(1424108255.157856) can0 475#B113184945000000
(1424108255.158088) can0 306#1100000000000000
(1424108255.158344) can0 294#00009CFFFA000000
(1424108255.158719) can0 270#CF1300000000
(1424108255.259670) can0 475#B113184945000000
(1424108255.260002) can0 270#CF1300000000
(1424108255.359878) can0 475#AD13184945000000
(1424108255.360227) can0 270#CF1300000000
(1424108255.459843) can0 475#B113184945000000
(1424108255.460372) can0 306#1200000000000000
(1424108255.460808) can0 270#CF1300000000
(1424108255.460941) can0 294#00009CFFFA000000
(1424108255.558220) can0 475#B113184945000000
(1424108255.558593) can0 270#CF1300000000
(1424108255.658189) can0 475#AD13184945000000
(1424108255.658608) can0 270#CF1300000000
(1424108255.760204) can0 475#AF13184945000000
(1424108255.760824) can0 306#1100000000000000
(1424108255.761243) can0 294#00009CFFFA000000
(1424108255.860144) can0 475#A813184945000000
(1424108255.860388) can0 270#CF1300000000
(1424108255.958117) can0 475#A813184945000000
(1424108255.958550) can0 270#CF1300000000
(1424108256.060113) can0 475#AD13184945000000
(1424108256.060653) can0 306#1000000000000000
(1424108256.061131) can0 294#00009CFFFA000000
(1424108256.158026) can0 475#A913184945000000
(1424108256.158368) can0 270#CF1300000000
(1424108256.260134) can0 475#AF13184945000000
(1424108256.260837) can0 270#CF1300000000
(1424108256.360265) can0 475#AD13184945000000
(1424108256.360795) can0 306#1000000000000000
(1424108256.361446) can0 294#00009CFFFA000000
(1424108256.460122) can0 475#B913184945000000
(1424108256.460470) can0 270#CF1300000000
(1424108256.560297) can0 475#B313184945000000
(1424108256.560515) can0 270#CF1300000000
(1424108256.658093) can0 475#B513184945000000
(1424108256.658610) can0 306#1100000000000000
(1424108256.658804) can0 270#CF1300000000
(1424108256.658935) can0 294#00009CFFFA000000
(1424108256.760030) can0 475#B513184945000000
(1424108256.760389) can0 270#CF1300000000
(1424108256.860164) can0 475#B313184945000000
(1424108256.860369) can0 270#CF1300000000
(1424108256.959922) can0 475#B113184945000000
(1424108256.960298) can0 306#1000000000000000
(1424108256.960530) can0 294#00009CFFFA000000
(1424108256.960908) can0 270#CF1300000000
(1424108257.060192) can0 475#AF13184945000000
(1424108257.060410) can0 270#CF1300000000
(1424108257.157951) can0 475#AD13184945000000
(1424108257.158297) can0 270#CF1300000000
(1424108257.257906) can0 475#B113184945000000
(1424108257.258348) can0 306#0F00000000000000
(1424108257.258681) can0 294#00009CFFFA000000
(1424108257.258875) can0 270#CF1300000000
(1424108257.360104) can0 475#B113184945000000
(1424108257.360320) can0 270#CF1300000000
(1424108257.460038) can0 475#B313184945000000
(1424108257.460276) can0 270#CF1300000000
(1424108257.557827) can0 475#B913184945000000
(1424108257.558213) can0 306#0E00000000000000
(1424108257.558397) can0 294#00009CFFFA000000
(1424108257.558583) can0 270#CF1300000000
(1424108257.660004) can0 475#B513184945000000
(1424108257.660387) can0 270#CF1300000000
(1424108257.760008) can0 475#B713184945000000
(1424108257.760336) can0 270#CF1300000000
(1424108257.860152) can0 475#A213184945000000
(1424108257.860388) can0 306#0F00000000000000
(1424108257.860572) can0 294#00009CFFFA000000
(1424108257.860765) can0 270#CF1300000000
(1424108257.960244) can0 475#AF13184945000000
(1424108257.960464) can0 270#CF1300000000
(1424108258.058014) can0 475#B513184945000000
(1424108258.058426) can0 270#CF1300000000
(1424108258.158090) can0 475#B513184945000000
(1424108258.158313) can0 306#0F00000000000000
(1424108258.158508) can0 294#00009CFFFA000000
(1424108258.158700) can0 270#CF1300000000
(1424108258.260049) can0 475#B513184945000000
(1424108258.260293) can0 270#CF1300000000
(1424108258.360086) can0 475#B113184945000000
(1424108258.360307) can0 270#CF1300000000
(1424108258.460107) can0 475#B113184945000000
(1424108258.460340) can0 306#1000000000000000
(1424108258.460726) can0 294#00009CFFFA000000
(1424108258.461118) can0 270#CF1300000000
(1424108258.560189) can0 475#B313184945000000
(1424108258.560400) can0 270#CF1300000000
(1424108258.660402) can0 475#B113184945000000
(1424108258.660628) can0 270#CF1300000000
(1424108258.760381) can0 475#B113184945000000
(1424108258.760731) can0 306#1100000000000000
(1424108258.761080) can0 270#CF1300000000
(1424108258.761228) can0 294#00009CFFFA000000
(1424108258.860420) can0 475#B713184945000000
(1424108258.860795) can0 270#CF1300000000
(1424108258.960464) can0 475#B113184945000000
(1424108258.960685) can0 270#CF1300000000
(1424108259.060314) can0 475#B513184945000000
(1424108259.060676) can0 306#1100000000000000
(1424108259.061027) can0 294#00009CFFFA000000
(1424108259.061222) can0 270#CF1300000000
(1424108259.160342) can0 475#BB13184945000000
(1424108259.160704) can0 270#CF1300000000
(1424108259.260350) can0 475#A813184945000000
(1424108259.260576) can0 270#CF1300000000
(1424108259.360336) can0 475#B513184945000000
(1424108259.360711) can0 306#1200000000000000
(1424108259.360903) can0 294#00009CFFFA000000
(1424108259.361092) can0 270#CF1300000000
(1424108259.448446) can0 475#B113184945000000
(1424108259.448685) can0 270#CF1300000000
(1424108259.548261) can0 475#B113184945000000
(1424108259.548640) can0 270#CF1300000000
(1424108259.648291) can0 475#B113184945000000
(1424108259.648661) can0 306#1300000000000000
(1424108259.648858) can0 294#00009CFFFA000000
(1424108259.649050) can0 270#CF1300000000
(1424108259.748456) can0 475#B113184945000000
(1424108259.748694) can0 270#CF1300000000
(1424108259.848431) can0 475#B313184945000000
(1424108259.848639) can0 270#CF1300000000
(1424108259.948419) can0 475#AF13184945000000
(1424108259.948635) can0 306#1200000000000000
(1424108259.948833) can0 294#00009CFFFA000000
(1424108259.949037) can0 270#CF1300000000
(1424108260.048313) can0 475#B513184945000000
(1424108260.048537) can0 270#CF1300000000
(1424108260.148151) can0 475#BB13184945000000
(1424108260.148484) can0 270#CF1300000000
(1424108260.248122) can0 475#B713184945000000
(1424108260.248489) can0 306#1200000000000000
(1424108260.248684) can0 294#00009CFFFA000000
(1424108260.248877) can0 270#CF1300000000
(1424108260.348317) can0 475#B513184945000000
(1424108260.348546) can0 270#CF1300000000
(1424108260.448262) can0 475#B713184945000000
(1424108260.448480) can0 270#CF1300000000
(1424108260.548161) can0 475#AF13184945000000
(1424108260.548803) can0 306#1000000000000000
(1424108260.549124) can0 294#00009CFFFA000000
(1424108260.648023) can0 475#B113184945000000
(1424108260.648718) can0 270#CF1300000000
(1424108260.748182) can0 475#AD13184945000000
(1424108260.748555) can0 270#CF1300000000
(1424108260.848200) can0 475#B513184945000000
(1424108260.848575) can0 306#1100000000000000
(1424108260.848927) can0 294#00009CFFFA000000
(1424108260.849118) can0 270#CF1300000000
(1424108260.948377) can0 475#AD13184945000000
(1424108260.948618) can0 270#CF1300000000
(1424108261.048417) can0 475#AF13184945000000
(1424108261.048633) can0 270#CF1300000000
(1424108261.148304) can0 475#B713184945000000
(1424108261.148533) can0 306#1100000000000000
(1424108261.148768) can0 294#00009CFFFA000000
(1424108261.148975) can0 270#CF1300000000
(1424108261.248357) can0 475#AD13184945000000
(1424108261.248603) can0 270#CF1300000000
(1424108261.348304) can0 475#AF13184945000000
(1424108261.348523) can0 270#CF1300000000
(1424108261.448272) can0 475#B713184945000000
(1424108261.448508) can0 306#1100000000000000
(1424108261.448696) can0 294#00009CFFFA000000
(1424108261.448892) can0 270#CF1300000000
(1424108261.548496) can0 475#B513184945000000
(1424108261.548746) can0 270#CF1300000000
(1424108261.648422) can0 475#BD13184945000000
(1424108261.648651) can0 270#CF1300000000
(1424108261.748609) can0 475#B513184945000000
(1424108261.748977) can0 306#1000000000000000
(1424108261.749156) can0 294#00009CFFFA000000
(1424108261.749514) can0 270#CF1300000000
(1424108261.848678) can0 475#B713184945000000
(1424108261.849064) can0 270#CF1300000000
(1424108261.948616) can0 475#B913184945000000
(1424108261.948955) can0 270#CF1300000000
(1424108262.048572) can0 475#B513184945000000
(1424108262.049022) can0 306#1000000000000000
(1424108262.049232) can0 270#CF1300000000
(1424108262.049530) can0 294#00009CFFFA000000
(1424108262.148592) can0 475#AB13184945000000
(1424108262.148832) can0 270#CF1300000000
(1424108262.248508) can0 475#B313184945000000
(1424108262.248727) can0 270#CF1300000000
(1424108262.348494) can0 475#AF13184945000000
(1424108262.349099) can0 306#0E00000000000000
(1424108262.349523) can0 294#00009CFFFA000000
(1424108262.448527) can0 475#B713184945000000
(1424108262.449216) can0 270#CF1300000000
(1424108262.548475) can0 475#AD13184945000000
(1424108262.548836) can0 270#CF1300000000
(1424108262.648682) can0 475#AD13184945000000
(1424108262.648899) can0 306#0E00000000000000
(1424108262.649251) can0 294#00009CFFFA000000
(1424108262.649447) can0 270#CF1300000000
(1424108262.748441) can0 475#A913184945000000
(1424108262.748835) can0 270#CF1300000000
(1424108262.848588) can0 475#B513184945000000
(1424108262.848818) can0 270#CF1300000000
(1424108262.948441) can0 475#B113184945000000
(1424108262.948810) can0 306#0F00000000000000
(1424108262.949159) can0 294#00009CFFFA000000
(1424108262.949353) can0 270#CF1300000000
(1424108263.048545) can0 475#AF13184945000000
(1424108263.048777) can0 270#CF1300000000
(1424108263.148347) can0 475#AD13184945000000
(1424108263.148712) can0 270#CF1300000000
(1424108263.248336) can0 475#B313184945000000
(1424108263.248710) can0 306#1100000000000000
(1424108263.249058) can0 294#00009CFFFA000000
(1424108263.249255) can0 270#CF1300000000
(1424108263.348454) can0 475#BB13184945000000
(1424108263.348677) can0 270#CF1300000000
(1424108263.448459) can0 475#B113184945000000
(1424108263.448677) can0 270#CF1300000000
(1424108263.548444) can0 475#AF13184945000000
(1424108263.548682) can0 306#1100000000000000
(1424108263.548881) can0 294#00009CFFFA000000
(1424108263.549268) can0 270#CF1300000000
(1424108263.648420) can0 475#B713184945000000
(1424108263.648631) can0 270#CF1300000000
(1424108263.748425) can0 475#AD13184945000000
(1424108263.748643) can0 270#CF1300000000
(1424108263.848400) can0 475#AF13184945000000
(1424108263.848617) can0 306#1200000000000000
(1424108263.848968) can0 294#00009CFFFA000000
(1424108263.849163) can0 270#CF1300000000
(1424108263.948366) can0 475#B113184945000000
(1424108263.948600) can0 270#CF1300000000
(1424108264.048507) can0 475#B313184945000000
(1424108264.048721) can0 270#CF1300000000
(1424108264.148574) can0 475#A413184945000000
(1424108264.148939) can0 306#1200000000000000
(1424108264.149139) can0 294#00009CFFFA000000
(1424108264.149485) can0 270#CF1300000000
(1424108264.248526) can0 475#B713184945000000
(1424108264.248741) can0 270#CF1300000000
(1424108264.348517) can0 475#B113184945000000
(1424108264.348743) can0 270#CF1300000000
(1424108264.448491) can0 475#B313184945000000
(1424108264.448724) can0 306#1200000000000000
(1424108264.448922) can0 294#00009CFFFA000000
(1424108264.449312) can0 270#CF1300000000
(1424108264.548454) can0 475#AD13184945000000
(1424108264.548674) can0 270#CF1300000000
(1424108264.648423) can0 475#B913184945000000
(1424108264.648641) can0 270#CF1300000000
(1424108264.748430) can0 475#B513184945000000
(1424108264.748662) can0 306#1000000000000000
(1424108264.748906) can0 294#00009CFFFA000000
(1424108264.749098) can0 270#CF1300000000
(1424108264.848409) can0 475#B913184945000000
(1424108264.848787) can0 270#CF1300000000
(1424108264.948741) can0 475#B713184945000000
(1424108264.948977) can0 270#CF1300000000
(1424108265.048765) can0 475#B313184945000000
(1424108265.049002) can0 306#0F00000000000000
(1424108265.049363) can0 294#00009CFFFA000000
(1424108265.049556) can0 270#CF1300000000
(1424108265.148657) can0 475#AF13184945000000
(1424108265.148897) can0 270#CF1300000000
(1424108265.248478) can0 475#B113184945000000
(1424108265.248711) can0 270#CF1300000000
(1424108265.348698) can0 475#A613184945000000
(1424108265.349220) can0 306#1000000000000000
(1424108265.349676) can0 294#00009CFFFA000000
(1424108265.448650) can0 475#B513184945000000
(1424108265.449250) can0 270#CF1300000000
(1424108265.548581) can0 475#AD13184945000000
(1424108265.549116) can0 270#CF1300000000
(1424108265.648691) can0 475#B113184945000000
(1424108265.649391) can0 306#1000000000000000
(1424108265.649540) can0 294#00009CFFFA000000
(1424108265.748872) can0 475#B113184945000000
(1424108265.749300) can0 270#CF1300000000
(1424108265.848670) can0 475#B313184945000000
(1424108265.848992) can0 270#CF1300000000
(1424108265.948793) can0 475#A613184945000000
(1424108265.949149) can0 306#1000000000000000
(1424108265.949351) can0 270#CF1300000000
(1424108265.949659) can0 294#00009CFFFA000000
(1424108266.048789) can0 475#A913184945000000
(1424108266.049033) can0 270#CF1300000000
(1424108266.148652) can0 475#B513184945000000
(1424108266.148983) can0 270#CF1300000000
(1424108266.248549) can0 475#AF13184945000000
(1424108266.248925) can0 306#1100000000000000
(1424108266.249118) can0 294#00009CFFFA000000
(1424108266.249308) can0 270#CF1300000000
(1424108266.348516) can0 475#B313184945000000
(1424108266.348868) can0 270#CF1300000000
(1424108266.448496) can0 475#A913184945000000
(1424108266.448869) can0 270#CF1300000000
(1424108266.548679) can0 475#AF13184945000000
(1424108266.548897) can0 306#1000000000000000
(1424108266.549094) can0 294#00009CFFFA000000
(1424108266.549271) can0 270#CF1300000000
(1424108266.648659) can0 475#B713184945000000
(1424108266.648889) can0 270#CF1300000000
(1424108266.748682) can0 475#B513184945000000
(1424108266.748903) can0 270#CF1300000000
(1424108266.848577) can0 475#B713184945000000
(1424108266.848815) can0 306#1000000000000000
(1424108266.849016) can0 294#00009CFFFA000000
(1424108266.849208) can0 270#CF1300000000
(1424108266.948572) can0 475#BB13184945000000
(1424108266.948812) can0 270#CF1300000000
(1424108267.048611) can0 475#B313184945000000
(1424108267.048833) can0 270#CF1300000000
(1424108267.148552) can0 475#B513184945000000
(1424108267.148925) can0 306#1000000000000000
(1424108267.149119) can0 294#00009CFFFA000000
(1424108267.149309) can0 270#CF1300000000
(1424108267.248692) can0 475#C113184945000000
(1424108267.248911) can0 270#CF1300000000
(1424108267.348742) can0 475#B313184945000000
(1424108267.348959) can0 270#CF1300000000
(1424108267.448700) can0 475#B713184945000000
(1424108267.448936) can0 306#0F00000000000000
(1424108267.449128) can0 294#00009CFFFA000000
(1424108267.449503) can0 270#CF1300000000
(1424108267.548653) can0 475#B313184945000000
(1424108267.548868) can0 270#CF1300000000
(1424108267.648563) can0 475#B513184945000000
(1424108267.648796) can0 270#CF1300000000
(1424108267.748624) can0 475#BB13184945000000
(1424108267.748865) can0 306#0F00000000000000
(1424108267.749058) can0 294#00009CFFFA000000
(1424108267.749436) can0 270#CF1300000000
(1424108267.848604) can0 475#A913184945000000
(1424108267.848965) can0 270#CF1300000000
(1424108267.948568) can0 475#AB13184945000000
(1424108267.948947) can0 270#CF1300000000
(1424108268.048771) can0 475#B513184945000000
(1424108268.049009) can0 306#1000000000000000
(1424108268.049246) can0 294#00009CFFFA000000
(1424108268.049437) can0 270#CF1300000000
(1424108268.148940) can0 475#B113184945000000
(1424108268.149183) can0 270#CF1300000000
(1424108268.248898) can0 475#B713184945000000
(1424108268.249137) can0 270#CF1300000000
(1424108268.348887) can0 475#B113184945000000
(1424108268.349129) can0 306#0F00000000000000
(1424108268.349315) can0 294#00009CFFFA000000
(1424108268.349552) can0 270#CF1300000000
(1424108268.448740) can0 475#B513184945000000
(1424108268.448970) can0 270#CF1300000000
(1424108268.548854) can0 475#B713184945000000
(1424108268.549089) can0 270#CF1300000000
(1424108268.648799) can0 475#B113184945000000
(1424108268.649141) can0 306#1000000000000000
(1424108268.649477) can0 270#CF1300000000
(1424108268.649616) can0 294#00009CFFFA000000
(1424108268.748916) can0 475#B513184945000000
(1424108268.749138) can0 270#CF1300000000
(1424108268.848897) can0 475#BD13184945000000
(1424108268.849218) can0 270#CF1300000000
(1424108268.948840) can0 475#AD13184945000000
(1424108268.949328) can0 306#1000000000000000
(1424108268.949531) can0 294#00009CFFFA000000
(1424108268.949864) can0 270#CF1300000000
(1424108269.048803) can0 475#B713184945000000
(1424108269.049193) can0 270#CF1300000000
(1424108269.148804) can0 475#B513184945000000
(1424108269.149189) can0 270#CF1300000000
(1424108269.248782) can0 475#AF13184945000000
(1424108269.249171) can0 306#0F00000000000000
(1424108269.249512) can0 294#00009CFFFA000000
(1424108269.249705) can0 270#CF1300000000
(1424108269.348897) can0 475#B313184945000000
(1424108269.349117) can0 270#CF1300000000
(1424108269.448899) can0 475#B513184945000000
(1424108269.449100) can0 270#CF1300000000
(1424108269.548671) can0 475#B513184945000000
(1424108269.549051) can0 306#0F00000000000000
(1424108269.549247) can0 294#00009CFFFA000000
(1424108269.549435) can0 270#CF1300000000
(1424108269.648665) can0 475#AF13184945000000
(1424108269.649041) can0 270#CF1300000000
(1424108269.748826) can0 475#B713184945000000
(1424108269.749054) can0 270#CF1300000000
(1424108269.848999) can0 475#B113184945000000
(1424108269.849215) can0 306#0F00000000000000
(1424108269.849461) can0 294#00009CFFFA000000
(1424108269.849878) can0 270#CF1300000000
(1424108269.948611) can0 475#B113184945000000
(1424108269.948934) can0 270#CF1300000000
(1424108270.048749) can0 475#AB13184945000000
(1424108270.048985) can0 270#CF1300000000
(1424108270.148754) can0 475#B513184945000000
(1424108270.148963) can0 306#1000000000000000
(1424108270.149162) can0 294#00009CFFFA000000
(1424108270.149358) can0 270#CF1300000000
(1424108270.248719) can0 475#B113184945000000
(1424108270.249087) can0 270#CF1300000000
(1424108270.348987) can0 475#B113184945000000
(1424108270.349223) can0 270#CF1300000000
(1424108270.448908) can0 475#AD13184945000000
(1424108270.449142) can0 306#0F00000000000000
(1424108270.449332) can0 294#00009CFFFA000000
(1424108270.449502) can0 270#CF1300000000
(1424108270.548881) can0 475#B513184945000000
(1424108270.549102) can0 270#CF1300000000
(1424108270.649080) can0 475#A913184945000000
(1424108270.649425) can0 270#CF1300000000
(1424108270.748837) can0 475#B513184945000000
(1424108270.749086) can0 306#0D00000000000000
(1424108270.749441) can0 294#00009CFFFA000000
(1424108270.749653) can0 270#CF1300000000
(1424108270.848805) can0 475#AF13184945000000
(1424108270.849043) can0 270#CF1300000000
(1424108270.949192) can0 475#AD13184945000000
(1424108270.949627) can0 270#CF1300000000
(1424108271.049006) can0 475#AD13184945000000
(1424108271.049368) can0 306#0B00000000000000
(1424108271.049567) can0 294#00009CFFFA000000
(1424108271.049917) can0 270#CF1300000000
(1424108271.149170) can0 475#AF13184945000000
(1424108271.149508) can0 270#CF1300000000
(1424108271.249231) can0 475#B513184945000000
(1424108271.249566) can0 270#CF1300000000
(1424108271.349127) can0 475#B513184945000000
(1424108271.349360) can0 306#0A00000000000000
(1424108271.349552) can0 294#00009CFFFA000000
(1424108271.349740) can0 270#CF1300000000
(1424108271.449073) can0 475#B513184945000000
(1424108271.449325) can0 270#CF1300000000
(1424108271.549019) can0 475#A613184945000000
(1424108271.549373) can0 270#CF1300000000
(1424108271.648976) can0 475#B713184945000000
(1424108271.649246) can0 306#0A00000000000000
(1424108271.649655) can0 294#00009CFFFA000000
(1424108271.650291) can0 270#CF1300000000
(1424108271.748923) can0 475#B513184945000000
(1424108271.749152) can0 270#CF1300000000
(1424108271.849063) can0 475#B313184945000000
(1424108271.849279) can0 270#CF1300000000
(1424108271.949278) can0 475#AF13184945000000
(1424108271.949498) can0 306#0C00000000000000
(1424108271.949676) can0 294#00009CFFFA000000
(1424108271.950062) can0 270#CF1300000000
(1424108272.049039) can0 475#A913184945000000
(1424108272.049412) can0 270#CF1300000000
(1424108272.149227) can0 475#B113184945000000
(1424108272.149443) can0 270#CF1300000000
(1424108272.248936) can0 475#BB13184945000000
(1424108272.249301) can0 306#0D00000000000000
(1424108272.249498) can0 294#00009CFFFA000000
(1424108272.249920) can0 270#CF1300000000
(1424108272.348970) can0 475#AD13184945000000
(1424108272.349303) can0 270#CF1300000000
(1424108272.448906) can0 475#B513184945000000
(1424108272.449407) can0 270#CF1300000000
(1424108272.548907) can0 475#AF13184945000000
(1424108272.549293) can0 306#0F00000000000000
(1424108272.549489) can0 294#00009CFFFA000000
(1424108272.549871) can0 270#CF1300000000
(1424108272.648804) can0 475#A913184945000000
(1424108272.649169) can0 270#CF1300000000
(1424108272.748845) can0 475#B113184945000000
(1424108272.749339) can0 270#CF1300000000
(1424108272.849052) can0 475#B313184945000000
(1424108272.849256) can0 306#0F00000000000000
(1424108272.849607) can0 294#00009CFFFA000000
(1424108272.849811) can0 270#CF1300000000
(1424108272.948820) can0 475#B313184945000000
(1424108272.949140) can0 270#CF1300000000
(1424108273.048728) can0 475#B113184945000000
(1424108273.049098) can0 270#CF1300000000
(1424108273.148933) can0 475#B913184945000000
(1424108273.149169) can0 306#0F00000000000000
(1424108273.149361) can0 294#00009CFFFA000000
(1424108273.149544) can0 270#CF1300000000
(1424108273.248934) can0 475#AF13184945000000
(1424108273.249164) can0 270#CF1300000000
(1424108273.348945) can0 475#AF13184945000000
(1424108273.349321) can0 270#CF1300000000
(1424108273.449112) can0 475#B513184945000000
(1424108273.449329) can0 306#1000000000000000
(1424108273.449524) can0 294#00009CFFFA000000
(1424108273.449711) can0 270#CF1300000000
(1424108273.549082) can0 475#B513184945000000
(1424108273.549313) can0 270#CF1300000000
(1424108273.649091) can0 475#B313184945000000
(1424108273.649410) can0 270#CF1300000000
(1424108273.749039) can0 475#B113184945000000
(1424108273.749256) can0 306#0F00000000000000
(1424108273.749455) can0 294#00009CFFFA000000
(1424108273.749839) can0 270#CF1300000000
(1424108273.849022) can0 475#AF13184945000000
(1424108273.849246) can0 270#CF1300000000
(1424108273.948977) can0 475#BB13184945000000
(1424108273.949195) can0 270#CE1300000000
(1424108274.049004) can0 475#B313184945000000
(1424108274.049212) can0 306#0F00000000000000
(1424108274.049402) can0 294#00009CFFFA000000
(1424108274.049573) can0 270#CE1300000000
(1424108274.148944) can0 475#B913184945000000
(1424108274.149191) can0 270#CF1300000000
(1424108274.249131) can0 475#AF13184945000000
(1424108274.249363) can0 270#CF1300000000
(1424108274.349348) can0 475#AB13184945000000
(1424108274.349704) can0 306#0E00000000000000
(1424108274.350051) can0 270#CF1300000000
(1424108274.350188) can0 294#00009CFFFA000000
(1424108274.449116) can0 475#B113184945000000
(1424108274.449339) can0 270#CF1300000000
(1424108274.549280) can0 475#A913184945000000
(1424108274.549681) can0 270#CF1300000000
(1424108274.649060) can0 475#AF13184945000000
(1424108274.649405) can0 306#0E00000000000000
(1424108274.649598) can0 294#00009CFFFA000000
(1424108274.649929) can0 270#CF1300000000
(1424108274.749198) can0 475#AD13184945000000
(1424108274.749432) can0 270#CF1300000000
(1424108274.849198) can0 475#B513184945000000
(1424108274.849403) can0 270#CF1300000000
(1424108274.949176) can0 475#BB13184945000000
(1424108274.949414) can0 306#0F00000000000000
(1424108274.949595) can0 294#00009CFFFA000000
(1424108274.950026) can0 270#CF1300000000
(1424108275.049249) can0 475#BD13184945000000
(1424108275.049633) can0 270#CF1300000000
(1424108275.149212) can0 475#B913184945000000
(1424108275.149600) can0 270#CF1300000000
(1424108275.249374) can0 475#AD13184945000000
(1424108275.249589) can0 306#1000000000000000
(1424108275.249777) can0 294#00009CFFFA000000
(1424108275.249963) can0 270#CF1300000000
(1424108275.349166) can0 475#B513184945000000
(1424108275.349556) can0 270#CF1300000000
(1424108275.449141) can0 475#AF13184945000000
(1424108275.449509) can0 270#CF1300000000
(1424108275.549156) can0 475#B313184945000000
(1424108275.549526) can0 306#0F00000000000000
(1424108275.549711) can0 294#00009CFFFA000000
(1424108275.550087) can0 270#CF1300000000
(1424108275.649081) can0 475#A913184945000000
(1424108275.649465) can0 270#CF1300000000
(1424108275.749051) can0 475#A213184945000000
(1424108275.749432) can0 270#CF1300000000
(1424108275.849167) can0 475#AB13184945000000
(1424108275.849403) can0 306#0E00000000000000
(1424108275.849748) can0 294#00009CFFFA000000
(1424108275.849943) can0 270#CF1300000000
(1424108275.949227) can0 475#B713184945000000
(1424108275.949433) can0 270#CF1300000000
(1424108276.049191) can0 475#AB13184945000000
(1424108276.049610) can0 270#CF1300000000
(1424108276.149138) can0 475#AB13184945000000
(1424108276.149379) can0 306#0F00000000000000
(1424108276.149576) can0 294#00009CFFFA000000
(1424108276.149958) can0 270#CF1300000000
(1424108276.249131) can0 475#BF13184945000000
(1424108276.249345) can0 270#CF1300000000
(1424108276.349088) can0 475#AD13184945000000
(1424108276.349415) can0 270#CF1300000000
(1424108276.449131) can0 475#B113184945000000
(1424108276.449501) can0 306#0F00000000000000
(1424108276.449842) can0 294#00009CFFFA000000
(1424108276.450039) can0 270#CF1300000000
(1424108276.549274) can0 475#AD13184945000000
(1424108276.549512) can0 270#CF1300000000
(1424108276.649290) can0 475#AD13184945000000
(1424108276.649503) can0 270#CF1300000000
(1424108276.749230) can0 475#B513184945000000
(1424108276.749467) can0 306#1000000000000000
(1424108276.749707) can0 294#00009CFFFA000000
(1424108276.749889) can0 270#CF1300000000
(1424108276.849231) can0 475#AF13184945000000
(1424108276.849462) can0 270#CF1300000000
(1424108276.949184) can0 475#A913184945000000
(1424108276.949425) can0 270#CF1300000000
(1424108277.049142) can0 475#AF13184945000000
(1424108277.049379) can0 306#0F00000000000000
(1424108277.049622) can0 294#00009CFFFA000000
(1424108277.050012) can0 270#CF1300000000
(1424108277.149122) can0 475#AF13184945000000
(1424108277.149353) can0 270#CF1300000000
(1424108277.249398) can0 475#B113184945000000
(1424108277.249634) can0 270#CF1300000000
(1424108277.349522) can0 475#BD13184945000000
(1424108277.349751) can0 306#0F00000000000000
(1424108277.349933) can0 294#00009CFFFA000000
(1424108277.350171) can0 270#CF1300000000
(1424108277.449540) can0 475#AB13184945000000
(1424108277.449773) can0 270#CF1300000000
(1424108277.549511) can0 475#B713184945000000
(1424108277.549943) can0 270#CF1300000000
(1424108277.649488) can0 475#B113184945000000
(1424108277.649848) can0 306#1000000000000000
(1424108277.650042) can0 294#00009CFFFA000000
(1424108277.650387) can0 270#CF1300000000
(1424108277.749532) can0 475#B313184945000000
(1424108277.749763) can0 270#CF1300000000
(1424108277.849390) can0 475#B713184945000000
(1424108277.849900) can0 270#CF1300000000
(1424108277.949354) can0 475#B713184945000000
(1424108277.949785) can0 306#0F00000000000000
(1424108277.950140) can0 294#00009CFFFA000000
(1424108277.950322) can0 270#CF1300000000
(1424108278.049438) can0 475#B313184945000000
(1424108278.049793) can0 270#CF1300000000
(1424108278.149421) can0 475#B113184945000000
(1424108278.150149) can0 270#CF1300000000
(1424108278.249572) can0 475#AF13184945000000
(1424108278.249813) can0 306#0F00000000000000
(1424108278.250006) can0 294#00009CFFFA000000
(1424108278.250187) can0 270#CF1300000000
(1424108278.349379) can0 475#AD13184945000000
(1424108278.349717) can0 270#CF1300000000
(1424108278.449373) can0 475#AD13184945000000
(1424108278.449705) can0 270#CF1300000000
(1424108278.549464) can0 475#B113184945000000
(1424108278.549693) can0 306#0F00000000000000
(1424108278.549937) can0 294#00009CFFFA000000
(1424108278.550130) can0 270#CF1300000000
(1424108278.649326) can0 475#AD13184945000000
(1424108278.649643) can0 270#CF1300000000
(1424108278.749482) can0 475#B513184945000000
(1424108278.749717) can0 270#CF1300000000
(1424108278.849255) can0 475#A913184945000000
(1424108278.849660) can0 306#0F00000000000000
(1424108278.849855) can0 294#00009CFFFA000000
(1424108278.850037) can0 270#CF1300000000
(1424108278.949442) can0 475#AF13184945000000
(1424108278.949649) can0 270#CF1300000000
(1424108279.049389) can0 475#AD13184945000000
(1424108279.049594) can0 270#CF1300000000
(1424108279.149423) can0 475#A913184945000000
(1424108279.149642) can0 306#0F00000000000000
(1424108279.149843) can0 294#00009CFFFA000000
(1424108279.150039) can0 270#CF1300000000
(1424108279.249323) can0 475#AF13184945000000
(1424108279.249542) can0 270#CF1300000000
(1424108279.349168) can0 475#AB13184945000000
(1424108279.349511) can0 270#CF1300000000
(1424108279.449331) can0 475#AD13184945000000
(1424108279.449558) can0 306#0F00000000000000
(1424108279.449962) can0 294#00009CFFFA000000
(1424108279.450156) can0 270#CF1300000000
(1424108279.549501) can0 475#AD13184945000000
(1424108279.549708) can0 270#CF1300000000
(1424108279.649287) can0 475#AF13184945000000
(1424108279.649520) can0 270#CF1300000000
(1424108279.750148) can0 306#1000000000000000
(1424108279.849449) can0 475#AF13184945000000
(1424108279.850029) can0 270#CF1300000000
(1424108279.949465) can0 475#B913184945000000
(1424108279.950054) can0 270#CF1300000000
(1424108280.049464) can0 475#A813184945000000
(1424108280.050085) can0 306#1100000000000000
(1424108280.050385) can0 294#00009CFFFA000000
(1424108280.149465) can0 475#B313184945000000
(1424108280.149889) can0 270#CF1300000000
(1424108280.249321) can0 475#B313184945000000
(1424108280.249757) can0 270#CF1300000000
(1424108280.349768) can0 475#B113184945000000
(1424108280.350378) can0 306#1000000000000000
(1424108280.350752) can0 294#00009CFFFA000000
(1424108280.449346) can0 475#B313184945000000
(1424108280.450065) can0 270#CF1300000000
(1424108280.549624) can0 475#BB13184945000000
(1424108280.550058) can0 270#CF1300000000
(1424108280.649740) can0 475#B513184945000000
(1424108280.650377) can0 306#1000000000000000
(1424108280.651033) can0 294#00009CFFFA000000
(1424108280.749597) can0 475#AF13184945000000
(1424108280.749807) can0 270#CF1300000000
(1424108280.849640) can0 475#B913184945000000
(1424108280.850230) can0 270#CF1300000000
(1424108280.949604) can0 475#B313184945000000
(1424108280.950221) can0 306#1000000000000000
(1424108280.950743) can0 294#00009CFFFA000000
(1424108281.049557) can0 475#B713184945000000
(1424108281.050165) can0 270#CF1300000000
(1424108281.149625) can0 475#B313184945000000
(1424108281.150231) can0 270#CF1300000000
(1424108281.249586) can0 475#B313184945000000
(1424108281.250080) can0 306#0F00000000000000
(1424108281.250377) can0 270#CF1300000000
(1424108281.250635) can0 294#00009CFFFA000000
(1424108281.349803) can0 475#B313184945000000
(1424108281.350020) can0 270#CF1300000000
(1424108281.449568) can0 475#AB13184945000000
(1424108281.450053) can0 270#CF1300000000
(1424108281.549758) can0 475#AF13184945000000
(1424108281.550092) can0 306#0E00000000000000
(1424108281.550433) can0 294#00009CFFFA000000
(1424108281.550619) can0 270#CF1300000000
(1424108281.649643) can0 475#AD13184945000000
(1424108281.649869) can0 270#CF1300000000
(1424108281.749584) can0 475#B713184945000000
(1424108281.749913) can0 270#CF1300000000
(1424108281.849416) can0 475#B113184945000000
(1424108281.849799) can0 306#0D00000000000000
(1424108281.850192) can0 294#00009CFFFA000000
(1424108281.850388) can0 270#CF1300000000
(1424108281.949643) can0 475#B513184945000000
(1424108281.949860) can0 270#CF1300000000
(1424108282.049568) can0 475#B313184945000000
(1424108282.049786) can0 270#CF1300000000
(1424108282.149650) can0 475#BB13184945000000
(1424108282.149876) can0 306#0D00000000000000
(1424108282.150061) can0 294#00009CFFFA000000
(1424108282.150235) can0 270#CF1300000000
(1424108282.249374) can0 475#B513184945000000
(1424108282.249755) can0 270#CF1300000000
(1424108282.349615) can0 475#B713184945000000
(1424108282.349785) can0 270#CF1300000000
(1424108282.449310) can0 475#B713184945000000
(1424108282.449677) can0 306#0E00000000000000
(1424108282.449869) can0 294#00009CFFFA000000
(1424108282.450103) can0 270#CF1300000000
(1424108282.549406) can0 475#AF13184945000000
(1424108282.549701) can0 270#CF1300000000
(1424108282.649496) can0 475#A813184945000000
(1424108282.649708) can0 270#CF1300000000
(1424108282.749570) can0 475#B113184945000000
(1424108282.749797) can0 306#0D00000000000000
(1424108282.749969) can0 294#00009CFFFA000000
(1424108282.750163) can0 270#CF1300000000
(1424108282.849433) can0 475#B113184945000000
(1424108282.849807) can0 270#CF1300000000
(1424108282.949666) can0 475#B113184945000000
(1424108282.949898) can0 270#CF1300000000
(1424108283.049580) can0 475#AD13184945000000
(1424108283.049814) can0 306#0C00000000000000
(1424108283.050019) can0 294#00009CFFFA000000
(1424108283.050210) can0 270#CF1300000000
(1424108283.149547) can0 475#AF13184945000000
(1424108283.149825) can0 270#CF1300000000
(1424108283.249579) can0 475#AF13184945000000
(1424108283.249826) can0 270#CF1300000000
(1424108283.349616) can0 475#A813184945000000
(1424108283.349849) can0 306#0C00000000000000
(1424108283.350187) can0 294#00009CFFFA000000
(1424108283.350498) can0 270#CF1300000000
(1424108283.449589) can0 475#AD13184945000000
(1424108283.449794) can0 270#CF1300000000
(1424108283.549537) can0 475#B313184945000000
(1424108283.549904) can0 270#CF1300000000
(1424108283.649908) can0 475#AB13184945000000
(1424108283.650148) can0 306#0B00000000000000
(1424108283.650349) can0 294#00009CFFFA000000
(1424108283.650555) can0 270#CF1300000000
(1424108283.749798) can0 475#AF13184945000000
(1424108283.750025) can0 270#CF1300000000
(1424108283.849818) can0 475#AB13184945000000
(1424108283.850054) can0 270#CF1300000000
(1424108283.949633) can0 475#B113184945000000
(1424108283.950029) can0 306#0B00000000000000
(1424108283.950225) can0 294#00009CFFFA000000
(1424108283.950565) can0 270#CF1300000000
(1424108284.049798) can0 475#BD13184945000000
(1424108284.050015) can0 270#CF1300000000
(1424108284.149858) can0 475#A913184945000000
(1424108284.150084) can0 270#CF1300000000
(1424108284.249757) can0 475#BD13184945000000
(1424108284.250189) can0 306#0B00000000000000
(1424108284.250398) can0 270#CF1300000000
(1424108284.250687) can0 294#00009CFFFA000000
(1424108284.349988) can0 475#B313184945000000
(1424108284.350191) can0 270#CF1300000000
(1424108284.449793) can0 475#AD13184945000000
(1424108284.450172) can0 270#CF1300000000
(1424108284.549840) can0 475#B113184945000000
(1424108284.550176) can0 306#0B00000000000000
(1424108284.550344) can0 294#00009CFFFA000000
(1424108284.550538) can0 270#CF1300000000
(1424108284.649722) can0 475#AB13184945000000
(1424108284.650096) can0 270#CF1300000000
(1424108284.749716) can0 475#B313184945000000
(1424108284.749973) can0 270#CF1300000000
(1424108284.849869) can0 475#B313184945000000
(1424108284.850100) can0 306#0B00000000000000
(1424108284.850295) can0 294#00009CFFFA000000
(1424108284.850662) can0 270#CF1300000000
(1424108284.949665) can0 475#B313184945000000
(1424108284.950065) can0 270#CF1300000000
(1424108285.049786) can0 475#B513184945000000
(1424108285.050006) can0 270#CF1300000000
(1424108285.149607) can0 475#B313184945000000
(1424108285.149923) can0 306#0A00000000000000
(1424108285.150277) can0 294#00009CFFFA000000
(1424108285.150584) can0 270#CF1300000000
(1424108285.249706) can0 475#B113184945000000
(1424108285.249938) can0 270#CF1300000000
(1424108285.349815) can0 475#B513184945000000
(1424108285.350332) can0 270#CF1300000000
(1424108285.449712) can0 475#A913184945000000
(1424108285.449938) can0 306#0A00000000000000
(1424108285.450127) can0 294#00009CFFFA000000
(1424108285.450315) can0 270#CF1300000000
(1424108285.549684) can0 475#B113184945000000
(1424108285.549982) can0 270#CF1300000000
(1424108285.649655) can0 475#AB13184945000000
(1424108285.650279) can0 270#CF1300000000
(1424108285.749685) can0 475#AD13184945000000
(1424108285.750428) can0 306#0A00000000000000
(1424108285.750831) can0 294#00009CFFFA000000
(1424108285.841575) can0 475#B513184945000000
(1424108285.841780) can0 270#CF1300000000
(1424108285.941345) can0 475#BB13184945000000
(1424108285.941868) can0 270#CF1300000000
(1424108286.049795) can0 475#B713184945000000
(1424108286.050242) can0 306#0A00000000000000
(1424108286.050600) can0 270#CF1300000000
(1424108286.050737) can0 294#00009CFFFA000000
(1424108286.141569) can0 475#B513184945000000
(1424108286.141788) can0 270#CF1300000000
(1424108286.241533) can0 475#B513184945000000
(1424108286.241739) can0 270#CF1300000000
(1424108286.341523) can0 475#B713184945000000
(1424108286.342028) can0 306#0A00000000000000
(1424108286.342392) can0 294#00009CFFFA000000
(1424108286.441481) can0 475#B713184945000000
(1424108286.441701) can0 270#CF1300000000
(1424108286.541496) can0 475#B313184945000000
(1424108286.541838) can0 270#CF1300000000
(1424108286.641454) can0 475#B713184945000000
(1424108286.641950) can0 306#0B00000000000000
(1424108286.642271) can0 294#00009CFFFA000000
(1424108286.642730) can0 270#CF1300000000
(1424108286.741454) can0 475#B113184945000000
(1424108286.741823) can0 270#CF1300000000
(1424108286.850090) can0 475#B713184945000000
(1424108286.850313) can0 270#CF1300000000
(1424108286.950108) can0 475#B113184945000000
(1424108286.950347) can0 306#0C00000000000000
(1424108286.950538) can0 294#00009CFFFA000000
(1424108286.950921) can0 270#CF1300000000
(1424108287.041603) can0 475#AD13184945000000
(1424108287.041822) can0 270#CF1300000000
(1424108287.141581) can0 475#AD13184945000000
(1424108287.141815) can0 270#CF1300000000
(1424108287.241574) can0 475#B113184945000000
(1424108287.241803) can0 306#0C00000000000000
(1424108287.242036) can0 294#00009CFFFA000000
(1424108287.242286) can0 270#CF1300000000
(1424108287.341554) can0 475#B313184945000000
(1424108287.341782) can0 270#CF1300000000
(1424108287.441469) can0 475#B113184945000000
(1424108287.441703) can0 270#CF1300000000
(1424108287.541706) can0 475#AF13184945000000
(1424108287.542099) can0 306#0D00000000000000
(1424108287.542487) can0 270#CF1300000000
(1424108287.542627) can0 294#00009CFFFA000000
(1424108287.641882) can0 475#AD13184945000000
(1424108287.642111) can0 270#CF1300000000
(1424108287.741842) can0 475#AF13184945000000
(1424108287.742249) can0 270#CF1300000000
(1424108287.849864) can0 475#B113184945000000
(1424108287.850240) can0 306#0C00000000000000
(1424108287.850640) can0 294#00009CFFFA000000
(1424108287.850835) can0 270#CF1300000000
(1424108287.950003) can0 475#B313184945000000
(1424108287.950333) can0 270#CF1300000000
(1424108288.041586) can0 475#AF13184945000000
(1424108288.041812) can0 270#CF1300000000
(1424108288.141725) can0 475#B313184945000000
(1424108288.141967) can0 306#0D00000000000000
(1424108288.142169) can0 294#00009CFFFA000000
(1424108288.142397) can0 270#CF1300000000
(1424108288.249949) can0 475#B713184945000000
(1424108288.250196) can0 270#CF1300000000
(1424108288.341690) can0 475#BD13184945000000
(1424108288.341923) can0 270#CF1300000000
(1424108288.449780) can0 475#B513184945000000
(1424108288.450262) can0 306#0D00000000000000
(1424108288.450456) can0 294#00009CFFFA000000
(1424108288.450792) can0 270#CF1300000000
(1424108288.541633) can0 475#B513184945000000
(1424108288.541843) can0 270#CF1300000000
(1424108288.649895) can0 475#B313184945000000
(1424108288.650102) can0 270#CF1300000000
(1424108288.749926) can0 475#B913184945000000
(1424108288.750295) can0 306#0D00000000000000
(1424108288.750547) can0 294#00009CFFFA000000
(1424108288.750681) can0 270#CE1300000000
(1424108288.841484) can0 475#B113184945000000
(1424108288.841726) can0 270#CE1300000000
(1424108288.941632) can0 475#A613184945000000
(1424108288.942000) can0 270#CF1300000000
(1424108289.041588) can0 475#B513184945000000
(1424108289.041945) can0 306#0E00000000000000
(1424108289.042141) can0 294#00009CFFFA000000
(1424108289.042328) can0 270#CF1300000000
(1424108289.150036) can0 475#B713184945000000
(1424108289.150296) can0 270#CF1300000000
(1424108289.241817) can0 475#B113184945000000
(1424108289.242033) can0 270#CF1300000000
(1424108289.341762) can0 475#B913184945000000
(1424108289.341983) can0 306#0D00000000000000
(1424108289.342170) can0 294#00009CFFFA000000
(1424108289.342450) can0 270#CF1300000000
(1424108289.441682) can0 475#B113184945000000
(1424108289.441893) can0 270#CF1300000000
(1424108289.541635) can0 475#B513184945000000
(1424108289.541849) can0 270#CF1300000000
(1424108289.641639) can0 475#A813184945000000
(1424108289.641875) can0 306#0E00000000000000
(1424108289.642066) can0 294#00009CFFFA000000
(1424108289.642250) can0 270#CF1300000000
(1424108289.741831) can0 475#AD13184945000000
(1424108289.742066) can0 270#CF1300000000
(1424108289.841653) can0 475#AF13184945000000
(1424108289.841991) can0 270#CF1300000000
(1424108289.941864) can0 475#B113184945000000
(1424108289.942089) can0 306#0F00000000000000
(1424108289.942286) can0 294#00009CFFFA000000
(1424108289.942564) can0 270#CF1300000000
(1424108290.041816) can0 475#B113184945000000
(1424108290.042052) can0 270#CF1300000000
(1424108290.141794) can0 475#AF13184945000000
(1424108290.142008) can0 270#CF1300000000
(1424108290.241742) can0 475#B513184945000000
(1424108290.241982) can0 306#0E00000000000000
(1424108290.242175) can0 294#00009CFFFA000000
(1424108290.242359) can0 270#CF1300000000
(1424108290.350106) can0 475#B113184945000000
(1424108290.350354) can0 270#CF1300000000
(1424108290.450132) can0 475#AF13184945000000
(1424108290.450340) can0 270#CE1300000000
(1424108290.541686) can0 475#B713184945000000
(1424108290.541913) can0 306#0F00000000000000
(1424108290.542152) can0 294#00009CFFFA000000
(1424108290.542331) can0 270#CF1300000000
(1424108290.642048) can0 475#B713184945000000
(1424108290.642307) can0 270#CF1300000000
(1424108290.741881) can0 475#AF13184945000000
(1424108290.742101) can0 270#CF1300000000
(1424108290.840127) can0 475#A913184945000000
(1424108290.840513) can0 306#0F00000000000000
(1424108290.840705) can0 294#00009CFFFA000000
(1424108290.840899) can0 270#CF1300000000
(1424108290.940287) can0 475#B313184945000000
(1424108290.940508) can0 270#CF1300000000
(1424108291.041980) can0 475#B513184945000000
(1424108291.042213) can0 270#CF1300000000
(1424108291.141953) can0 475#B513184945000000
(1424108291.142192) can0 306#0E00000000000000
(1424108291.142379) can0 294#00009CFFFA000000
(1424108291.142604) can0 270#CF1300000000
(1424108291.242010) can0 475#B913184945000000
(1424108291.242252) can0 270#CF1300000000
(1424108291.341750) can0 475#B313184945000000
(1424108291.341972) can0 270#CF1300000000
(1424108291.441848) can0 475#B713184945000000
(1424108291.442086) can0 306#0E00000000000000
(1424108291.442270) can0 294#00009CFFFA000000
(1424108291.442500) can0 270#CF1300000000
(1424108291.541945) can0 475#AF13184945000000
(1424108291.542264) can0 270#CF1300000000
(1424108291.641801) can0 475#AB13184945000000
(1424108291.642033) can0 270#CF1300000000
(1424108291.739884) can0 475#AF13184945000000
(1424108291.740263) can0 306#0E00000000000000
(1424108291.740451) can0 294#00009CFFFA000000
(1424108291.740629) can0 270#CF1300000000
(1424108291.841784) can0 475#B713184945000000
(1424108291.842011) can0 270#CE1300000000
(1424108291.941707) can0 475#AF13184945000000
(1424108291.941942) can0 270#CE1300000000
(1424108292.041794) can0 475#B513184945000000
(1424108292.042152) can0 306#0E00000000000000
(1424108292.042358) can0 294#00009CFFFA000000
(1424108292.042549) can0 270#CF1300000000
(1424108292.141762) can0 475#B513184945000000
(1424108292.142163) can0 270#CE1300000000
(1424108292.241830) can0 475#AF13184945000000
(1424108292.242155) can0 270#CE1300000000
(1424108292.341986) can0 475#B313184945000000
(1424108292.342196) can0 306#0E00000000000000
(1424108292.342392) can0 294#00009CFFFA000000
(1424108292.342586) can0 270#CF1300000000
(1424108292.441918) can0 475#B913184945000000
(1424108292.442165) can0 270#CF1300000000
(1424108292.540139) can0 475#AF13184945000000
(1424108292.540357) can0 270#CF1300000000
(1424108292.641888) can0 475#B713184945000000
(1424108292.642111) can0 306#0E00000000000000
(1424108292.642295) can0 294#00009CFFFA000000
(1424108292.642489) can0 270#CE1300000000
(1424108292.741840) can0 475#B513184945000000
(1424108292.742090) can0 270#CF1300000000
(1424108292.841865) can0 475#B313184945000000
(1424108292.842196) can0 270#CF1300000000
(1424108292.941995) can0 475#B513184945000000
(1424108292.942230) can0 306#0E00000000000000
(1424108292.942433) can0 294#00009CFFFA000000
(1424108292.942645) can0 270#CE1300000000
(1424108293.042003) can0 475#AF13184945000000
(1424108293.042231) can0 270#CF1300000000
(1424108293.142030) can0 475#B313184945000000
(1424108293.142264) can0 270#CF1300000000
(1424108293.241954) can0 475#B513184945000000
(1424108293.242188) can0 306#0E00000000000000
(1424108293.242376) can0 294#00009CFFFA000000
(1424108293.242565) can0 270#CF1300000000
(1424108293.341933) can0 475#AF13184945000000
(1424108293.342175) can0 270#CF1300000000
(1424108293.441874) can0 475#B113184945000000
(1424108293.442102) can0 270#CF1300000000
(1424108293.540273) can0 475#B713184945000000
(1424108293.540513) can0 306#0D00000000000000
(1424108293.540745) can0 294#00009CFFFA000000
(1424108293.540931) can0 270#CF1300000000
(1424108293.640255) can0 475#B113184945000000
(1424108293.640493) can0 270#CF1300000000
(1424108293.740353) can0 475#B713184945000000
(1424108293.740567) can0 270#CF1300000000
(1424108293.842082) can0 475#AD13184945000000
(1424108293.842321) can0 306#0D00000000000000
(1424108293.842519) can0 294#00009CFFFA000000
(1424108293.842714) can0 270#CE1300000000
(1424108293.942016) can0 475#AF13184945000000
(1424108293.942253) can0 270#CF1300000000
(1424108294.042131) can0 475#A913184945000000
(1424108294.042369) can0 270#CF1300000000
(1424108294.141719) can0 475#B113184945000000
(1424108294.142099) can0 306#0C00000000000000
(1424108294.142337) can0 294#00009CFFFA000000
(1424108294.142533) can0 270#CE1300000000
(1424108294.241940) can0 475#B113184945000000
(1424108294.242179) can0 270#CF1300000000
(1424108294.341932) can0 475#B313184945000000
(1424108294.342153) can0 270#CF1300000000
(1424108294.440180) can0 475#B313184945000000
(1424108294.440547) can0 306#0C00000000000000
(1424108294.440743) can0 294#00009CFFFA000000
(1424108294.440941) can0 270#CF1300000000
(1424108294.540151) can0 475#B713184945000000
(1424108294.540495) can0 270#CF1300000000
(1424108294.642040) can0 475#B513184945000000
(1424108294.642249) can0 270#CF1300000000
(1424108294.740084) can0 475#AD13184945000000
(1424108294.740449) can0 306#0C00000000000000
(1424108294.740702) can0 294#00009CFFFA000000
(1424108294.740904) can0 270#CF1300000000
(1424108294.841773) can0 475#B113184945000000
(1424108294.842024) can0 270#CF1300000000
(1424108294.941912) can0 475#B313184945000000
(1424108294.942137) can0 270#CF1300000000
(1424108295.040027) can0 475#B313184945000000
(1424108295.040394) can0 306#0B00000000000000
(1424108295.040581) can0 294#00009CFFFA000000
(1424108295.040817) can0 270#CF1300000000
(1424108295.141852) can0 475#B313184945000000
(1424108295.142100) can0 270#CE1300000000
(1424108295.241976) can0 475#AF13184945000000
(1424108295.242343) can0 270#CE1300000000
(1424108295.340368) can0 475#B713184945000000
(1424108295.340608) can0 306#0A00000000000000
(1424108295.340796) can0 294#00009CFFFA000000
(1424108295.340987) can0 270#CF1300000000
(1424108295.442118) can0 475#B513184945000000
(1424108295.442332) can0 270#CE1300000000
(1424108295.542085) can0 475#B513184945000000
(1424108295.542305) can0 270#CE1300000000
(1424108295.642128) can0 475#AD13184945000000
(1424108295.642346) can0 306#0A00000000000000
(1424108295.642527) can0 294#00009CFFFA000000
(1424108295.642718) can0 270#CE1300000000
(1424108295.742075) can0 475#B113184945000000
(1424108295.742305) can0 270#CE1300000000
(1424108295.841979) can0 475#B313184945000000
(1424108295.842215) can0 270#CE1300000000
(1424108295.942013) can0 475#A413184945000000
(1424108295.942247) can0 306#0A00000000000000
(1424108295.942446) can0 294#00009CFFFA000000
(1424108295.942633) can0 270#CF1300000000
(1424108296.040299) can0 475#AD13184945000000
(1424108296.040543) can0 270#CE1300000000
(1424108296.142164) can0 475#B513184945000000
(1424108296.142400) can0 270#CE1300000000
(1424108296.242141) can0 475#BB13184945000000
(1424108296.242379) can0 306#0C00000000000000
(1424108296.242560) can0 294#00009CFFFA000000
(1424108296.242748) can0 270#CF1300000000
(1424108296.342114) can0 475#B113184945000000
(1424108296.342360) can0 270#CF1300000000
(1424108296.442025) can0 475#B713184945000000
(1424108296.442246) can0 270#CF1300000000
(1424108296.540340) can0 475#BB13184945000000
(1424108296.540572) can0 306#0D00000000000000
(1424108296.540743) can0 294#00009CFFFA000000
(1424108296.540983) can0 270#CF1300000000
(1424108296.642039) can0 475#AB13184945000000
(1424108296.642275) can0 270#CE1300000000
(1424108296.740490) can0 475#A813184945000000
(1424108296.740724) can0 270#CE1300000000
(1424108296.842033) can0 475#AD13184945000000
(1424108296.842258) can0 306#0D00000000000000
(1424108296.842446) can0 294#00009CFFFA000000
(1424108296.842634) can0 270#CF1300000000
(1424108296.942440) can0 475#AD13184945000000
(1424108296.942659) can0 270#CE1300000000
(1424108297.042159) can0 475#B513184945000000
(1424108297.042387) can0 270#CE1300000000
(1424108297.142179) can0 475#AD13184945000000
(1424108297.142420) can0 306#0D00000000000000
(1424108297.142615) can0 294#00009CFFFA000000
(1424108297.142805) can0 270#CE1300000000
(1424108297.241968) can0 475#AF13184945000000
(1424108297.242204) can0 270#CE1300000000
(1424108297.340421) can0 475#A913184945000000
(1424108297.340796) can0 270#CE1300000000
(1424108297.441899) can0 475#B513184945000000
(1424108297.442169) can0 306#0C00000000000000
(1424108297.442424) can0 294#00009CFFFA000000
(1424108297.442616) can0 270#CE1300000000
(1424108297.542283) can0 475#B313184945000000
(1424108297.542524) can0 270#CF1300000000
(1424108297.642077) can0 475#A813184945000000
(1424108297.642291) can0 270#CF1300000000
(1424108297.740326) can0 475#B513184945000000
(1424108297.740695) can0 306#0C00000000000000
(1424108297.740900) can0 294#00009CFFFA000000
(1424108297.741094) can0 270#CF1300000000
(1424108297.842206) can0 475#B113184945000000
(1424108297.842448) can0 270#CE1300000000
(1424108297.942174) can0 475#B513184945000000
(1424108297.942395) can0 270#CE1300000000
(1424108298.041943) can0 475#B513184945000000
(1424108298.042177) can0 306#0D00000000000000
(1424108298.042412) can0 294#00009CFFFA000000
(1424108298.042597) can0 270#CE1300000000
(1424108298.142142) can0 475#B913184945000000
(1424108298.142374) can0 270#CE1300000000
(1424108298.242017) can0 475#B513184945000000
(1424108298.242250) can0 270#CE1300000000
(1424108298.342153) can0 475#B913184945000000
(1424108298.342517) can0 306#0D00000000000000
(1424108298.342735) can0 294#00009CFFFA000000
(1424108298.342999) can0 270#CF1300000000
(1424108298.442135) can0 475#B313184945000000
(1424108298.442362) can0 270#CF1300000000
(1424108298.542381) can0 475#B313184945000000
(1424108298.542604) can0 270#CF1300000000
(1424108298.640568) can0 475#A913184945000000
(1424108298.640786) can0 306#0C00000000000000
(1424108298.640990) can0 294#00009CFFFA000000
(1424108298.641175) can0 270#CF1300000000
(1424108298.740522) can0 475#B513184945000000
(1424108298.740739) can0 270#CE1300000000
(1424108298.842212) can0 475#B713184945000000
(1424108298.842440) can0 270#CE1300000000
(1424108298.942233) can0 475#B713184945000000
(1424108298.942433) can0 306#0D00000000000000
(1424108298.942631) can0 294#00009CFFFA000000
(1424108298.942815) can0 270#CE1300000000
(1424108299.042170) can0 475#AF13184945000000
(1424108299.042400) can0 270#CE1300000000
(1424108299.142365) can0 475#B313184945000000
(1424108299.142587) can0 270#CE1300000000
(1424108299.240408) can0 475#B713184945000000
(1424108299.240777) can0 306#0D00000000000000
(1424108299.240977) can0 294#00009CFFFA000000
(1424108299.241154) can0 270#CF1300000000
(1424108299.342393) can0 475#B913184945000000
(1424108299.342620) can0 270#CF1300000000
(1424108299.442363) can0 475#B313184945000000
(1424108299.442591) can0 270#CF1300000000
(1424108299.542322) can0 475#AB13184945000000
(1424108299.542525) can0 306#0D00000000000000
(1424108299.542712) can0 294#00009CFFFA000000
(1424108299.542887) can0 270#CE1300000000
(1424108299.642255) can0 475#B713184945000000
(1424108299.642472) can0 270#CE1300000000
(1424108299.740667) can0 475#B113184945000000
(1424108299.740908) can0 270#CE1300000000
(1424108299.842199) can0 475#B313184945000000
(1424108299.842428) can0 306#0E00000000000000
(1424108299.842657) can0 294#00009CFFFA000000
(1424108299.842851) can0 270#CF1300000000
(1424108299.942252) can0 475#A913184945000000
(1424108299.942485) can0 270#CF1300000000
(1424108300.040909) can0 475#AF13184945000000
(1424108300.041128) can0 270#CF1300000000
(1424108300.140701) can0 475#B113184945000000
(1424108300.141065) can0 306#0E00000000000000
(1424108300.141260) can0 294#00009CFFFA000000
(1424108300.141444) can0 270#CE1300000000
(1424108300.242403) can0 475#BD13184945000000
(1424108300.242638) can0 270#CF1300000000
(1424108300.340856) can0 475#B513184945000000
(1424108300.341078) can0 270#CF1300000000
(1424108300.442501) can0 475#AD13184945000000
(1424108300.442736) can0 306#0D00000000000000
(1424108300.442922) can0 294#00009CFFFA000000
(1424108300.443177) can0 270#CF1300000000
(1424108300.542466) can0 475#BB13184945000000
(1424108300.542702) can0 270#CF1300000000
(1424108300.642535) can0 475#B113184945000000
(1424108300.642752) can0 270#CF1300000000
(1424108300.740490) can0 475#B313184945000000
(1424108300.740856) can0 306#0C00000000000000
(1424108300.741094) can0 294#00009CFFFA000000
(1424108300.741277) can0 270#CF1300000000
(1424108300.842219) can0 475#B513184945000000
(1424108300.842460) can0 270#CF1300000000
(1424108300.942216) can0 475#AF13184945000000
(1424108300.942439) can0 270#CF1300000000
(1424108301.042333) can0 475#AB13184945000000
(1424108301.042566) can0 306#0B00000000000000
(1424108301.042815) can0 294#00009CFFFA000000
(1424108301.043132) can0 270#CF1300000000
(1424108301.140416) can0 475#AB13184945000000
(1424108301.140785) can0 270#CF1300000000
(1424108301.240443) can0 475#AB13184945000000
(1424108301.240766) can0 270#CE1300000000
(1424108301.342136) can0 475#B913184945000000
(1424108301.342368) can0 306#0C00000000000000
(1424108301.342564) can0 294#00009CFFFA000000
(1424108301.342751) can0 270#CE1300000000
(1424108301.442321) can0 475#B113184945000000
(1424108301.442696) can0 270#CF1300000000
(1424108301.540584) can0 475#AF13184945000000
(1424108301.540816) can0 270#CF1300000000
(1424108301.640785) can0 475#B513184945000000
(1424108301.641014) can0 306#0D00000000000000
(1424108301.641207) can0 294#00009CFFFA000000
(1424108301.641387) can0 270#CF1300000000
(1424108301.742489) can0 475#B913184945000000
(1424108301.742714) can0 270#CF1300000000
(1424108301.840735) can0 475#B513184945000000
(1424108301.840957) can0 270#CF1300000000
(1424108301.942483) can0 475#B713184945000000
(1424108301.942694) can0 306#0E00000000000000
(1424108301.942877) can0 294#00009CFFFA000000
(1424108301.943122) can0 270#CF1300000000
(1424108302.042210) can0 475#A613184945000000
(1424108302.042587) can0 270#CF1300000000
(1424108302.142410) can0 475#B513184945000000
(1424108302.142626) can0 270#CF1300000000
(1424108302.242377) can0 475#B513184945000000
(1424108302.242605) can0 306#0D00000000000000
(1424108302.242842) can0 294#00009CFFFA000000
(1424108302.243159) can0 270#CF1300000000
(1424108302.342544) can0 475#B913184945000000
(1424108302.342769) can0 270#CE1300000000
(1424108302.440954) can0 475#B913184945000000
(1424108302.441191) can0 270#CF1300000000
(1424108302.542535) can0 475#AD13184945000000
(1424108302.542766) can0 306#0D00000000000000
(1424108302.543032) can0 294#00009CFFFA000000
(1424108302.543220) can0 270#CF1300000000
(1424108302.642503) can0 475#A913184945000000
(1424108302.642725) can0 270#CE1300000000
(1424108302.742487) can0 475#AB13184945000000
(1424108302.742699) can0 270#CF1300000000
(1424108302.842407) can0 475#B513184945000000
(1424108302.842648) can0 306#0E00000000000000
(1424108302.842881) can0 294#00009CFFFA000000
(1424108302.843212) can0 270#CF1300000000
(1424108302.942458) can0 475#B113184945000000
(1424108302.942680) can0 270#CE1300000000
(1424108303.040791) can0 475#B113184945000000
(1424108303.041029) can0 270#CE1300000000
