(1426617150.568886) can0 475#A8131A4945000000
(1426617150.569213) can0 306#1000000000000000
(1426617150.569431) can0 294#00009CFFFA000000
(1426617150.569680) can0 270#C013000000000000
(1426617150.582397) can0 477#0700717B9A001400
(1426617150.669033) can0 475#A4131A4945000000
(1426617150.669201) can0 306#0F00000000000000
(1426617150.669432) can0 294#00009CFFFA000000
(1426617150.669637) can0 270#C013000000000000
(1426617150.679315) can0 477#0700717B9A001400
(1426617150.768795) can0 475#9E131A4945000000
(1426617150.769330) can0 306#0F00000000000000
(1426617150.769591) can0 294#00009CFFFA000000
(1426617150.769838) can0 270#C013000000000000
(1426617150.776390) can0 477#0700717B9A001400
(1426617150.868949) can0 475#AB131A4945000000
(1426617150.869248) can0 306#0F00000000000000
(1426617150.869413) can0 294#00009CFFFA000000
(1426617150.869733) can0 270#C013000000000000
(1426617150.873268) can0 477#0700707B9A001400
(1426617150.968966) can0 475#A8131A4945000000
(1426617150.969247) can0 306#0F00000000000000
(1426617150.969493) can0 294#00009CFFFA000000
(1426617150.969729) can0 270#C013000000000000
(1426617150.970140) can0 477#0700717B9A001400
(1426617151.067380) can0 477#0700727B9A001400
(1426617151.069162) can0 475#A6131A4945000000
(1426617151.069488) can0 306#0F00000000000000
(1426617151.069776) can0 294#00009CFFFA000000
(1426617151.070027) can0 270#C013000000000000
(1426617151.164140) can0 477#0700717B9A001400
(1426617151.168857) can0 475#9E131A4945000000
(1426617151.169278) can0 306#1000000000000000
(1426617151.169557) can0 294#00009CFFFA000000
(1426617151.169845) can0 270#C013000000000000
(1426617151.261150) can0 477#0700717B9A001400
(1426617151.269080) can0 475#9E131A4945000000
(1426617151.269383) can0 306#1000000000000000
(1426617151.269633) can0 294#00009CFFFA000000
(1426617151.269886) can0 270#C013000000000000
(1426617151.358076) can0 477#0700717B9A001400
(1426617151.369088) can0 475#A0131A4945000000
(1426617151.369367) can0 306#1000000000000000
(1426617151.369767) can0 294#00009CFFFA000000
(1426617151.370032) can0 270#C013000000000000
(1426617151.455112) can0 477#0700727B9A001400
(1426617151.468999) can0 475#A9131A4945000000
(1426617151.469299) can0 306#1000000000000000
(1426617151.469552) can0 294#00009CFFFA000000
(1426617151.469795) can0 270#C013000000000000
(1426617151.552041) can0 477#0700727B9A001400
(1426617151.568975) can0 475#A2131A4945000000
(1426617151.569266) can0 306#1000000000000000
(1426617151.569514) can0 294#00009CFFFA000000
(1426617151.569758) can0 270#C013000000000000
(1426617151.650227) can0 477#0700707B9A001400
(1426617151.668967) can0 475#A8131A4945000000
(1426617151.669276) can0 306#1000000000000000
(1426617151.669549) can0 294#00009CFFFA000000
(1426617151.669824) can0 270#C013000000000000
(1426617151.745995) can0 477#0700717B9A001400
(1426617151.768912) can0 475#A9131A4945000000
(1426617151.769199) can0 306#1100000000000000
(1426617151.769450) can0 294#00009CFFFA000000
(1426617151.769742) can0 270#C013000000000000
(1426617151.843627) can0 477#0600707B9A001400
(1426617151.868965) can0 475#AD131A4945000000
(1426617151.869266) can0 306#1100000000000000
(1426617151.869518) can0 294#00009CFFFA000000
(1426617151.869762) can0 270#C013000000000000
(1426617151.939911) can0 477#0600707B9A001400
(1426617151.969332) can0 475#98131A4945000000
(1426617151.969625) can0 306#1100000000000000
(1426617151.969877) can0 294#00009CFFFA000000
(1426617151.970122) can0 270#C013000000000000
(1426617152.036905) can0 477#0700717B9A001400
(1426617152.069092) can0 475#A0131A4945000000
(1426617152.069421) can0 306#1100000000000000
(1426617152.069671) can0 294#00009CFFFA000000
(1426617152.069917) can0 270#C013000000000000
(1426617152.134425) can0 477#0700717B9A001400
(1426617152.169039) can0 475#A2131A4945000000
(1426617152.169342) can0 306#1100000000000000
(1426617152.169603) can0 294#00009CFFFA000000
(1426617152.169874) can0 270#C013000000000000
(1426617152.231260) can0 477#0700727B9A001400
(1426617152.269243) can0 475#A4131A4945000000
(1426617152.269539) can0 306#1200000000000000
(1426617152.269785) can0 294#00009CFFFA000000
(1426617152.270029) can0 270#C013000000000000
(1426617152.327766) can0 477#0700717B9A001400
(1426617152.368994) can0 475#9E131A4945000000
(1426617152.369304) can0 306#1100000000000000
(1426617152.369555) can0 294#00009CFFFA000000
(1426617152.369798) can0 270#C013000000000000
(1426617152.424972) can0 477#0600717B9A001400
(1426617152.468962) can0 475#A2131A4945000000
(1426617152.469291) can0 306#1100000000000000
(1426617152.469542) can0 294#00009CFFFA000000
(1426617152.469787) can0 270#C013000000000000
(1426617152.522980) can0 477#0700727B9A001400
(1426617152.569165) can0 475#A6131A4945000000
(1426617152.569480) can0 306#1000000000000000
(1426617152.569741) can0 294#00009CFFFA000000
(1426617152.569988) can0 270#C013000000000000
(1426617152.618672) can0 477#0700717B9A001400
(1426617152.669147) can0 475#A6131A4945000000
(1426617152.669444) can0 306#1000000000000000
(1426617152.669690) can0 294#00009CFFFA000000
(1426617152.669939) can0 270#C013000000000000
(1426617152.715677) can0 477#0700717B9A001400
(1426617152.769157) can0 475#A6131A4945000000
(1426617152.769430) can0 306#1000000000000000
(1426617152.769801) can0 294#00009CFFFA000000
(1426617152.770073) can0 270#C013000000000000
(1426617152.812641) can0 477#0700717B9A001400
(1426617152.869323) can0 475#A2131A4945000000
(1426617152.869621) can0 306#1000000000000000
(1426617152.869913) can0 294#00009CFFFA000000
(1426617152.870166) can0 270#C013000000000000
(1426617152.909577) can0 477#0700717B9A001400
(1426617152.969263) can0 475#A8131A4945000000
(1426617152.969572) can0 306#0F00000000000000
(1426617152.969816) can0 294#00009CFFFA000000
(1426617152.970060) can0 270#C013000000000000
(1426617153.006734) can0 477#0700717B9A001400
(1426617153.069223) can0 475#A6131A4945000000
(1426617153.069532) can0 306#0F00000000000000
(1426617153.069782) can0 294#00009CFFFA000000
(1426617153.070031) can0 270#C013000000000000
(1426617153.103643) can0 477#0600717B9A001400
(1426617153.169211) can0 475#A0131A4945000000
(1426617153.169510) can0 306#0F00000000000000
(1426617153.169761) can0 294#00009CFFFA000000
(1426617153.170014) can0 270#C013000000000000
(1426617153.200630) can0 477#0700717B9A001400
(1426617153.269044) can0 475#9E131A4945000000
(1426617153.269435) can0 306#0F00000000000000
(1426617153.269701) can0 294#00009CFFFA000000
(1426617153.269947) can0 270#C013000000000000
(1426617153.297487) can0 477#0700717B9A001400
(1426617153.368961) can0 475#A2131A4945000000
(1426617153.369395) can0 306#0E00000000000000
(1426617153.369641) can0 294#00009CFFFA000000
(1426617153.369894) can0 270#C013000000000000
(1426617153.394440) can0 477#0700717B9A001400
(1426617153.468887) can0 475#A8131A4945000000
(1426617153.469341) can0 306#0F00000000000000
(1426617153.469612) can0 294#00009CFFFA000000
(1426617153.469869) can0 270#C013000000000000
(1426617153.491434) can0 477#0700717B9A001400
(1426617153.569158) can0 475#A0131A4945000000
(1426617153.569420) can0 306#0F00000000000000
(1426617153.569670) can0 294#00009CFFFA000000
(1426617153.569914) can0 270#C013000000000000
(1426617153.588392) can0 477#0700717B9A001400
(1426617153.668906) can0 475#A2131A4945000000
(1426617153.669190) can0 306#0F00000000000000
(1426617153.669538) can0 294#00009CFFFA000000
(1426617153.669836) can0 270#C013000000000000
(1426617153.685349) can0 477#0700727B9A001400
(1426617153.769015) can0 475#A2131A4945000000
(1426617153.769319) can0 306#0F00000000000000
(1426617153.769566) can0 294#00009CFFFA000000
(1426617153.769807) can0 270#C013000000000000
(1426617153.782292) can0 477#0700717B9A001400
(1426617153.868842) can0 475#9A131A4945000000
(1426617153.869123) can0 306#0F00000000000000
(1426617153.869505) can0 294#00009CFFFA000000
(1426617153.869768) can0 270#C013000000000000
(1426617153.879277) can0 477#0700707B9A001400
(1426617153.969057) can0 475#AB131A4945000000
(1426617153.969337) can0 306#1000000000000000
(1426617153.969580) can0 294#00009CFFFA000000
(1426617153.969821) can0 270#C013000000000000
(1426617153.976244) can0 477#0700717B9A001400
(1426617154.068777) can0 475#A6131A4945000000
(1426617154.069077) can0 306#1000000000000000
(1426617154.069462) can0 294#00009CFFFA000000
(1426617154.070093) can0 270#C013000000000000
(1426617154.073231) can0 477#0700707B9A001400
(1426617154.169091) can0 475#AF131A4945000000
(1426617154.169396) can0 306#0F00000000000000
(1426617154.169651) can0 294#00009CFFFA000000
(1426617154.169850) can0 270#C013000000000000
(1426617154.170307) can0 477#0700707B9A001400
(1426617154.267194) can0 477#0700727B9A001400
(1426617154.269081) can0 475#A9131A4945000000
(1426617154.269392) can0 306#1000000000000000
(1426617154.269663) can0 294#00009CFFFA000000
(1426617154.269920) can0 270#C013000000000000
(1426617154.364102) can0 477#0700707B9A001400
(1426617154.369167) can0 475#A6131A4945000000
(1426617154.369449) can0 306#1000000000000000
(1426617154.369693) can0 294#00009CFFFA000000
(1426617154.369935) can0 270#C013000000000000
(1426617154.461102) can0 477#0700717B9A001400
(1426617154.469098) can0 475#A6131A4945000000
(1426617154.469399) can0 306#1000000000000000
(1426617154.469654) can0 294#00009CFFFA000000
(1426617154.469901) can0 270#C013000000000000
(1426617154.558114) can0 477#0700717B9A001400
(1426617154.569059) can0 475#A6131A4945000000
(1426617154.569370) can0 306#1100000000000000
(1426617154.569624) can0 294#00009CFFFA000000
(1426617154.569874) can0 270#C013000000000000
(1426617154.655055) can0 477#0700717B9A001400
(1426617154.669054) can0 475#98131A4945000000
(1426617154.669339) can0 306#1100000000000000
(1426617154.669640) can0 294#00009CFFFA000000
(1426617154.669892) can0 270#C013000000000000
(1426617154.752024) can0 477#0700717B9A001400
(1426617154.769024) can0 475#AB131A4945000000
(1426617154.769310) can0 306#1100000000000000
(1426617154.769591) can0 294#00009CFFFA000000
(1426617154.769839) can0 270#C013000000000000
(1426617154.848994) can0 477#0700717B9A001400
(1426617154.868994) can0 475#A8131A4945000000
(1426617154.869293) can0 306#1100000000000000
(1426617154.869537) can0 294#00009CFFFA000000
(1426617154.869778) can0 270#C013000000000000
(1426617154.947349) can0 477#0700717B9A001400
(1426617154.969201) can0 475#A4131A4945000000
(1426617154.969489) can0 306#1100000000000000
(1426617154.969757) can0 294#00009CFFFA000000
(1426617154.970001) can0 270#C013000000000000
(1426617155.042913) can0 477#0700717B9A001400
(1426617155.069325) can0 475#9E131A4945000000
(1426617155.069655) can0 306#1100000000000000
(1426617155.069901) can0 294#00009CFFFA000000
(1426617155.070155) can0 270#C013000000000000
(1426617155.139898) can0 477#0700717B9A001400
(1426617155.169255) can0 475#9E131A4945000000
(1426617155.169590) can0 306#1000000000000000
(1426617155.169875) can0 294#00009CFFFA000000
(1426617155.170120) can0 270#C013000000000000
(1426617155.237111) can0 477#0700727B9A001400
(1426617155.269349) can0 475#A4131A4945000000
(1426617155.269656) can0 306#1000000000000000
(1426617155.269905) can0 294#00009CFFFA000000
(1426617155.270153) can0 270#C013000000000000
(1426617155.333815) can0 477#0700717B9A001400
(1426617155.369290) can0 475#A4131A4945000000
(1426617155.369582) can0 306#0F00000000000000
(1426617155.369832) can0 294#00009CFFFA000000
(1426617155.370071) can0 270#C013000000000000
(1426617155.430819) can0 477#0700707B9A001400
(1426617155.469260) can0 475#A2131A4945000000
(1426617155.469554) can0 306#0F00000000000000
(1426617155.469800) can0 294#00009CFFFA000000
(1426617155.470044) can0 270#C013000000000000
(1426617155.527739) can0 477#0700727B9A001400
(1426617155.569210) can0 475#A4131A4945000000
(1426617155.569526) can0 306#1000000000000000
(1426617155.569774) can0 294#00009CFFFA000000
(1426617155.570019) can0 270#C013000000000000
(1426617155.625541) can0 477#0700717B9A001400
(1426617155.669194) can0 475#A8131A4945000000
(1426617155.669525) can0 306#1000000000000000
(1426617155.669786) can0 294#00009CFFFA000000
(1426617155.670034) can0 270#C013000000000000
(1426617155.721677) can0 477#0700707B9A001400
(1426617155.769093) can0 475#A8131A4945000000
(1426617155.769417) can0 306#1000000000000000
(1426617155.769679) can0 294#00009CFFFA000000
(1426617155.769944) can0 270#C013000000000000
(1426617155.818647) can0 477#0700727B9A001400
(1426617155.869219) can0 475#A9131A4945000000
(1426617155.869899) can0 306#1000000000000000
(1426617155.870291) can0 270#C013000000000000
(1426617155.915622) can0 477#0700717B9A001400
(1426617155.969394) can0 475#A2131A4945000000
(1426617155.969675) can0 306#0F00000000000000
(1426617155.969920) can0 294#00009CFFFA000000
(1426617155.970161) can0 270#C013000000000000
(1426617156.012609) can0 477#0700707B9A001400
(1426617156.069380) can0 475#A0131A4945000000
(1426617156.069678) can0 306#0F00000000000000
(1426617156.069926) can0 294#00009CFFFA000000
(1426617156.070170) can0 270#C013000000000000
(1426617156.109585) can0 477#0700717B9A001400
(1426617156.169310) can0 475#A6131A4945000000
(1426617156.169618) can0 306#0F00000000000000
(1426617156.169865) can0 294#00009CFFFA000000
(1426617156.170105) can0 270#C013000000000000
(1426617156.206537) can0 477#0700707B9A001400
(1426617156.269301) can0 475#A2131A4945000000
(1426617156.269583) can0 306#0F00000000000000
(1426617156.269831) can0 294#00009CFFFA000000
(1426617156.270073) can0 270#C013000000000000
(1426617156.303498) can0 477#0700717B9A001400
(1426617156.369080) can0 475#9C131A4945000000
(1426617156.369505) can0 306#0F00000000000000
(1426617156.369764) can0 294#00009CFFFA000000
(1426617156.370013) can0 270#C013000000000000
(1426617156.400464) can0 477#0700707B9A001400
(1426617156.469033) can0 475#A2131A4945000000
(1426617156.469444) can0 306#1000000000000000
(1426617156.469720) can0 294#00009CFFFA000000
(1426617156.469977) can0 270#C013000000000000
(1426617156.497433) can0 477#0700717B9A001400
(1426617156.569189) can0 475#A4131A4945000000
(1426617156.569460) can0 306#1000000000000000
(1426617156.569709) can0 294#00009CFFFA000000
(1426617156.569955) can0 270#C013000000000000
(1426617156.594414) can0 477#0700717B9A001400
(1426617156.668980) can0 475#AB131A4945000000
(1426617156.669369) can0 306#1000000000000000
(1426617156.669637) can0 294#00009CFFFA000000
(1426617156.669886) can0 270#C013000000000000
(1426617156.691346) can0 477#0700717B9A001400
(1426617156.769189) can0 475#9C131A4945000000
(1426617156.769477) can0 306#1000000000000000
(1426617156.769725) can0 294#00009CFFFA000000
(1426617156.769968) can0 270#C013000000000000
(1426617156.788355) can0 477#0700717B9A001400
(1426617156.868919) can0 475#A6131A4945000000
(1426617156.869201) can0 306#1000000000000000
(1426617156.869599) can0 294#00009CFFFA000000
(1426617156.869850) can0 270#C013000000000000
(1426617156.885490) can0 477#0700717B9A001400
(1426617156.968948) can0 475#A2131A4945000000
(1426617156.969358) can0 306#1100000000000000
(1426617156.969609) can0 294#00009CFFFA000000
(1426617156.969855) can0 270#C013000000000000
(1426617156.982311) can0 477#0700707B9A001400
(1426617157.069089) can0 475#A6131A4945000000
(1426617157.069385) can0 306#1100000000000000
(1426617157.069636) can0 294#00009CFFFA000000
(1426617157.070001) can0 270#C013000000000000
(1426617157.079251) can0 477#0700717B9A001400
(1426617157.168956) can0 475#A4131A4945000000
(1426617157.169345) can0 306#1200000000000000
(1426617157.169586) can0 294#00009CFFFA000000
(1426617157.169840) can0 270#C013000000000000
(1426617157.176223) can0 477#0700717B9A001400
(1426617157.269045) can0 475#A8131A4945000000
(1426617157.269355) can0 306#1200000000000000
(1426617157.269601) can0 294#00009CFFFA000000
(1426617157.269879) can0 270#C013000000000000
(1426617157.273181) can0 477#0700717B9A001400
(1426617157.369213) can0 475#96131A4945000000
(1426617157.369488) can0 306#1100000000000000
(1426617157.369733) can0 294#00009CFFFA000000
(1426617157.369980) can0 270#C013000000000000
(1426617157.370410) can0 477#0700717B9A001400
(1426617157.467206) can0 477#0700717B9A001400
(1426617157.469185) can0 475#A8131A4945000000
(1426617157.469458) can0 306#1100000000000000
(1426617157.469701) can0 294#00009CFFFA000000
(1426617157.469949) can0 270#C013000000000000
(1426617157.564110) can0 477#0700717B9A001400
(1426617157.569267) can0 475#A0131A4945000000
(1426617157.569542) can0 306#1100000000000000
(1426617157.569793) can0 294#00009CFFFA000000
(1426617157.570040) can0 270#BF13000000000000
(1426617157.661078) can0 477#0700707B9A001400
(1426617157.669087) can0 475#A8131A4945000000
(1426617157.669392) can0 306#1100000000000000
(1426617157.669665) can0 294#00009CFFFA000000
(1426617157.669924) can0 270#C013000000000000
(1426617157.758082) can0 477#0700717B9A001400
(1426617157.769212) can0 475#92131A4945000000
(1426617157.769484) can0 306#1200000000000000
(1426617157.769736) can0 294#00009CFFFA000000
(1426617157.769982) can0 270#C013000000000000
(1426617157.855030) can0 477#0700707B9A001400
(1426617157.869051) can0 475#9A131A4945000000
(1426617157.869342) can0 306#1200000000000000
(1426617157.869596) can0 294#00009CFFFA000000
(1426617157.869843) can0 270#C013000000000000
(1426617157.951981) can0 477#0700707B9A001400
(1426617157.969148) can0 475#A4131A4945000000
(1426617157.969420) can0 294#00009CFFFA000000
(1426617157.969621) can0 306#1200000000000000
(1426617157.969910) can0 270#C013000000000000
(1426617158.049028) can0 477#0700727B9A001400
(1426617158.069052) can0 475#A9131A4945000000
(1426617158.069371) can0 306#1200000000000000
(1426617158.069622) can0 294#00009CFFFA000000
(1426617158.069867) can0 270#C013000000000000
(1426617158.146716) can0 477#0700717B9A001400
(1426617158.169029) can0 475#9E131A4945000000
(1426617158.169305) can0 306#1200000000000000
(1426617158.169700) can0 294#00009CFFFA000000
(1426617158.169951) can0 270#C013000000000000
(1426617158.243139) can0 477#0700717B9A001400
(1426617158.269401) can0 475#A0131A4945000000
(1426617158.269690) can0 306#1200000000000000
(1426617158.269939) can0 294#00009CFFFA000000
(1426617158.270180) can0 270#C013000000000000
(1426617158.339884) can0 477#0700707B9A001400
(1426617158.369330) can0 475#A8131A4945000000
(1426617158.369651) can0 306#1100000000000000
(1426617158.369901) can0 294#00009CFFFA000000
(1426617158.370147) can0 270#C013000000000000
(1426617158.436831) can0 477#0700717B9A001400
(1426617158.469142) can0 475#A4131A4945000000
(1426617158.469440) can0 306#1200000000000000
(1426617158.469689) can0 294#00009CFFFA000000
(1426617158.469932) can0 270#C013000000000000
(1426617158.534697) can0 477#0700717B9A001400
(1426617158.569137) can0 475#A8131A4945000000
(1426617158.569429) can0 306#1100000000000000
(1426617158.569673) can0 294#00009CFFFA000000
(1426617158.569917) can0 270#C013000000000000
(1426617158.631808) can0 477#0700717B9A001400
(1426617158.669089) can0 475#A6131A4945000000
(1426617158.669377) can0 306#1100000000000000
(1426617158.669622) can0 294#00009CFFFA000000
(1426617158.669877) can0 270#C013000000000000
(1426617158.728579) can0 477#0700707B9A001400
(1426617158.769106) can0 475#9E131A4945000000
(1426617158.769377) can0 306#1100000000000000
(1426617158.769633) can0 294#00009CFFFA000000
(1426617158.769877) can0 270#C013000000000000
(1426617158.825445) can0 477#0700717B9A001400
(1426617158.869183) can0 475#A0131A4945000000
(1426617158.869510) can0 306#1100000000000000
(1426617158.869763) can0 294#00009CFFFA000000
(1426617158.870006) can0 270#C013000000000000
(1426617158.921685) can0 477#0700707B9A001400
(1426617158.969304) can0 475#A6131A4945000000
(1426617158.969595) can0 306#1000000000000000
(1426617158.969843) can0 294#00009CFFFA000000
(1426617158.970083) can0 270#C013000000000000
(1426617159.018641) can0 477#0700717B9A001400
(1426617159.069463) can0 475#A2131A4945000000
(1426617159.069780) can0 306#1000000000000000
(1426617159.070031) can0 294#00009CFFFA000000
(1426617159.070279) can0 270#C013000000000000
(1426617159.115614) can0 477#0700707B9A001400
(1426617159.169498) can0 475#A0131A4945000000
(1426617159.169776) can0 306#1000000000000000
(1426617159.170022) can0 294#00009CFFFA000000
(1426617159.170268) can0 270#C013000000000000
(1426617159.212614) can0 477#0700717B9A001400
(1426617159.269360) can0 475#A2131A4945000000
(1426617159.269689) can0 306#1000000000000000
(1426617159.269944) can0 294#00009CFFFA000000
(1426617159.270204) can0 270#C013000000000000
(1426617159.309508) can0 477#0700717B9A001400
(1426617159.369406) can0 475#9C131A4945000000
(1426617159.369692) can0 306#1000000000000000
(1426617159.369942) can0 294#00009CFFFA000000
(1426617159.370187) can0 270#C013000000000000
(1426617159.406484) can0 477#0700717B9A001400
(1426617159.469158) can0 475#98131A4945000000
(1426617159.469565) can0 306#1000000000000000
(1426617159.469810) can0 294#00009CFFFA000000
(1426617159.470052) can0 270#C013000000000000
(1426617159.503612) can0 477#0700717B9A001400
(1426617159.569304) can0 475#AB131A4945000000
(1426617159.569578) can0 306#1000000000000000
(1426617159.569826) can0 294#00009CFFFA000000
(1426617159.570069) can0 270#C013000000000000
(1426617159.600435) can0 477#0700727B9A001400
(1426617159.669063) can0 475#AB131A4945000000
(1426617159.669444) can0 306#1000000000000000
(1426617159.669703) can0 294#00009CFFFA000000
(1426617159.669990) can0 270#C013000000000000
(1426617159.697391) can0 477#0700717B9A001400
(1426617159.769102) can0 475#A8131A4945000000
(1426617159.769538) can0 306#0F00000000000000
(1426617159.769793) can0 294#00009CFFFA000000
(1426617159.770041) can0 270#C013000000000000
(1426617159.794402) can0 477#0700727B9A001400
(1426617159.869209) can0 475#AB131A4945000000
(1426617159.869677) can0 306#0F00000000000000
(1426617159.869930) can0 294#00009CFFFA000000
(1426617159.870213) can0 270#C013000000000000
(1426617159.891345) can0 477#0700717B9A001400
(1426617159.969001) can0 475#9E131A4945000000
(1426617159.969318) can0 306#0F00000000000000
(1426617159.969709) can0 294#00009CFFFA000000
(1426617159.969959) can0 270#C013000000000000
(1426617159.988306) can0 477#0700707B9A001400
(1426617160.069144) can0 475#A6131A4945000000
(1426617160.069465) can0 306#0F00000000000000
(1426617160.069720) can0 294#00009CFFFA000000
(1426617160.069976) can0 270#C013000000000000
(1426617160.085297) can0 477#0700717B9A001400
(1426617160.169214) can0 475#A0131A4945000000
(1426617160.169523) can0 306#0F00000000000000
(1426617160.169774) can0 294#00009CFFFA000000
(1426617160.170036) can0 270#C013000000000000
(1426617160.182291) can0 477#0700717B9A001400
(1426617160.269049) can0 475#A4131A4945000000
(1426617160.269367) can0 306#1000000000000000
(1426617160.269616) can0 294#00009CFFFA000000
(1426617160.269868) can0 270#C013000000000000
(1426617160.279260) can0 477#0700717B9A001400
(1426617160.369126) can0 475#A8131A4945000000
(1426617160.369415) can0 306#1000000000000000
(1426617160.369666) can0 294#00009CFFFA000000
(1426617160.369909) can0 270#C013000000000000
(1426617160.376203) can0 477#0700717B9A001400
(1426617160.469271) can0 475#A8131A4945000000
(1426617160.469619) can0 306#1000000000000000
(1426617160.469875) can0 294#00009CFFFA000000
(1426617160.470127) can0 270#C013000000000000
(1426617160.473255) can0 477#0700717B9A001400
(1426617160.569380) can0 475#AF131A4945000000
(1426617160.569664) can0 306#1000000000000000
(1426617160.569912) can0 294#00009CFFFA000000
(1426617160.570157) can0 270#C013000000000000
(1426617160.570399) can0 477#0700717B9A001400
(1426617160.667137) can0 477#0700707B9A001400
(1426617160.669230) can0 475#A4131A4945000000
(1426617160.669671) can0 306#0F00000000000000
(1426617160.669922) can0 294#00009CFFFA000000
(1426617160.670166) can0 270#C013000000000000
(1426617160.764249) can0 477#0700717B9A001400
(1426617160.769289) can0 475#A8131A4945000000
(1426617160.769661) can0 306#0F00000000000000
(1426617160.769907) can0 294#00009CFFFA000000
(1426617160.770152) can0 270#C013000000000000
(1426617160.861042) can0 477#0700707B9A001400
(1426617160.869175) can0 475#A8131A4945000000
(1426617160.869547) can0 306#0F00000000000000
(1426617160.869806) can0 294#00009CFFFA000000
(1426617160.870074) can0 270#C013000000000000
(1426617160.958071) can0 477#0700707B9A001400
(1426617160.969176) can0 475#A8131A4945000000
(1426617160.969462) can0 306#0E00000000000000
(1426617160.969727) can0 294#00009CFFFA000000
(1426617160.969976) can0 270#C013000000000000
(1426617161.055038) can0 477#0700707B9A001400
(1426617161.069126) can0 475#A6131A4945000000
(1426617161.069407) can0 306#0F00000000000000
(1426617161.069813) can0 294#00009CFFFA000000
(1426617161.070104) can0 270#C013000000000000
(1426617161.151930) can0 477#0700707B9A001400
(1426617161.169128) can0 475#A4131A4945000000
(1426617161.169549) can0 306#0F00000000000000
(1426617161.170462) can0 294#00009CFFFA000000
(1426617161.170723) can0 270#C013000000000000
(1426617161.249415) can0 477#0700707B9A001400
(1426617161.269056) can0 475#A2131A4945000000
(1426617161.269374) can0 306#0E00000000000000
(1426617161.269667) can0 294#00009CFFFA000000
(1426617161.269922) can0 270#C013000000000000
(1426617161.346744) can0 477#0700717B9A001400
(1426617161.369513) can0 475#AB131A4945000000
(1426617161.369791) can0 306#0E00000000000000
(1426617161.370040) can0 294#00009CFFFA000000
(1426617161.370291) can0 270#C013000000000000
(1426617161.442854) can0 477#0700707B9A001400
(1426617161.469406) can0 475#AB131A4945000000
(1426617161.469706) can0 306#0E00000000000000
(1426617161.469954) can0 294#00009CFFFA000000
(1426617161.470200) can0 270#C013000000000000
(1426617161.539986) can0 477#0700707B9A001400
(1426617161.569422) can0 475#A4131A4945000000
(1426617161.569702) can0 306#0E00000000000000
(1426617161.569952) can0 294#00009CFFFA000000
(1426617161.570197) can0 270#C013000000000000
(1426617161.637301) can0 477#0700717B9A001400
(1426617161.669301) can0 475#AB131A4945000000
(1426617161.669639) can0 306#0D00000000000000
(1426617161.669893) can0 294#00009CFFFA000000
(1426617161.670140) can0 270#C013000000000000
(1426617161.733741) can0 477#0700717B9A001400
(1426617161.769148) can0 475#A9131A4945000000
(1426617161.769478) can0 306#0D00000000000000
(1426617161.769727) can0 294#00009CFFFA000000
(1426617161.769968) can0 270#C013000000000000
(1426617161.830738) can0 477#0700717B9A001400
(1426617161.869265) can0 475#AD131A4945000000
(1426617161.869576) can0 306#0D00000000000000
(1426617161.869826) can0 294#00009CFFFA000000
(1426617161.870068) can0 270#C013000000000000
(1426617161.927722) can0 477#0700707B9A001400
(1426617161.969272) can0 475#A8131A4945000000
(1426617161.969569) can0 306#0E00000000000000
(1426617161.969818) can0 294#00009CFFFA000000
(1426617161.970071) can0 270#C013000000000000
(1426617162.025777) can0 477#0700717B9A001400
(1426617162.069209) can0 475#A9131A4945000000
(1426617162.069539) can0 306#0E00000000000000
(1426617162.069788) can0 294#00009CFFFA000000
(1426617162.070032) can0 270#C013000000000000
(1426617162.121626) can0 477#0700717B9A001400
(1426617162.169505) can0 475#A8131A4945000000
(1426617162.169787) can0 306#0E00000000000000
(1426617162.170035) can0 294#00009CFFFA000000
(1426617162.170278) can0 270#C013000000000000
(1426617162.218585) can0 477#0700717B9A001400
(1426617162.269469) can0 475#A6131A4945000000
(1426617162.269770) can0 306#0E00000000000000
(1426617162.270018) can0 294#00009CFFFA000000
(1426617162.270260) can0 270#C013000000000000
(1426617162.315572) can0 477#0700717B9A001400
(1426617162.369503) can0 475#9E131A4945000000
(1426617162.369783) can0 306#0F00000000000000
(1426617162.370030) can0 294#00009CFFFA000000
(1426617162.370275) can0 270#C013000000000000
(1426617162.412529) can0 477#0700717B9A001400
(1426617162.469399) can0 475#A2131A4945000000
(1426617162.469718) can0 306#0F00000000000000
(1426617162.469968) can0 294#00009CFFFA000000
(1426617162.470212) can0 270#C013000000000000
(1426617162.509519) can0 477#0700717B9A001400
(1426617162.569147) can0 475#A4131A4945000000
(1426617162.569528) can0 306#1000000000000000
(1426617162.569783) can0 294#00009CFFFA000000
(1426617162.570028) can0 270#C013000000000000
(1426617162.606510) can0 477#0700707B9A001400
(1426617162.669294) can0 475#A6131A4945000000
(1426617162.669627) can0 306#1000000000000000
(1426617162.669886) can0 294#00009CFFFA000000
(1426617162.670130) can0 270#C013000000000000
(1426617162.703625) can0 477#0700707B9A001400
(1426617162.769092) can0 475#9E131A4945000000
(1426617162.769464) can0 306#1000000000000000
(1426617162.769876) can0 294#00009CFFFA000000
(1426617162.770265) can0 270#C013000000000000
(1426617162.800432) can0 477#0700707B9A001400
(1426617162.869063) can0 475#A2131A4945000000
(1426617162.869349) can0 306#1000000000000000
(1426617162.869741) can0 294#00009CFFFA000000
(1426617162.869988) can0 270#C013000000000000
(1426617162.897431) can0 477#0700707B9A001400
(1426617162.969360) can0 475#A8131A4945000000
(1426617162.969939) can0 294#00009CFFFA000000
(1426617162.970168) can0 306#1000000000000000
(1426617162.994380) can0 477#0700717B9A001400
(1426617163.069226) can0 475#A6131A4945000000
(1426617163.069540) can0 306#1000000000000000
(1426617163.069791) can0 294#00009CFFFA000000
(1426617163.070041) can0 270#C013000000000000
(1426617163.091338) can0 477#0700707B9A001400
(1426617163.169204) can0 475#A2131A4945000000
(1426617163.169588) can0 306#0F00000000000000
(1426617163.169793) can0 294#00009CFFFA000000
(1426617163.170036) can0 270#C013000000000000
(1426617163.188285) can0 477#0700717B9A001400
(1426617163.269205) can0 475#A0131A4945000000
(1426617163.269493) can0 306#0F00000000000000
(1426617163.269746) can0 294#00009CFFFA000000
(1426617163.270027) can0 270#C013000000000000
(1426617163.285277) can0 477#0700717B9A001400
(1426617163.369117) can0 475#A2131A4945000000
(1426617163.369500) can0 306#0F00000000000000
(1426617163.369766) can0 270#C013000000000000
(1426617163.369968) can0 294#00009CFFFA000000
(1426617163.382239) can0 477#0700707B9A001400
(1426617163.469111) can0 475#A9131A4945000000
(1426617163.469432) can0 306#0F00000000000000
(1426617163.469681) can0 294#00009CFFFA000000
(1426617163.469924) can0 270#C013000000000000
(1426617163.479188) can0 477#0700707B9A001400
(1426617163.569102) can0 475#A9131A4945000000
(1426617163.569515) can0 306#0F00000000000000
(1426617163.569777) can0 270#C013000000000000
(1426617163.569977) can0 294#00009CFFFA000000
(1426617163.576175) can0 477#0700707B9A001400
(1426617163.669271) can0 475#A8131A4945000000
(1426617163.669601) can0 306#0F00000000000000
(1426617163.669892) can0 294#00009CFFFA000000
(1426617163.670143) can0 270#C013000000000000
(1426617163.673082) can0 477#0700717B9A001400
(1426617163.769317) can0 475#A8131A4945000000
(1426617163.769657) can0 306#0F00000000000000
(1426617163.769862) can0 294#00009CFFFA000000
(1426617163.770104) can0 270#C013000000000000
(1426617163.770352) can0 477#0700717B9A001400
(1426617163.867138) can0 477#0700707B9A001400
(1426617163.869245) can0 475#B3131A4945000000
(1426617163.869576) can0 306#1000000000000000
(1426617163.869832) can0 294#00009CFFFA000000
(1426617163.870076) can0 270#C013000000000000
(1426617163.964069) can0 477#0700717B9A001400
(1426617163.969193) can0 475#A6131A4945000000
(1426617163.969550) can0 306#1000000000000000
(1426617163.969808) can0 294#00009CFFFA000000
(1426617163.970060) can0 270#C013000000000000
(1426617164.061035) can0 477#0700707B9A001400
(1426617164.069167) can0 475#A2131A4945000000
(1426617164.069474) can0 306#0F00000000000000
(1426617164.069742) can0 294#00009CFFFA000000
(1426617164.070010) can0 270#C013000000000000
(1426617164.158032) can0 477#0700717B9A001400
(1426617164.169153) can0 475#AB131A4945000000
(1426617164.169477) can0 306#0F00000000000000
(1426617164.169737) can0 270#C013000000000000
(1426617164.169938) can0 294#00009CFFFA000000
(1426617164.254930) can0 477#0700717B9A001400
(1426617164.269105) can0 475#A9131A4945000000
(1426617164.269393) can0 306#0F00000000000000
(1426617164.269646) can0 294#00009CFFFA000000
(1426617164.269893) can0 270#C013000000000000
(1426617164.351907) can0 477#0700717B9A001400
(1426617164.369085) can0 475#A9131A4945000000
(1426617164.369477) can0 306#0F00000000000000
(1426617164.369741) can0 294#00009CFFFA000000
(1426617164.369984) can0 270#C013000000000000
(1426617164.448921) can0 477#0700707B9A001400
(1426617164.469290) can0 475#A0131A4945000000
(1426617164.469603) can0 306#0F00000000000000
(1426617164.469853) can0 294#00009CFFFA000000
(1426617164.470097) can0 270#C013000000000000
(1426617164.546948) can0 477#0700707B9A001400
(1426617164.569521) can0 475#A6131A4945000000
(1426617164.569804) can0 306#0F00000000000000
(1426617164.570051) can0 294#00009CFFFA000000
(1426617164.570293) can0 270#C013000000000000
(1426617164.642995) can0 477#0700707B9A001400
(1426617164.669240) can0 475#90131A4945000000
(1426617164.669537) can0 306#0F00000000000000
(1426617164.669823) can0 294#00009CFFFA000000
(1426617164.670073) can0 270#C013000000000000
(1426617164.739783) can0 477#07006F7B9A001400
(1426617164.769430) can0 475#A2131A4945000000
(1426617164.769772) can0 306#0F00000000000000
(1426617164.770026) can0 294#00009CFFFA000000
(1426617164.770224) can0 270#C013000000000000
(1426617164.836751) can0 477#0700707B9A001400
(1426617164.869148) can0 475#9E131A4945000000
(1426617164.869491) can0 306#0F00000000000000
(1426617164.869845) can0 294#00009CFFFA000000
(1426617164.870049) can0 270#C013000000000000
(1426617164.934513) can0 477#0700707B9A001400
(1426617164.969136) can0 475#A4131A4945000000
(1426617164.969446) can0 306#0F00000000000000
(1426617164.969740) can0 294#00009CFFFA000000
(1426617164.969988) can0 270#C013000000000000
(1426617165.030696) can0 477#0700707B9A001400
(1426617165.069266) can0 475#A8131A4945000000
(1426617165.069600) can0 306#0F00000000000000
(1426617165.069850) can0 294#00009CFFFA000000
(1426617165.070095) can0 270#C013000000000000
(1426617165.127691) can0 477#0700717B9A001400
(1426617165.169348) can0 475#A2131A4945000000
(1426617165.169711) can0 306#0F00000000000000
(1426617165.169964) can0 294#00009CFFFA000000
(1426617165.170213) can0 270#C013000000000000
(1426617165.224679) can0 477#0700717B9A001400
(1426617165.269308) can0 475#AB131A4945000000
(1426617165.269620) can0 306#0F00000000000000
(1426617165.269895) can0 294#00009CFFFA000000
(1426617165.270144) can0 270#C013000000000000
(1426617165.321686) can0 477#0700707B9A001400
(1426617165.369288) can0 475#9E131A4945000000
(1426617165.369668) can0 306#1000000000000000
(1426617165.370069) can0 294#00009CFFFA000000
(1426617165.370420) can0 270#C013000000000000
(1426617165.418539) can0 477#0700707B9A001400
(1426617165.469266) can0 475#A0131A4945000000
(1426617165.469677) can0 306#1100000000000000
(1426617165.469931) can0 294#00009CFFFA000000
(1426617165.470177) can0 270#C013000000000000
(1426617165.515592) can0 477#0700717B9A001400
(1426617165.569416) can0 475#A4131A4945000000
(1426617165.569776) can0 306#1100000000000000
(1426617165.570073) can0 270#C013000000000000
(1426617165.570281) can0 294#00009CFFFA000000
(1426617165.612501) can0 477#0700707B9A001400
(1426617165.669186) can0 475#A8131A4945000000
(1426617165.669622) can0 306#1100000000000000
(1426617165.669899) can0 294#00009CFFFA000000
(1426617165.670146) can0 270#C013000000000000
(1426617165.709481) can0 477#0700717B9A001400
(1426617165.769178) can0 475#A8131A4945000000
(1426617165.769503) can0 306#1200000000000000
(1426617165.769904) can0 294#00009CFFFA000000
(1426617165.770157) can0 270#C013000000000000
(1426617165.806426) can0 477#0700707B9A001400
(1426617165.869124) can0 475#A8131A4945000000
(1426617165.869589) can0 306#1100000000000000
(1426617165.869839) can0 294#00009CFFFA000000
(1426617165.870083) can0 270#C013000000000000
(1426617165.903414) can0 477#0700717B9A001400
(1426617165.969143) can0 475#A6131A4945000000
(1426617165.969561) can0 306#1100000000000000
(1426617165.969853) can0 294#00009CFFFA000000
(1426617165.970101) can0 270#C013000000000000
(1426617166.000397) can0 477#0700707B9A001400
(1426617166.069101) can0 475#A4131A4945000000
(1426617166.069402) can0 306#1000000000000000
(1426617166.069767) can0 294#00009CFFFA000000
(1426617166.070035) can0 270#C013000000000000
(1426617166.097368) can0 477#0700727B9A001400
(1426617166.169238) can0 475#A6131A4945000000
(1426617166.169537) can0 306#1100000000000000
(1426617166.169836) can0 294#00009CFFFA000000
(1426617166.170088) can0 270#C013000000000000
(1426617166.194333) can0 477#0700717B9A001400
(1426617166.269227) can0 475#9E131A4945000000
(1426617166.269531) can0 306#1100000000000000
(1426617166.269779) can0 294#00009CFFFA000000
(1426617166.270021) can0 270#C013000000000000
(1426617166.291277) can0 477#0700707B9A001400
(1426617166.369157) can0 475#A6131A4945000000
(1426617166.369470) can0 306#1100000000000000
(1426617166.369816) can0 270#C013000000000000
(1426617166.370022) can0 294#00009CFFFA000000
(1426617166.388235) can0 477#0700707B9A001400
(1426617166.469189) can0 475#9E131A4945000000
(1426617166.469513) can0 306#1100000000000000
(1426617166.469759) can0 294#00009CFFFA000000
(1426617166.470005) can0 270#C013000000000000
(1426617166.485280) can0 477#0700707B9A001400
(1426617166.569056) can0 475#A4131A4945000000
(1426617166.569401) can0 306#1100000000000000
(1426617166.569737) can0 294#00009CFFFA000000
(1426617166.570006) can0 270#C013000000000000
(1426617166.582382) can0 477#0600707B9A001400
(1426617166.669112) can0 475#A6131A4945000000
(1426617166.669430) can0 306#1100000000000000
(1426617166.669692) can0 294#00009CFFFA000000
(1426617166.669963) can0 270#C013000000000000
(1426617166.679142) can0 477#0700707B9A001400
(1426617166.769066) can0 475#AB131A4945000000
(1426617166.769577) can0 306#1100000000000000
(1426617166.769882) can0 270#C013000000000000
(1426617166.770087) can0 294#00009CFFFA000000
(1426617166.776140) can0 477#0700717B9A001400
(1426617166.869316) can0 475#A9131A4945000000
(1426617166.869629) can0 306#1100000000000000
(1426617166.869902) can0 294#00009CFFFA000000
(1426617166.870156) can0 270#C013000000000000
(1426617166.873133) can0 477#0700717B9A001400
(1426617166.969313) can0 475#A6131A4945000000
(1426617166.969654) can0 306#1000000000000000
(1426617166.969959) can0 294#00009CFFFA000000
(1426617166.970209) can0 477#0700707B9A001400
(1426617166.970406) can0 270#C013000000000000
(1426617167.067090) can0 477#0700707B9A001400
(1426617167.069265) can0 475#A4131A4945000000
(1426617167.069600) can0 306#1100000000000000
(1426617167.069857) can0 294#00009CFFFA000000
(1426617167.070105) can0 270#C013000000000000
(1426617167.164057) can0 477#0700707B9A001400
(1426617167.169251) can0 475#A0131A4945000000
(1426617167.169526) can0 306#1100000000000000
(1426617167.169884) can0 294#00009CFFFA000000
(1426617167.170184) can0 270#C013000000000000
(1426617167.260978) can0 477#0600707B9A001400
(1426617167.269176) can0 475#A6131A4945000000
(1426617167.269464) can0 306#1100000000000000
(1426617167.269727) can0 294#00009CFFFA000000
(1426617167.270009) can0 270#C013000000000000
(1426617167.357938) can0 477#0700707B9A001400
(1426617167.369141) can0 475#A6131A4945000000
(1426617167.369427) can0 306#1000000000000000
(1426617167.369758) can0 294#00009CFFFA000000
(1426617167.370015) can0 270#C013000000000000
(1426617167.454917) can0 477#0700717B9A001400
(1426617167.469146) can0 475#A6131A4945000000
(1426617167.469435) can0 306#1100000000000000
(1426617167.469691) can0 294#00009CFFFA000000
(1426617167.469948) can0 270#C013000000000000
(1426617167.552486) can0 477#0700707B9A001400
(1426617167.569135) can0 475#A6131A4945000000
(1426617167.569545) can0 306#1000000000000000
(1426617167.569876) can0 294#00009CFFFA000000
(1426617167.570229) can0 270#C013000000000000
(1426617167.648872) can0 477#0600717B9A001400
(1426617167.669505) can0 475#A4131A4945000000
(1426617167.669810) can0 306#1000000000000000
(1426617167.670062) can0 294#00009CFFFA000000
(1426617167.670308) can0 270#C013000000000000
(1426617167.745883) can0 477#0700707B9A001400
(1426617167.769287) can0 475#A2131A4945000000
(1426617167.769588) can0 306#0F00000000000000
(1426617167.769933) can0 294#00009CFFFA000000
(1426617167.770287) can0 270#C013000000000000
(1426617167.842794) can0 477#0600707B9A001400
(1426617167.869273) can0 475#A9131A4945000000
(1426617167.869565) can0 306#0F00000000000000
(1426617167.869816) can0 294#00009CFFFA000000
(1426617167.870065) can0 270#C013000000000000
(1426617167.939784) can0 477#0700707B9A001400
(1426617167.969183) can0 475#A6131A4945000000
(1426617167.969516) can0 306#0F00000000000000
(1426617167.969816) can0 294#00009CFFFA000000
(1426617167.970072) can0 270#C013000000000000
(1426617168.036714) can0 477#0700717B9A001400
(1426617168.069335) can0 475#A9131A4945000000
(1426617168.069665) can0 306#0F00000000000000
(1426617168.069928) can0 294#00009CFFFA000000
(1426617168.070183) can0 270#C013000000000000
(1426617168.134495) can0 477#0700707B9A001400
(1426617168.169306) can0 475#A8131A4945000000
(1426617168.169651) can0 306#1000000000000000
(1426617168.170043) can0 270#C013000000000000
(1426617168.170253) can0 294#00009CFFFA000000
(1426617168.230683) can0 477#0700717B9A001400
(1426617168.269392) can0 475#9C131A4945000000
(1426617168.269687) can0 306#1000000000000000
(1426617168.270649) can0 294#00009CFFFA000000
(1426617168.270913) can0 270#C013000000000000
(1426617168.328481) can0 477#0700717B9A001400
(1426617168.369380) can0 475#A9131A4945000000
(1426617168.369840) can0 306#1000000000000000
(1426617168.370097) can0 294#00009CFFFA000000
(1426617168.370342) can0 270#C013000000000000
(1426617168.425243) can0 477#0700707B9A001400
(1426617168.469349) can0 475#A0131A4945000000
(1426617168.469776) can0 306#1000000000000000
(1426617168.470028) can0 294#00009CFFFA000000
(1426617168.470276) can0 270#C013000000000000
(1426617168.521781) can0 477#0700707B9A001400
(1426617168.569284) can0 475#A4131A4945000000
(1426617168.569771) can0 306#1000000000000000
(1426617168.570082) can0 294#00009CFFFA000000
(1426617168.570331) can0 270#C013000000000000
(1426617168.618535) can0 477#0700717B9A001400
(1426617168.669243) can0 475#9E131A4945000000
(1426617168.669711) can0 306#1000000000000000
(1426617168.669963) can0 294#00009CFFFA000000
(1426617168.670209) can0 270#C013000000000000
(1426617168.715506) can0 477#0700717B9A001400
(1426617168.769269) can0 475#A2131A4945000000
(1426617168.769664) can0 306#1000000000000000
(1426617168.770022) can0 294#00009CFFFA000000
(1426617168.770282) can0 270#C013000000000000
(1426617168.812510) can0 477#0700707B9A001400
(1426617168.869186) can0 475#AB131A4945000000
(1426617168.869638) can0 306#0F00000000000000
(1426617168.869888) can0 294#00009CFFFA000000
(1426617168.870130) can0 270#C013000000000000
(1426617168.909437) can0 477#0700717B9A001400
(1426617168.969376) can0 475#A8131A4945000000
(1426617168.969841) can0 306#0F00000000000000
(1426617168.970137) can0 294#00009CFFFA000000
(1426617168.970385) can0 270#C013000000000000
(1426617169.006431) can0 477#0600707B9A001400
(1426617169.069148) can0 475#A9131A4945000000
(1426617169.069545) can0 306#0F00000000000000
(1426617169.069842) can0 294#00009CFFFA000000
(1426617169.070097) can0 270#C013000000000000
(1426617169.103495) can0 477#0700717B9A001400
(1426617169.169087) can0 475#A2131A4945000000
(1426617169.169545) can0 306#0F00000000000000
(1426617169.169804) can0 294#00009CFFFA000000
(1426617169.170097) can0 270#C013000000000000
(1426617169.200337) can0 477#0700707B9A001400
(1426617169.269336) can0 475#9A131A4945000000
(1426617169.269634) can0 306#1000000000000000
(1426617169.269890) can0 294#00009CFFFA000000
(1426617169.270162) can0 270#C013000000000000
(1426617169.297307) can0 477#0700717B9A001400
(1426617169.369100) can0 475#A6131A4945000000
(1426617169.369472) can0 306#1000000000000000
(1426617169.369735) can0 294#00009CFFFA000000
(1426617169.370096) can0 270#C013000000000000
(1426617169.394266) can0 477#0700707B9A001400
(1426617169.469264) can0 475#9C131A4945000000
(1426617169.469570) can0 306#1100000000000000
(1426617169.469818) can0 294#00009CFFFA000000
(1426617169.470064) can0 270#C013000000000000
(1426617169.491281) can0 477#0700707B9A001400
(1426617169.569197) can0 475#A9131A4945000000
(1426617169.569506) can0 306#1100000000000000
(1426617169.569772) can0 294#00009CFFFA000000
(1426617169.570114) can0 270#C013000000000000
(1426617169.588239) can0 477#0700707B9A001400
(1426617169.669201) can0 475#A6131A4945000000
(1426617169.669491) can0 306#1200000000000000
(1426617169.669737) can0 294#00009CFFFA000000
(1426617169.669982) can0 270#C013000000000000
(1426617169.685199) can0 477#0700707B9A001400
(1426617169.769136) can0 475#9E131A4945000000
(1426617169.769462) can0 306#1200000000000000
(1426617169.769712) can0 294#00009CFFFA000000
(1426617169.770051) can0 270#C013000000000000
(1426617169.782154) can0 477#0700707B9A001400
(1426617169.869343) can0 475#AB131A4945000000
(1426617169.869642) can0 306#1200000000000000
(1426617169.869915) can0 294#00009CFFFA000000
(1426617169.870171) can0 270#C013000000000000
(1426617169.879148) can0 477#0700707B9A001400
(1426617169.969336) can0 475#A4131A4945000000
(1426617169.969631) can0 306#1200000000000000
(1426617169.969920) can0 294#00009CFFFA000000
(1426617169.970329) can0 270#C013000000000000
(1426617169.976085) can0 477#0700707B9A001400
(1426617170.069297) can0 475#A9131A4945000000
(1426617170.069916) can0 306#1200000000000000
(1426617170.070147) can0 294#00009CFFFA000000
(1426617170.073065) can0 477#07006F7B9A001400
(1426617170.169304) can0 475#A0131A4945000000
(1426617170.169681) can0 306#1200000000000000
(1426617170.170036) can0 294#00009CFFFA000000
(1426617170.170294) can0 270#C013000000000000
(1426617170.170697) can0 477#07006F7B9A001400
(1426617170.267056) can0 477#0700707B9A001400
(1426617170.269258) can0 475#A2131A4945000000
(1426617170.269634) can0 306#1200000000000000
(1426617170.269958) can0 294#00009CFFFA000000
(1426617170.270253) can0 270#BF13000000000000
(1426617170.363993) can0 477#0700707B9A001400
(1426617170.369217) can0 475#9E131A4945000000
(1426617170.369508) can0 306#1200000000000000
(1426617170.369770) can0 294#00009CFFFA000000
(1426617170.370112) can0 270#C013000000000000
(1426617170.461107) can0 477#0700717B9A001400
(1426617170.469656) can0 475#A0131A4945000000
(1426617170.469968) can0 306#1200000000000000
(1426617170.470230) can0 294#00009CFFFA000000
(1426617170.470485) can0 270#C013000000000000
(1426617170.557970) can0 477#0700707B9A001400
(1426617170.569615) can0 475#A4131A4945000000
(1426617170.569945) can0 306#1200000000000000
(1426617170.570239) can0 270#C013000000000000
(1426617170.570442) can0 294#00009CFFFA000000
(1426617170.654911) can0 477#0700717B9A001400
(1426617170.669548) can0 475#A8131A4945000000
(1426617170.669861) can0 306#1200000000000000
(1426617170.670112) can0 294#00009CFFFA000000
(1426617170.670356) can0 270#C013000000000000
(1426617170.751839) can0 477#0700717B9A001400
(1426617170.769616) can0 475#A9131A4945000000
(1426617170.770124) can0 306#1100000000000000
(1426617170.770379) can0 294#00009CFFFA000000
(1426617170.770625) can0 270#C013000000000000
(1426617170.848873) can0 477#0700707B9A001400
(1426617170.869564) can0 475#B1131A4945000000
(1426617170.869857) can0 306#1100000000000000
(1426617170.870117) can0 294#00009CFFFA000000
(1426617170.870373) can0 270#C013000000000000
(1426617170.945778) can0 477#0700707B9A001400
(1426617170.959582) can0 475#A6131A4945000000
(1426617170.959891) can0 306#1100000000000000
(1426617170.960149) can0 294#00009CFFFA000000
(1426617170.960397) can0 270#C013000000000000
(1426617171.042799) can0 477#0700717B9A001400
(1426617171.069500) can0 475#AB131A4945000000
(1426617171.069810) can0 306#1200000000000000
(1426617171.070064) can0 294#00009CFFFA000000
(1426617171.070315) can0 270#C013000000000000
(1426617171.139746) can0 477#0700717B9A001400
(1426617171.159462) can0 475#9C131A4945000000
(1426617171.159780) can0 306#1200000000000000
(1426617171.160044) can0 294#00009CFFFA000000
(1426617171.160304) can0 270#C013000000000000
(1426617171.236812) can0 477#0700707B9A001400
(1426617171.269399) can0 475#9A131A4945000000
(1426617171.269718) can0 306#1200000000000000
(1426617171.269965) can0 294#00009CFFFA000000
(1426617171.270208) can0 270#C013000000000000
(1426617171.333704) can0 477#0700707B9A001400
(1426617171.369424) can0 475#A9131A4945000000
(1426617171.369880) can0 306#1200000000000000
(1426617171.370212) can0 294#00009CFFFA000000
(1426617171.370464) can0 270#C013000000000000
(1426617171.430664) can0 477#0700707B9A001400
(1426617171.459388) can0 475#A4131A4945000000
(1426617171.459817) can0 306#1200000000000000
(1426617171.460081) can0 294#00009CFFFA000000
(1426617171.460326) can0 270#C013000000000000
(1426617171.527797) can0 477#0700707B9A001400
(1426617171.559377) can0 475#A8131A4945000000
(1426617171.559688) can0 306#1200000000000000
(1426617171.559958) can0 294#00009CFFFA000000
(1426617171.560250) can0 270#C013000000000000
(1426617171.625866) can0 477#0700707B9A001400
(1426617171.659579) can0 475#9C131A4945000000
(1426617171.659876) can0 306#1200000000000000
(1426617171.660131) can0 294#00009CFFFA000000
(1426617171.660383) can0 270#C013000000000000
(1426617171.721565) can0 477#0600707B9A001400
(1426617171.759324) can0 475#A4131A4945000000
(1426617171.759754) can0 306#1200000000000000
(1426617171.760010) can0 294#00009CFFFA000000
(1426617171.760266) can0 270#C013000000000000
(1426617171.818481) can0 477#0700717B9A001400
(1426617171.859304) can0 475#A8131A4945000000
(1426617171.859589) can0 306#1200000000000000
(1426617171.859955) can0 294#00009CFFFA000000
(1426617171.860220) can0 270#C013000000000000
(1426617171.915481) can0 477#0700707B9A001400
(1426617171.959481) can0 475#A6131A4945000000
(1426617171.959757) can0 306#1300000000000000
(1426617171.960001) can0 294#00009CFFFA000000
(1426617171.960235) can0 270#C013000000000000
(1426617172.012454) can0 477#0700707B9A001400
(1426617172.059235) can0 475#A4131A4945000000
(1426617172.059535) can0 306#1300000000000000
(1426617172.059931) can0 294#00009CFFFA000000
(1426617172.060187) can0 270#C013000000000000
(1426617172.109408) can0 477#0700707B9A001400
(1426617172.159186) can0 475#A6131A4945000000
(1426617172.159657) can0 306#1300000000000000
(1426617172.159910) can0 294#00009CFFFA000000
(1426617172.160156) can0 270#C013000000000000
(1426617172.206415) can0 477#0700707B9A001400
(1426617172.259420) can0 475#A4131A4945000000
(1426617172.259720) can0 306#1300000000000000
(1426617172.259990) can0 294#00009CFFFA000000
(1426617172.260241) can0 270#C013000000000000
(1426617172.303470) can0 477#0700707B9A001400
(1426617172.359321) can0 475#AB131A4945000000
(1426617172.359625) can0 306#1300000000000000
(1426617172.359881) can0 294#00009CFFFA000000
(1426617172.360126) can0 270#C013000000000000
(1426617172.400445) can0 477#0700717B9A001400
(1426617172.459128) can0 475#A8131A4945000000
(1426617172.459414) can0 306#1300000000000000
(1426617172.459807) can0 294#00009CFFFA000000
(1426617172.460099) can0 270#C013000000000000
(1426617172.497311) can0 477#0700707B9A001400
(1426617172.559323) can0 475#AB131A4945000000
(1426617172.559640) can0 306#1400000000000000
(1426617172.559909) can0 294#00009CFFFA000000
(1426617172.560157) can0 270#C013000000000000
(1426617172.594338) can0 477#0700707B9A001400
(1426617172.659097) can0 475#9E131A4945000000
(1426617172.659501) can0 306#1400000000000000
(1426617172.659749) can0 294#00009CFFFA000000
(1426617172.659992) can0 270#C013000000000000
(1426617172.691251) can0 477#0700707B9A001400
(1426617172.759235) can0 475#9C131A4945000000
(1426617172.759537) can0 306#1400000000000000
(1426617172.759789) can0 294#00009CFFFA000000
(1426617172.760044) can0 270#C013000000000000
(1426617172.788188) can0 477#0700707B9A001400
(1426617172.859142) can0 475#A8131A4945000000
(1426617172.859474) can0 306#1300000000000000
(1426617172.859727) can0 294#00009CFFFA000000
(1426617172.859975) can0 270#C013000000000000
(1426617172.885206) can0 477#0700707B9A001400
(1426617172.959191) can0 475#9E131A4945000000
(1426617172.959483) can0 306#1300000000000000
(1426617172.959731) can0 294#00009CFFFA000000
(1426617172.959975) can0 270#C013000000000000
(1426617172.982123) can0 477#0700707B9A001400
(1426617173.059403) can0 475#AF131A4945000000
(1426617173.059706) can0 306#1300000000000000
(1426617173.059956) can0 294#00009CFFFA000000
(1426617173.060208) can0 270#C013000000000000
(1426617173.079126) can0 477#0700707B9A001400
(1426617173.159326) can0 475#9A131A4945000000
(1426617173.159624) can0 306#1300000000000000
(1426617173.159872) can0 294#00009CFFFA000000
(1426617173.160114) can0 270#C013000000000000
(1426617173.176091) can0 477#0700707B9A001400
(1426617173.259290) can0 475#9A131A4945000000
(1426617173.259619) can0 306#1300000000000000
(1426617173.259912) can0 294#00009CFFFA000000
(1426617173.260157) can0 270#C013000000000000
(1426617173.273018) can0 477#0700707B9A001400
(1426617173.359326) can0 475#A2131A4945000000
(1426617173.359605) can0 306#1200000000000000
(1426617173.359852) can0 294#00009CFFFA000000
(1426617173.360097) can0 270#C013000000000000
(1426617173.370028) can0 477#0600707B9A001400
(1426617173.459267) can0 475#A6131A4945000000
(1426617173.459563) can0 306#1200000000000000
(1426617173.459808) can0 294#00009CFFFA000000
(1426617173.460055) can0 270#C013000000000000
(1426617173.466981) can0 477#0700707B9A001400
(1426617173.559292) can0 475#A2131A4945000000
(1426617173.559594) can0 306#1100000000000000
(1426617173.559843) can0 294#00009CFFFA000000
(1426617173.560042) can0 270#C013000000000000
(1426617173.563966) can0 477#0700707B9A001400
(1426617173.659185) can0 475#A2131A4945000000
(1426617173.659494) can0 306#1100000000000000
(1426617173.659776) can0 294#00009CFFFA000000
(1426617173.660036) can0 270#C013000000000000
(1426617173.660947) can0 477#0700707B9A001400
(1426617173.757893) can0 477#0700707B9A001400
(1426617173.759213) can0 475#A6131A4945000000
(1426617173.759502) can0 306#1000000000000000
(1426617173.759765) can0 294#00009CFFFA000000
(1426617173.760036) can0 270#C013000000000000
(1426617173.854864) can0 477#0700717B9A001400
(1426617173.859331) can0 475#9E131A4945000000
(1426617173.859647) can0 306#1000000000000000
(1426617173.859924) can0 294#00009CFFFA000000
(1426617173.860191) can0 270#C013000000000000
(1426617173.951818) can0 477#0700717B9A001400
(1426617173.959378) can0 475#A0131A4945000000
(1426617173.959673) can0 306#1000000000000000
(1426617173.959926) can0 294#00009CFFFA000000
(1426617173.960207) can0 270#C013000000000000
(1426617174.048798) can0 477#0700707B9A001400
(1426617174.059335) can0 475#9C131A4945000000
(1426617174.059655) can0 306#1000000000000000
(1426617174.059905) can0 294#00009CFFFA000000
(1426617174.060149) can0 270#C013000000000000
(1426617174.145779) can0 477#0700717B9A001400
(1426617174.159275) can0 475#A0131A4945000000
(1426617174.159588) can0 306#1000000000000000
(1426617174.159852) can0 294#00009CFFFA000000
(1426617174.160097) can0 270#C013000000000000
(1426617174.243725) can0 477#0700707B9A001400
(1426617174.259236) can0 475#A8131A4945000000
(1426617174.259565) can0 306#1100000000000000
(1426617174.259847) can0 294#00009CFFFA000000
(1426617174.260131) can0 270#C013000000000000
(1426617174.339885) can0 477#0700707B9A001400
(1426617174.359162) can0 475#A0131A4945000000
(1426617174.359472) can0 306#1100000000000000
(1426617174.359745) can0 294#00009CFFFA000000
(1426617174.360006) can0 270#C013000000000000
(1426617174.436681) can0 477#0700707B9A001400
(1426617174.459411) can0 475#A0131A4945000000
(1426617174.459698) can0 306#1100000000000000
(1426617174.459945) can0 294#00009CFFFA000000
(1426617174.460189) can0 270#C013000000000000
(1426617174.534887) can0 477#0700707B9A001400
(1426617174.559452) can0 475#A0131A4945000000
(1426617174.559746) can0 306#1000000000000000
(1426617174.560016) can0 294#00009CFFFA000000
(1426617174.560270) can0 270#C013000000000000
(1426617174.631319) can0 477#0700707B9A001400
(1426617174.659424) can0 475#A6131A4945000000
(1426617174.659881) can0 306#1000000000000000
(1426617174.660132) can0 294#00009CFFFA000000
(1426617174.660374) can0 270#C013000000000000
(1426617174.727583) can0 477#0700707B9A001400
(1426617174.759405) can0 475#A6131A4945000000
(1426617174.759787) can0 306#0F00000000000000
(1426617174.760046) can0 294#00009CFFFA000000
(1426617174.760316) can0 270#C013000000000000
(1426617174.824538) can0 477#0700707B9A001400
(1426617174.859351) can0 475#A8131A4945000000
(1426617174.859797) can0 306#0F00000000000000
(1426617174.860051) can0 294#00009CFFFA000000
(1426617174.860386) can0 270#C013000000000000
(1426617174.922040) can0 477#0700707B9A001400
(1426617174.959332) can0 475#A6131A4945000000
(1426617174.959612) can0 306#1000000000000000
(1426617174.960012) can0 294#00009CFFFA000000
(1426617174.960263) can0 270#C013000000000000
(1426617175.018557) can0 477#0700707B9A001400
(1426617175.059463) can0 475#A0131A4945000000
(1426617175.059778) can0 306#1000000000000000
(1426617175.060031) can0 294#00009CFFFA000000
(1426617175.060281) can0 270#C013000000000000
(1426617175.115434) can0 477#0700707B9A001400
(1426617175.159415) can0 475#A2131A4945000000
(1426617175.159736) can0 306#1000000000000000
(1426617175.160006) can0 294#00009CFFFA000000
(1426617175.160269) can0 270#C013000000000000
(1426617175.212467) can0 477#0700707B9A001400
(1426617175.259238) can0 475#A4131A4945000000
(1426617175.259670) can0 306#1000000000000000
(1426617175.259924) can0 294#00009CFFFA000000
(1426617175.260174) can0 270#C013000000000000
(1426617175.309391) can0 477#0700707B9A001400
(1426617175.359204) can0 475#9E131A4945000000
(1426617175.359645) can0 306#1100000000000000
(1426617175.360630) can0 294#00009CFFFA000000
(1426617175.360902) can0 270#C013000000000000
(1426617175.406397) can0 477#0700707B9A001400
(1426617175.459417) can0 475#A8131A4945000000
(1426617175.459724) can0 306#1100000000000000
(1426617175.459975) can0 294#00009CFFFA000000
(1426617175.460218) can0 270#C013000000000000
(1426617175.503400) can0 477#0700707B9A001400
(1426617175.559357) can0 475#A0131A4945000000
(1426617175.559678) can0 306#1100000000000000
(1426617175.559927) can0 294#00009CFFFA000000
(1426617175.560173) can0 270#C013000000000000
(1426617175.600294) can0 477#07006F7B9A001400
(1426617175.659172) can0 475#A9131A4945000000
(1426617175.659574) can0 306#1200000000000000
(1426617175.659824) can0 294#00009CFFFA000000
(1426617175.660069) can0 270#C013000000000000
(1426617175.697263) can0 477#0700717B9A001400
(1426617175.759327) can0 475#A6131A4945000000
(1426617175.759634) can0 306#1200000000000000
(1426617175.759881) can0 294#00009CFFFA000000
(1426617175.760124) can0 270#C013000000000000
(1426617175.794265) can0 477#06006F7B9A001400
(1426617175.859211) can0 475#A4131A4945000000
(1426617175.859517) can0 306#1100000000000000
(1426617175.859779) can0 294#00009CFFFA000000
(1426617175.860037) can0 270#C013000000000000
(1426617175.891228) can0 477#0700717B9A001400
(1426617175.959225) can0 475#A8131A4945000000
(1426617175.959521) can0 306#1100000000000000
(1426617175.959792) can0 294#00009CFFFA000000
(1426617175.960040) can0 270#C013000000000000
(1426617175.988190) can0 477#0700717B9A001400
(1426617176.059478) can0 475#A4131A4945000000
(1426617176.059778) can0 306#1100000000000000
(1426617176.060025) can0 294#00009CFFFA000000
(1426617176.060272) can0 270#C013000000000000
(1426617176.085161) can0 477#0700707B9A001400
(1426617176.159339) can0 475#A4131A4945000000
(1426617176.159667) can0 306#1000000000000000
(1426617176.159935) can0 294#00009CFFFA000000
(1426617176.160183) can0 270#C013000000000000
(1426617176.182110) can0 477#0700717B9A001400
(1426617176.259431) can0 475#A2131A4945000000
(1426617176.259731) can0 306#1000000000000000
(1426617176.259979) can0 294#00009CFFFA000000
(1426617176.260224) can0 270#C013000000000000
(1426617176.279253) can0 477#07006F7B9A001400
(1426617176.359345) can0 475#9C131A4945000000
(1426617176.359667) can0 306#1000000000000000
(1426617176.359929) can0 294#00009CFFFA000000
(1426617176.360174) can0 270#BF13000000000000
(1426617176.376061) can0 477#0700707B9A001400
(1426617176.459371) can0 475#9E131A4945000000
(1426617176.459705) can0 306#0F00000000000000
(1426617176.459965) can0 294#00009CFFFA000000
(1426617176.460212) can0 270#C013000000000000
(1426617176.473012) can0 477#0700707B9A001400
(1426617176.559274) can0 475#A0131A4945000000
(1426617176.559610) can0 306#0F00000000000000
(1426617176.559862) can0 294#00009CFFFA000000
(1426617176.560111) can0 270#C013000000000000
(1426617176.570005) can0 477#0700707B9A001400
(1426617176.659302) can0 475#AF131A4945000000
(1426617176.659608) can0 306#0F00000000000000
(1426617176.659858) can0 294#00009CFFFA000000
(1426617176.660102) can0 270#C013000000000000
(1426617176.666965) can0 477#07006F7B9A001400
(1426617176.759284) can0 475#AD131A4945000000
(1426617176.759586) can0 306#1000000000000000
(1426617176.759983) can0 294#00009CFFFA000000
(1426617176.760236) can0 270#BF13000000000000
(1426617176.763946) can0 477#0700707B9A001400
(1426617176.859285) can0 475#AD131A4945000000
(1426617176.859707) can0 306#1000000000000000
(1426617176.859954) can0 294#00009CFFFA000000
(1426617176.860197) can0 270#BF13000000000000
(1426617176.860846) can0 477#0700707B9A001400
(1426617176.957897) can0 477#0700707B9A001400
(1426617176.959641) can0 475#AB131A4945000000
(1426617176.959921) can0 306#1000000000000000
(1426617176.960179) can0 294#00009CFFFA000000
(1426617176.960428) can0 270#C013000000000000
(1426617177.054821) can0 477#0700707B9A001400
(1426617177.059620) can0 475#A4131A4945000000
(1426617177.059911) can0 306#1100000000000000
(1426617177.060160) can0 294#00009CFFFA000000
(1426617177.060402) can0 270#C013000000000000
(1426617177.151827) can0 477#0700707B9A001400
(1426617177.159591) can0 475#A9131A4945000000
(1426617177.159904) can0 306#1100000000000000
(1426617177.160155) can0 294#00009CFFFA000000
(1426617177.160397) can0 270#C013000000000000
(1426617177.248762) can0 477#0700707B9A001400
(1426617177.259563) can0 475#A4131A4945000000
(1426617177.259855) can0 306#1000000000000000
(1426617177.260103) can0 294#00009CFFFA000000
(1426617177.260346) can0 270#C013000000000000
(1426617177.345753) can0 477#0700717B9A001400
(1426617177.359494) can0 475#9E131A4945000000
(1426617177.359820) can0 306#1000000000000000
(1426617177.360070) can0 294#00009CFFFA000000
(1426617177.360315) can0 270#C013000000000000
(1426617177.442795) can0 477#0700717B9A001400
(1426617177.459310) can0 475#A6131A4945000000
(1426617177.459608) can0 306#1000000000000000
(1426617177.459860) can0 294#00009CFFFA000000
(1426617177.460104) can0 270#C013000000000000
(1426617177.539707) can0 477#0700717B9A001400
(1426617177.559458) can0 475#A4131A4945000000
(1426617177.559771) can0 306#1000000000000000
(1426617177.560021) can0 294#00009CFFFA000000
(1426617177.560267) can0 270#C013000000000000
(1426617177.636660) can0 477#07006F7B9A001400
(1426617177.659364) can0 475#9E131A4945000000
(1426617177.659696) can0 306#1000000000000000
(1426617177.659967) can0 294#00009CFFFA000000
(1426617177.660211) can0 270#BF13000000000000
(1426617177.733813) can0 477#0700707B9A001400
(1426617177.759496) can0 475#A4131A4945000000
(1426617177.759876) can0 306#0F00000000000000
(1426617177.760166) can0 294#00009CFFFA000000
(1426617177.760416) can0 270#BF13000000000000
(1426617177.830564) can0 477#0700707B9A001400
(1426617177.859463) can0 475#9E131A4945000000
(1426617177.859729) can0 306#0F00000000000000
(1426617177.860093) can0 294#00009CFFFA000000
(1426617177.860365) can0 270#C013000000000000
(1426617177.927561) can0 477#0700707B9A001400
(1426617177.959440) can0 475#A0131A4945000000
(1426617177.959814) can0 306#0F00000000000000
(1426617177.960075) can0 294#00009CFFFA000000
(1426617177.960367) can0 270#C013000000000000
(1426617178.024539) can0 477#0700707B9A001400
(1426617178.059397) can0 475#A8131A4945000000
(1426617178.059722) can0 306#1000000000000000
(1426617178.059974) can0 294#00009CFFFA000000
(1426617178.060258) can0 270#C013000000000000
(1426617178.121502) can0 477#0600707B9A001400
(1426617178.159336) can0 475#AB131A4945000000
(1426617178.159803) can0 306#1000000000000000
(1426617178.160054) can0 294#00009CFFFA000000
(1426617178.160330) can0 270#C013000000000000
(1426617178.218601) can0 477#0700707B9A001400
(1426617178.259367) can0 475#A6131A4945000000
(1426617178.259778) can0 306#1000000000000000
(1426617178.260035) can0 294#00009CFFFA000000
(1426617178.260281) can0 270#C013000000000000
(1426617178.315454) can0 477#0700707B9A001400
(1426617178.359271) can0 475#A4131A4945000000
(1426617178.359716) can0 306#1000000000000000
(1426617178.359967) can0 294#00009CFFFA000000
(1426617178.360210) can0 270#C013000000000000
(1426617178.412411) can0 477#0600707B9A001400
(1426617178.459229) can0 475#A2131A4945000000
(1426617178.459690) can0 306#0F00000000000000
(1426617178.459942) can0 294#00009CFFFA000000
(1426617178.460222) can0 270#C013000000000000
(1426617178.509410) can0 477#0700707B9A001400
(1426617178.559451) can0 475#A9131A4945000000
(1426617178.559748) can0 306#0F00000000000000
(1426617178.559994) can0 294#00009CFFFA000000
(1426617178.560244) can0 270#C013000000000000
(1426617178.606331) can0 477#0700707B9A001400
(1426617178.659407) can0 475#A4131A4945000000
(1426617178.659717) can0 306#0F00000000000000
(1426617178.659972) can0 294#00009CFFFA000000
(1426617178.660220) can0 270#C013000000000000
(1426617178.703281) can0 477#0700707B9A001400
(1426617178.759448) can0 475#A4131A4945000000
(1426617178.759735) can0 306#1000000000000000
(1426617178.760016) can0 294#00009CFFFA000000
(1426617178.760263) can0 270#C013000000000000
(1426617178.800269) can0 477#0700707B9A001400
(1426617178.859310) can0 475#A8131A4945000000
(1426617178.859624) can0 306#0F00000000000000
(1426617178.859886) can0 294#00009CFFFA000000
(1426617178.860150) can0 270#C013000000000000
(1426617178.897241) can0 477#0700707B9A001400
(1426617178.959150) can0 475#9E131A4945000000
(1426617178.959564) can0 306#0F00000000000000
(1426617178.959817) can0 294#00009CFFFA000000
(1426617178.960061) can0 270#C013000000000000
(1426617178.994235) can0 477#0700707B9A001400
(1426617179.059299) can0 475#AB131A4945000000
(1426617179.059597) can0 306#1000000000000000
(1426617179.059850) can0 294#00009CFFFA000000
(1426617179.060095) can0 270#C013000000000000
(1426617179.091188) can0 477#07006F7B9A001400
(1426617179.159298) can0 475#9A131A4945000000
(1426617179.159612) can0 306#1000000000000000
(1426617179.159873) can0 294#00009CFFFA000000
(1426617179.160121) can0 270#C013000000000000
(1426617179.188169) can0 477#0700717B9A001400
(1426617179.259306) can0 475#A9131A4945000000
(1426617179.259701) can0 306#1000000000000000
(1426617179.259946) can0 294#00009CFFFA000000
(1426617179.260195) can0 270#C013000000000000
(1426617179.285129) can0 477#0700717B9A001400
(1426617179.359417) can0 475#A8131A4945000000
(1426617179.359721) can0 306#1100000000000000
(1426617179.359969) can0 294#00009CFFFA000000
(1426617179.360220) can0 270#C013000000000000
(1426617179.382075) can0 477#0700707B9A001400
(1426617179.459459) can0 475#A6131A4945000000
(1426617179.459736) can0 306#1100000000000000
(1426617179.459994) can0 294#00009CFFFA000000
(1426617179.460236) can0 270#C013000000000000
(1426617179.479069) can0 477#0700707B9A001400
(1426617179.559409) can0 475#9C131A4945000000
(1426617179.559722) can0 306#1100000000000000
(1426617179.559965) can0 294#00009CFFFA000000
(1426617179.560206) can0 270#C013000000000000
(1426617179.576030) can0 477#0700707B9A001400
(1426617179.659328) can0 475#A9131A4945000000
(1426617179.659627) can0 306#1100000000000000
(1426617179.659873) can0 294#00009CFFFA000000
(1426617179.660113) can0 270#C013000000000000
(1426617179.672955) can0 477#0700707B9A001400
(1426617179.759329) can0 475#AB131A4945000000
(1426617179.759628) can0 306#1100000000000000
(1426617179.759952) can0 294#00009CFFFA000000
(1426617179.760209) can0 270#C013000000000000
(1426617179.769991) can0 477#0700707B9A001400
(1426617179.859247) can0 475#A8131A4945000000
(1426617179.859564) can0 306#1100000000000000
(1426617179.859824) can0 294#00009CFFFA000000
(1426617179.860065) can0 270#C013000000000000
(1426617179.867011) can0 477#0700707B9A001400
(1426617179.959311) can0 475#A0131A4945000000
(1426617179.959601) can0 306#1200000000000000
(1426617179.959861) can0 294#00009CFFFA000000
(1426617179.960126) can0 270#C013000000000000
(1426617179.963918) can0 477#0700707B9A001400
(1426617180.059432) can0 475#9E131A4945000000
(1426617180.059740) can0 306#1100000000000000
(1426617180.059989) can0 294#00009CFFFA000000
(1426617180.060233) can0 270#C013000000000000
(1426617180.060762) can0 477#0700707B9A001400
(1426617180.158059) can0 477#0700707B9A001400
(1426617180.159742) can0 475#9C131A4945000000
(1426617180.160024) can0 306#1000000000000000
(1426617180.160284) can0 294#00009CFFFA000000
(1426617180.160562) can0 270#C013000000000000
(1426617180.254833) can0 477#0700707B9A001400
(1426617180.259648) can0 475#A4131A4945000000
(1426617180.259932) can0 306#1000000000000000
(1426617180.260178) can0 294#00009CFFFA000000
(1426617180.260415) can0 270#C013000000000000
(1426617180.351755) can0 477#0700707B9A001400
(1426617180.359563) can0 475#A9131A4945000000
(1426617180.359860) can0 306#1100000000000000
(1426617180.360126) can0 294#00009CFFFA000000
(1426617180.360380) can0 270#C013000000000000
(1426617180.448777) can0 477#0700717B9A001400
(1426617180.459528) can0 475#A2131A4945000000
(1426617180.459832) can0 306#1100000000000000
(1426617180.460108) can0 294#00009CFFFA000000
(1426617180.460361) can0 270#C013000000000000
(1426617180.545731) can0 477#07006F7B9A001400
(1426617180.559524) can0 475#A2131A4945000000
(1426617180.559821) can0 306#1000000000000000
(1426617180.560065) can0 294#00009CFFFA000000
(1426617180.560316) can0 270#C013000000000000
(1426617180.642687) can0 477#0700707B9A001400
(1426617180.659499) can0 475#AB131A4945000000
(1426617180.659790) can0 306#1000000000000000
(1426617180.660306) can0 270#C013000000000000
(1426617180.660526) can0 294#00009CFFFA000000
(1426617180.739670) can0 477#0700707B9A001400
(1426617180.759556) can0 475#A6131A4945000000
(1426617180.759818) can0 306#1000000000000000
(1426617180.760221) can0 294#00009CFFFA000000
(1426617180.760471) can0 270#C013000000000000
(1426617180.837831) can0 477#07006F7B9A001400
(1426617180.859501) can0 475#A4131A4945000000
(1426617180.859926) can0 306#1000000000000000
(1426617180.860198) can0 294#00009CFFFA000000
(1426617180.860448) can0 270#C013000000000000
(1426617180.934141) can0 477#0700707B9A001400
(1426617180.959525) can0 475#A8131A4945000000
(1426617180.959902) can0 306#0F00000000000000
(1426617180.960164) can0 294#00009CFFFA000000
(1426617180.960462) can0 270#C013000000000000
(1426617181.031595) can0 477#0700707B9A001400
(1426617181.059718) can0 475#A8131A4945000000
(1426617181.060073) can0 306#0F00000000000000
(1426617181.060337) can0 294#00009CFFFA000000
(1426617181.060612) can0 270#C013000000000000
(1426617181.128333) can0 477#0700707B9A001400
(1426617181.159447) can0 475#A2131A4945000000
(1426617181.159720) can0 306#0F00000000000000
(1426617181.160105) can0 294#00009CFFFA000000
(1426617181.160395) can0 270#C013000000000000
(1426617181.224456) can0 477#07006F7B9A001400
(1426617181.259632) can0 475#A8131A4945000000
(1426617181.259903) can0 306#0F00000000000000
(1426617181.260146) can0 294#00009CFFFA000000
(1426617181.260387) can0 270#C013000000000000
(1426617181.321486) can0 477#0700707B9A001400
(1426617181.359521) can0 475#9C131A4945000000
(1426617181.359854) can0 306#0F00000000000000
(1426617181.360130) can0 294#00009CFFFA000000
(1426617181.360384) can0 270#C013000000000000
(1426617181.418469) can0 477#0700707B9A001400
(1426617181.459379) can0 475#9C131A4945000000
(1426617181.459768) can0 306#0F00000000000000
(1426617181.460020) can0 294#00009CFFFA000000
(1426617181.460261) can0 270#C013000000000000
(1426617181.515392) can0 477#0700707B9A001400
(1426617181.559338) can0 475#A0131A4945000000
(1426617181.559748) can0 306#0F00000000000000
(1426617181.559991) can0 294#00009CFFFA000000
(1426617181.560231) can0 270#C013000000000000
(1426617181.612354) can0 477#0700707B9A001400
(1426617181.659455) can0 475#A8131A4945000000
(1426617181.659756) can0 306#0F00000000000000
(1426617181.660025) can0 294#00009CFFFA000000
(1426617181.660290) can0 270#C013000000000000
(1426617181.709348) can0 477#0700707B9A001400
(1426617181.759472) can0 475#AB131A4945000000
(1426617181.759768) can0 306#0F00000000000000
(1426617181.760014) can0 294#00009CFFFA000000
(1426617181.760257) can0 270#C013000000000000
(1426617181.806313) can0 477#0700707B9A001400
(1426617181.859387) can0 475#9E131A4945000000
(1426617181.859698) can0 306#1000000000000000
(1426617181.859946) can0 294#00009CFFFA000000
(1426617181.860186) can0 270#C013000000000000
(1426617181.903252) can0 477#07006F7B9A001400
(1426617181.959382) can0 475#A8131A4945000000
(1426617181.959680) can0 306#1000000000000000
(1426617181.959935) can0 294#00009CFFFA000000
(1426617181.960179) can0 270#BF13000000000000
(1426617182.000266) can0 477#0700707B9A001400
(1426617182.059379) can0 475#A6131A4945000000
(1426617182.059692) can0 306#1000000000000000
(1426617182.059941) can0 294#00009CFFFA000000
(1426617182.060184) can0 270#BF13000000000000
(1426617182.097395) can0 477#0700707B9A001400
(1426617182.159551) can0 475#A9131A4945000000
(1426617182.159856) can0 306#1000000000000000
(1426617182.160101) can0 294#00009CFFFA000000
(1426617182.160356) can0 270#C013000000000000
(1426617182.194171) can0 477#0700707B9A001400
(1426617182.259501) can0 475#A4131A4945000000
(1426617182.259798) can0 306#1000000000000000
(1426617182.260048) can0 294#00009CFFFA000000
(1426617182.260296) can0 270#C013000000000000
(1426617182.291207) can0 477#0700707B9A001400
(1426617182.359485) can0 475#9C131A4945000000
(1426617182.359775) can0 306#0F00000000000000
(1426617182.360030) can0 294#00009CFFFA000000
(1426617182.360276) can0 270#C013000000000000
(1426617182.388096) can0 477#0700707B9A001400
(1426617182.459477) can0 475#A9131A4945000000
(1426617182.460431) can0 306#0F00000000000000
(1426617182.460688) can0 294#00009CFFFA000000
(1426617182.485105) can0 477#0700707B9A001400
(1426617182.559447) can0 475#A4131A4945000000
(1426617182.559785) can0 306#0F00000000000000
(1426617182.560033) can0 294#00009CFFFA000000
(1426617182.560273) can0 270#C013000000000000
(1426617182.582079) can0 477#0600707B9A001400
(1426617182.659463) can0 475#A0131A4945000000
(1426617182.659752) can0 306#1000000000000000
(1426617182.660000) can0 294#00009CFFFA000000
(1426617182.660244) can0 270#C013000000000000
(1426617182.678992) can0 477#0700707B9A001400
(1426617182.759448) can0 475#A2131A4945000000
(1426617182.759772) can0 306#1000000000000000
(1426617182.760030) can0 294#00009CFFFA000000
(1426617182.760275) can0 270#C013000000000000
(1426617182.775989) can0 477#0700717B9A001400
(1426617182.859358) can0 475#A6131A4945000000
(1426617182.859651) can0 306#1100000000000000
(1426617182.859907) can0 294#00009CFFFA000000
(1426617182.860157) can0 270#C013000000000000
(1426617182.872967) can0 477#07006F7B9A001400
(1426617182.959346) can0 475#A9131A4945000000
(1426617182.959639) can0 306#1100000000000000
(1426617182.959899) can0 294#00009CFFFA000000
(1426617182.960142) can0 270#C013000000000000
(1426617182.969953) can0 477#0700707B9A001400
(1426617183.059404) can0 475#A4131A4945000000
(1426617183.059722) can0 306#1100000000000000
(1426617183.059973) can0 294#00009CFFFA000000
(1426617183.060217) can0 270#C013000000000000
(1426617183.066913) can0 477#0600707B9A001400
(1426617183.159348) can0 475#A9131A4945000000
(1426617183.159780) can0 306#1000000000000000
(1426617183.160033) can0 294#00009CFFFA000000
(1426617183.160279) can0 270#C013000000000000
(1426617183.163912) can0 477#0700707B9A001400
(1426617183.259482) can0 475#A4131A4945000000
(1426617183.259785) can0 306#1000000000000000
(1426617183.260038) can0 294#00009CFFFA000000
(1426617183.260309) can0 270#C013000000000000
(1426617183.260757) can0 477#0700707B9A001400
(1426617183.357791) can0 477#07006F7B9A001400
(1426617183.359449) can0 475#9A131A4945000000
(1426617183.359740) can0 306#1000000000000000
(1426617183.360006) can0 294#00009CFFFA000000
(1426617183.360275) can0 270#C013000000000000
(1426617183.454751) can0 477#0700717B9A001400
(1426617183.459450) can0 475#A8131A4945000000
(1426617183.459752) can0 306#1100000000000000
(1426617183.460004) can0 294#00009CFFFA000000
(1426617183.460285) can0 270#C013000000000000
(1426617183.551755) can0 477#0700707B9A001400
(1426617183.559362) can0 475#A6131A4945000000
(1426617183.559662) can0 306#1100000000000000
(1426617183.559937) can0 294#00009CFFFA000000
(1426617183.560197) can0 270#C013000000000000
(1426617183.649321) can0 477#07006F7B9A001400
(1426617183.659415) can0 475#9E131A4945000000
(1426617183.659703) can0 306#1200000000000000
(1426617183.659950) can0 294#00009CFFFA000000
(1426617183.660192) can0 270#C013000000000000
(1426617183.745661) can0 477#0700707B9A001400
(1426617183.759355) can0 475#A2131A4945000000
(1426617183.759641) can0 306#1200000000000000
(1426617183.759910) can0 294#00009CFFFA000000
(1426617183.760168) can0 270#C013000000000000
(1426617183.843712) can0 477#0700707B9A001400
(1426617183.859543) can0 475#A6131A4945000000
(1426617183.859850) can0 306#1200000000000000
(1426617183.860102) can0 294#00009CFFFA000000
(1426617183.860346) can0 270#C013000000000000
(1426617183.939647) can0 477#0700707B9A001400
(1426617183.959601) can0 475#A0131A4945000000
(1426617183.959873) can0 306#1200000000000000
(1426617183.960115) can0 294#00009CFFFA000000
(1426617183.960359) can0 270#C013000000000000
(1426617184.036736) can0 477#0700717B9A001400
(1426617184.059751) can0 475#A0131A4945000000
(1426617184.060040) can0 306#1200000000000000
(1426617184.060293) can0 294#00009CFFFA000000
(1426617184.060536) can0 270#C013000000000000
(1426617184.134812) can0 477#07006F7B9A001400
(1426617184.159553) can0 475#A6131A4945000000
(1426617184.159929) can0 306#1200000000000000
(1426617184.160208) can0 294#00009CFFFA000000
(1426617184.160460) can0 270#C013000000000000
(1426617184.230495) can0 477#0600717B9A001400
(1426617184.259657) can0 475#A4131A4945000000
(1426617184.259953) can0 306#1200000000000000
(1426617184.260203) can0 294#00009CFFFA000000
(1426617184.260447) can0 270#C013000000000000
(1426617184.327475) can0 477#07006F7B9A001400
(1426617184.359432) can0 475#9E131A4945000000
(1426617184.359872) can0 306#1200000000000000
(1426617184.360121) can0 294#00009CFFFA000000
(1426617184.360374) can0 270#BF13000000000000
(1426617184.424916) can0 477#0700707B9A001400
(1426617184.459489) can0 475#A8131A4945000000
(1426617184.459900) can0 306#1200000000000000
(1426617184.460164) can0 294#00009CFFFA000000
(1426617184.460411) can0 270#BF13000000000000
(1426617184.521451) can0 477#0700707B9A001400
(1426617184.559418) can0 475#A0131A4945000000
(1426617184.559791) can0 306#1200000000000000
(1426617184.560058) can0 294#00009CFFFA000000
(1426617184.560365) can0 270#BF13000000000000
(1426617184.618387) can0 477#0700707B9A001400
(1426617184.659377) can0 475#9E131A4945000000
(1426617184.659770) can0 306#1200000000000000
(1426617184.660017) can0 294#00009CFFFA000000
(1426617184.660261) can0 270#C013000000000000
(1426617184.715442) can0 477#0700707B9A001400
(1426617184.759307) can0 475#A6131A4945000000
(1426617184.759780) can0 306#1200000000000000
(1426617184.760034) can0 294#00009CFFFA000000
(1426617184.760287) can0 270#C013000000000000
(1426617184.812348) can0 477#0700717B9A001400
(1426617184.859474) can0 475#A2131A4945000000
(1426617184.859767) can0 306#1200000000000000
(1426617184.860016) can0 294#00009CFFFA000000
(1426617184.860256) can0 270#C013000000000000
(1426617184.909303) can0 477#07006F7B9A001400
(1426617184.959481) can0 475#A8131A4945000000
(1426617184.959775) can0 306#1200000000000000
(1426617184.960027) can0 294#00009CFFFA000000
(1426617184.960308) can0 270#BF13000000000000
(1426617185.006272) can0 477#0700707B9A001400
(1426617185.059455) can0 475#A6131A4945000000
(1426617185.059762) can0 306#1200000000000000
(1426617185.060011) can0 294#00009CFFFA000000
(1426617185.060258) can0 270#BF13000000000000
(1426617185.103249) can0 477#0700717B9A001400
(1426617185.159448) can0 475#9C131A4945000000
(1426617185.159737) can0 306#1200000000000000
(1426617185.159983) can0 294#00009CFFFA000000
(1426617185.160227) can0 270#C013000000000000
(1426617185.200231) can0 477#0700707B9A001400
(1426617185.259387) can0 475#9C131A4945000000
(1426617185.259672) can0 306#1200000000000000
(1426617185.259920) can0 294#00009CFFFA000000
(1426617185.260176) can0 270#C013000000000000
(1426617185.297156) can0 477#0700707B9A001400
(1426617185.359303) can0 475#A0131A4945000000
(1426617185.359611) can0 306#1200000000000000
(1426617185.359880) can0 294#00009CFFFA000000
(1426617185.360125) can0 270#C013000000000000
(1426617185.394123) can0 477#0700717B9A001400
(1426617185.459533) can0 475#A6131A4945000000
(1426617185.459812) can0 306#1200000000000000
(1426617185.460059) can0 294#00009CFFFA000000
(1426617185.460303) can0 270#C013000000000000
(1426617185.491097) can0 477#0700707B9A001400
(1426617185.559336) can0 475#A0131A4945000000
(1426617185.559639) can0 306#1200000000000000
(1426617185.559991) can0 294#00009CFFFA000000
(1426617185.560247) can0 270#C013000000000000
(1426617185.588087) can0 477#07006F7B9A001400
(1426617185.659399) can0 475#A4131A4945000000
(1426617185.659792) can0 306#1100000000000000
(1426617185.660071) can0 294#00009CFFFA000000
(1426617185.660327) can0 270#C013000000000000
(1426617185.685060) can0 477#0700707B9A001400
(1426617185.759459) can0 475#AF131A4945000000
(1426617185.759782) can0 306#1100000000000000
(1426617185.760036) can0 294#00009CFFFA000000
(1426617185.760288) can0 270#C013000000000000
(1426617185.781998) can0 477#07006F7B9A001400
(1426617185.859261) can0 475#A9131A4945000000
(1426617185.859588) can0 306#1100000000000000
(1426617185.859948) can0 294#00009CFFFA000000
(1426617185.860205) can0 270#C013000000000000
(1426617185.878975) can0 477#0600707B9A001400
(1426617185.959395) can0 475#AB131A4945000000
(1426617185.959718) can0 306#1100000000000000
(1426617185.959977) can0 294#00009CFFFA000000
(1426617185.960326) can0 270#C013000000000000
(1426617185.976146) can0 477#0700717B9A001400
(1426617186.059415) can0 475#A9131A4945000000
(1426617186.059723) can0 306#1100000000000000
(1426617186.059928) can0 294#00009CFFFA000000
(1426617186.060171) can0 270#C013000000000000
(1426617186.072965) can0 477#07006F7B9A001400
(1426617186.159421) can0 475#A2131A4945000000
(1426617186.159764) can0 306#1100000000000000
(1426617186.160017) can0 294#00009CFFFA000000
(1426617186.160252) can0 270#C013000000000000
(1426617186.169910) can0 477#0700707B9A001400
(1426617186.259461) can0 475#A9131A4945000000
(1426617186.259780) can0 306#1100000000000000
(1426617186.260064) can0 294#00009CFFFA000000
(1426617186.260318) can0 270#C013000000000000
(1426617186.266867) can0 477#0700707B9A001400
(1426617186.359717) can0 475#9E131A4945000000
(1426617186.360037) can0 306#1100000000000000
(1426617186.360287) can0 294#00009CFFFA000000
(1426617186.360543) can0 270#C013000000000000
(1426617186.363819) can0 477#0700707B9A001400
(1426617186.459816) can0 475#A6131A4945000000
(1426617186.460102) can0 306#1100000000000000
(1426617186.460349) can0 294#00009CFFFA000000
(1426617186.460594) can0 270#C013000000000000
(1426617186.461019) can0 477#0700707B9A001400
(1426617186.558778) can0 477#07006F7B9A001400
(1426617186.559703) can0 475#A2131A4945000000
(1426617186.559990) can0 306#1100000000000000
(1426617186.560242) can0 294#00009CFFFA000000
(1426617186.560484) can0 270#C013000000000000
(1426617186.654757) can0 477#0700707B9A001400
(1426617186.659650) can0 475#A0131A4945000000
(1426617186.659970) can0 306#1000000000000000
(1426617186.660222) can0 294#00009CFFFA000000
(1426617186.660466) can0 270#C013000000000000
(1426617186.751687) can0 477#07006F7B9A001400
(1426617186.759650) can0 475#A4131A4945000000
(1426617186.759940) can0 306#1100000000000000
(1426617186.760184) can0 294#00009CFFFA000000
(1426617186.760426) can0 270#BF13000000000000
(1426617186.848700) can0 477#07006F7B9A001400
(1426617186.859712) can0 475#A4131A4945000000
(1426617186.860007) can0 306#1100000000000000
(1426617186.860260) can0 294#00009CFFFA000000
(1426617186.860502) can0 270#BF13000000000000
(1426617186.945638) can0 477#0700707B9A001400
(1426617186.959519) can0 475#AD131A4945000000
(1426617186.959872) can0 306#1200000000000000
(1426617186.960126) can0 294#00009CFFFA000000
(1426617186.960370) can0 270#C013000000000000
(1426617187.043805) can0 477#0700717B9A001400
(1426617187.059595) can0 475#A9131A4945000000
(1426617187.059894) can0 306#1300000000000000
(1426617187.060153) can0 294#00009CFFFA000000
(1426617187.060396) can0 270#C013000000000000
(1426617187.139633) can0 477#0700707B9A001400
(1426617187.159801) can0 475#A6131A4945000000
(1426617187.160072) can0 306#1300000000000000
(1426617187.160368) can0 294#00009CFFFA000000
(1426617187.160623) can0 270#C013000000000000
(1426617187.236588) can0 477#07006F7B9A001400
(1426617187.259613) can0 475#9C131A4945000000
(1426617187.259888) can0 306#1200000000000000
(1426617187.260283) can0 294#00009CFFFA000000
(1426617187.260535) can0 270#C013000000000000
(1426617187.333615) can0 477#0700707B9A001400
(1426617187.359526) can0 475#AB131A4945000000
(1426617187.359973) can0 306#1200000000000000
(1426617187.360231) can0 294#00009CFFFA000000
(1426617187.360478) can0 270#C013000000000000
(1426617187.431285) can0 477#0700707B9A001400
(1426617187.459549) can0 475#9C131A4945000000
(1426617187.459823) can0 306#1200000000000000
(1426617187.460207) can0 294#00009CFFFA000000
(1426617187.460458) can0 270#C013000000000000
(1426617187.527975) can0 477#07006F7B9A001400
(1426617187.559692) can0 475#A8131A4945000000
(1426617187.559967) can0 306#1200000000000000
(1426617187.560215) can0 294#00009CFFFA000000
(1426617187.560461) can0 270#C013000000000000
(1426617187.624749) can0 477#0600707B9A001400
(1426617187.659476) can0 475#A6131A4945000000
(1426617187.659891) can0 306#1200000000000000
(1426617187.660135) can0 294#00009CFFFA000000
(1426617187.660378) can0 270#C013000000000000
(1426617187.721436) can0 477#0700707B9A001400
(1426617187.759407) can0 475#AB131A4945000000
(1426617187.759692) can0 306#1200000000000000
(1426617187.760387) can0 294#00009CFFFA000000
(1426617187.818365) can0 477#0700707B9A001400
(1426617187.859383) can0 475#B1131A4945000000
(1426617187.859758) can0 306#1200000000000000
(1426617187.860131) can0 294#00009CFFFA000000
(1426617187.860377) can0 270#C013000000000000
(1426617187.915462) can0 477#07006F7B9A001400
(1426617187.959354) can0 475#AD131A4945000000
(1426617187.959629) can0 306#1200000000000000
(1426617187.960008) can0 294#00009CFFFA000000
(1426617187.960274) can0 270#BF13000000000000
(1426617188.012311) can0 477#0700707B9A001400
(1426617188.059644) can0 475#A4131A4945000000
(1426617188.059970) can0 294#00009CFFFA000000
(1426617188.060179) can0 306#1200000000000000
(1426617188.060428) can0 270#BF13000000000000
(1426617188.109272) can0 477#0700707B9A001400
(1426617188.159274) can0 475#9C131A4945000000
(1426617188.159740) can0 306#1200000000000000
(1426617188.159996) can0 294#00009CFFFA000000
(1426617188.160240) can0 270#C013000000000000
(1426617188.206275) can0 477#0700707B9A001400
(1426617188.259435) can0 475#A0131A4945000000
(1426617188.259806) can0 306#1200000000000000
(1426617188.260065) can0 270#C013000000000000
(1426617188.260266) can0 294#00009CFFFA000000
(1426617188.303223) can0 477#07006F7B9A001400
(1426617188.359210) can0 475#A4131A4945000000
(1426617188.359647) can0 306#1200000000000000
(1426617188.359920) can0 294#00009CFFFA000000
(1426617188.360174) can0 270#C013000000000000
(1426617188.400185) can0 477#07006F7B9A001400
(1426617188.459441) can0 475#A2131A4945000000
(1426617188.459818) can0 294#00009CFFFA000000
(1426617188.460028) can0 306#1200000000000000
(1426617188.460275) can0 270#C013000000000000
(1426617188.497146) can0 477#0700707B9A001400
(1426617188.559381) can0 475#A2131A4945000000
(1426617188.559701) can0 306#1200000000000000
(1426617188.559953) can0 294#00009CFFFA000000
(1426617188.560201) can0 270#C013000000000000
(1426617188.594119) can0 477#0700707B9A001400
(1426617188.659378) can0 475#A4131A4945000000
(1426617188.659881) can0 306#1200000000000000
(1426617188.660134) can0 294#00009CFFFA000000
(1426617188.660382) can0 270#C013000000000000
(1426617188.691091) can0 477#0700717B9A001400
(1426617188.759587) can0 475#A0131A4945000000
(1426617188.759885) can0 306#1200000000000000
(1426617188.760151) can0 294#00009CFFFA000000
(1426617188.760400) can0 270#C013000000000000
(1426617188.788081) can0 477#0600707B9A001400
(1426617188.859525) can0 475#A4131A4945000000
(1426617188.859885) can0 306#1100000000000000
(1426617188.860135) can0 270#C013000000000000
(1426617188.860332) can0 294#00009CFFFA000000
(1426617188.885045) can0 477#07006F7B9A001400
(1426617188.959469) can0 475#9C131A4945000000
(1426617188.959772) can0 306#1100000000000000
(1426617188.960027) can0 294#00009CFFFA000000
(1426617188.960318) can0 270#C013000000000000
(1426617188.981998) can0 477#0700707B9A001400
(1426617189.059437) can0 475#9E131A4945000000
(1426617189.059835) can0 306#1100000000000000
(1426617189.060046) can0 294#00009CFFFA000000
(1426617189.060293) can0 270#C013000000000000
(1426617189.078960) can0 477#0700707B9A001400
(1426617189.159464) can0 475#A2131A4945000000
(1426617189.159748) can0 306#1100000000000000
(1426617189.159994) can0 294#00009CFFFA000000
(1426617189.160236) can0 270#C013000000000000
(1426617189.175952) can0 477#07006F7B9A001400
(1426617189.259439) can0 475#A0131A4945000000
(1426617189.259815) can0 306#1100000000000000
(1426617189.260215) can0 294#00009CFFFA000000
(1426617189.260567) can0 270#C013000000000000
(1426617189.272933) can0 477#07006F7B9A001400
(1426617189.359391) can0 475#A0131A4945000000
(1426617189.359836) can0 306#1000000000000000
(1426617189.360085) can0 294#00009CFFFA000000
(1426617189.360329) can0 270#BF13000000000000
(1426617189.369857) can0 477#0700707B9A001400
(1426617189.459388) can0 475#AD131A4945000000
(1426617189.459733) can0 306#1000000000000000
(1426617189.460138) can0 294#00009CFFFA000000
(1426617189.460388) can0 270#C013000000000000
(1426617189.466837) can0 477#0700707B9A001400
(1426617189.559718) can0 475#A8131A4945000000
(1426617189.560071) can0 306#1100000000000000
(1426617189.561020) can0 294#00009CFFFA000000
(1426617189.561284) can0 270#C013000000000000
(1426617189.563901) can0 477#0700707B9A001400
(1426617189.659753) can0 475#A4131A4945000000
(1426617189.660083) can0 306#1100000000000000
(1426617189.660335) can0 294#00009CFFFA000000
(1426617189.660592) can0 270#C013000000000000
(1426617189.661003) can0 477#0700707B9A001400
(1426617189.757730) can0 477#0700707B9A001400
(1426617189.759716) can0 475#A8131A4945000000
(1426617189.759998) can0 306#1100000000000000
(1426617189.760246) can0 294#00009CFFFA000000
(1426617189.760495) can0 270#BF13000000000000
(1426617189.854862) can0 477#0700707B9A001400
(1426617189.859805) can0 475#A9131A4945000000
(1426617189.860085) can0 306#1200000000000000
(1426617189.860345) can0 294#00009CFFFA000000
(1426617189.860591) can0 270#BF13000000000000
(1426617189.951694) can0 477#0700707B9A001400
(1426617189.959435) can0 475#A4131A4945000000
(1426617189.959732) can0 306#1300000000000000
(1426617189.960006) can0 294#00009CFFFA000000
(1426617189.960255) can0 270#C013000000000000
(1426617190.049063) can0 477#0600707B9A001400
(1426617190.059635) can0 475#A0131A4945000000
(1426617190.060006) can0 306#1300000000000000
(1426617190.060260) can0 270#C013000000000000
(1426617190.060461) can0 294#00009CFFFA000000
(1426617190.145645) can0 477#0700707B9A001400
(1426617190.159660) can0 475#A2131A4945000000
(1426617190.160032) can0 306#1300000000000000
(1426617190.160293) can0 294#00009CFFFA000000
(1426617190.160556) can0 270#C013000000000000
(1426617190.242568) can0 477#07006F7B9A001400
(1426617190.259689) can0 475#A6131A4945000000
(1426617190.260015) can0 306#1300000000000000
(1426617190.260266) can0 294#00009CFFFA000000
(1426617190.260512) can0 270#BF13000000000000
(1426617190.339702) can0 477#0700707B9A001400
(1426617190.359596) can0 475#9C131A4945000000
(1426617190.360033) can0 306#1300000000000000
(1426617190.360297) can0 294#00009CFFFA000000
(1426617190.360552) can0 270#C013000000000000
(1426617190.436508) can0 477#0700707B9A001400
(1426617190.459865) can0 475#A9131A4945000000
(1426617190.460145) can0 306#1300000000000000
(1426617190.460395) can0 294#00009CFFFA000000
(1426617190.460641) can0 270#C013000000000000
(1426617190.533615) can0 477#0700707B9A001400
(1426617190.559548) can0 475#A0131A4945000000
(1426617190.559921) can0 306#1200000000000000
(1426617190.560189) can0 294#00009CFFFA000000
(1426617190.560454) can0 270#C013000000000000
(1426617190.630453) can0 477#0700707B9A001400
(1426617190.659714) can0 475#A9131A4945000000
(1426617190.660057) can0 306#1200000000000000
(1426617190.660312) can0 294#00009CFFFA000000
(1426617190.660558) can0 270#C013000000000000
(1426617190.727990) can0 477#07006F7B9A001400
(1426617190.759695) can0 475#A8131A4945000000
(1426617190.759995) can0 306#1200000000000000
(1426617190.760246) can0 294#00009CFFFA000000
(1426617190.760503) can0 270#C013000000000000
