(1426617746.843675) can0 477#1600307B9A001400
(1426617746.886668) can0 475#A6131C0000020500
(1426617746.886995) can0 306#10004100CC000000
(1426617746.887263) can0 294#05019CFFFA001B00
(1426617746.887485) can0 270#B513740000009C02
(1426617746.940552) can0 477#1300337B9A001400
(1426617746.986913) can0 475#9C131C0000020800
(1426617746.987097) can0 306#10004000CA000000
(1426617746.987282) can0 294#47019CFFFA001A00
(1426617746.987498) can0 270#B61391000000AD02
(1426617747.037572) can0 477#1800327B9A001400
(1426617747.086636) can0 475#A0131C0000020900
(1426617747.086958) can0 306#0F003F00C7000000
(1426617747.087177) can0 294#57019CFFFA001B00
(1426617747.087461) can0 270#B51398000000AE02
(1426617747.134503) can0 477#1600337B9A001400
(1426617747.186626) can0 475#A0131C0000020500
(1426617747.186934) can0 306#0F004100CC000000
(1426617747.187182) can0 294#0A019CFFFA001800
(1426617747.187422) can0 270#B51376000000AE02
(1426617747.231472) can0 477#1200357B9A001400
(1426617747.286593) can0 475#9C131C0000020800
(1426617747.287006) can0 306#0F004000CA000000
(1426617747.287249) can0 294#5C019CFFFA001800
(1426617747.287491) can0 270#B6139A000000AF02
(1426617747.328453) can0 477#1800337B9A001400
(1426617747.386520) can0 475#A0131C0000020900
(1426617747.387017) can0 306#0F003F00C6000000
(1426617747.387264) can0 294#4C019CFFFA001B00
(1426617747.387471) can0 270#B613930000009A02
(1426617747.425440) can0 477#1300327B9A001400
(1426617747.486467) can0 475#9A131C0000020400
(1426617747.486931) can0 306#0F004000CA000000
(1426617747.487193) can0 294#F3009CFFFA001700
(1426617747.487442) can0 270#B6136B000000AE02
(1426617747.522365) can0 477#1200357B9A001400
(1426617747.586656) can0 475#9E131C0000020800
(1426617747.586976) can0 306#0F004000C8000000
(1426617747.587225) can0 294#1D019CFFFA001600
(1426617747.587474) can0 270#B6137E0000009B02
(1426617747.619353) can0 477#1600347B9A001400
(1426617747.686928) can0 306#0E004000CA000000
(1426617747.687248) can0 294#D8009CFFFA001700
(1426617747.687506) can0 270#B6135F000000AE02
(1426617747.716366) can0 477#0A00337B9A001400
(1426617747.786674) can0 475#9E131C0000020000
(1426617747.786949) can0 306#0F004500DA000000
(1426617747.787196) can0 294#0C009CFFFA000900
(1426617747.787442) can0 270#B613050000007402
(1426617747.813371) can0 477#08003C7B9A001400
(1426617747.886625) can0 475#96131C0000020000
(1426617747.886909) can0 306#10004500D8000000
(1426617747.887154) can0 294#40009CFFFA000600
(1426617747.887398) can0 270#B7131C0000008602
(1426617747.910253) can0 477#0800397B9A001400
(1426617747.986376) can0 475#AB131C0000020000
(1426617747.986777) can0 306#11004700E0000000
(1426617747.987046) can0 294#A9FF9CFFFA000100
(1426617747.987309) can0 270#B713D9FF00003A02
(1426617748.007225) can0 477#06003D7B9A001400
(1426617748.086567) can0 475#A8131C0000020000
(1426617748.086867) can0 306#11004600DC000000
(1426617748.087253) can0 294#EDFF9CFFFA00FFFF
(1426617748.087508) can0 270#B713F7FF00007502
(1426617748.104194) can0 477#0B003C7B9A001400
(1426617748.186527) can0 475#A8131C0000020000
(1426617748.186944) can0 306#11004600DB000000
(1426617748.187191) can0 294#BEFF9CFFFA00FFFF
(1426617748.187437) can0 270#B713E2FF00006102
(1426617748.201146) can0 477#04003C7B9A001400
(1426617748.286725) can0 475#96131C0000020000
(1426617748.287034) can0 306#11004700E0000000
(1426617748.287287) can0 294#7BFF9CFFFA00FBFF
(1426617748.287533) can0 270#B813B9FF00002402
(1426617748.298132) can0 477#0200407B9A001400
(1426617748.386505) can0 475#A6131C0000020000
(1426617748.386903) can0 306#10004600DB000000
(1426617748.387185) can0 294#F2FF9CFFFA00FCFF
(1426617748.387442) can0 270#B813FFFF00006102
(1426617748.395279) can0 477#07003F7B9A001400
(1426617748.486659) can0 475#AB131C0000020000
(1426617748.486953) can0 306#10004600DC000000
(1426617748.487199) can0 294#B9FF9CFFFA00FBFF
(1426617748.487439) can0 270#B813E7FF00004D02
(1426617748.492070) can0 477#04003F7B9A001400
(1426617748.586631) can0 475#9C131C0000020400
(1426617748.586944) can0 306#10004700DF000000
(1426617748.587190) can0 294#79FF9CFFFA00F9FF
(1426617748.587431) can0 270#B813E2FF00002502
(1426617748.589038) can0 477#0300417B9A001400
(1426617748.686037) can0 477#0500407B9A001400
(1426617748.686650) can0 475#9E131C0000020000
(1426617748.686905) can0 306#10004500DA000000
(1426617748.687149) can0 294#75FF9CFFFA00FBFF
(1426617748.687393) can0 270#B813D6FF00003802
(1426617748.783012) can0 477#03003F7B9A001400
(1426617748.786590) can0 475#A9131C0000020400
(1426617748.786868) can0 306#10004600DD000000
(1426617748.787178) can0 294#6AFF9CFFFA00FBFF
(1426617748.787430) can0 270#B813ABFF00004E02
(1426617748.879932) can0 477#0700427B9A001400
(1426617748.886602) can0 475#A4131C0000020000
(1426617748.886902) can0 306#11004600DB000000
(1426617748.887154) can0 294#00009CFFFA00FBFF
(1426617748.887395) can0 270#B813010000006002
(1426617748.976928) can0 477#07003F7B9A001400
(1426617748.986774) can0 475#A0131C0000020000
(1426617748.987091) can0 306#10004400D7000000
(1426617748.987342) can0 294#ECFF9CFFFA00FDFF
(1426617748.987588) can0 270#B813F0FF00006002
(1426617749.073901) can0 477#0000417B9A001400
(1426617749.086794) can0 475#A0131C0000020400
(1426617749.087143) can0 306#10004600DD000000
(1426617749.087409) can0 294#91FF9CFFFA00FAFF
(1426617749.087689) can0 270#B813D9FF00003902
(1426617749.170851) can0 477#0400437B9A001400
(1426617749.186867) can0 475#96131C0000020000
(1426617749.187190) can0 306#10004500DA000000
(1426617749.187442) can0 294#9BFF9CFFFA00FAFF
(1426617749.187679) can0 270#B813E0FF00002502
(1426617749.267835) can0 477#0000417B9A001400
(1426617749.286849) can0 475#9E131C0000020600
(1426617749.287153) can0 306#0F004700DF000000
(1426617749.287402) can0 294#D2FE9CFFFA00F9FF
(1426617749.287646) can0 270#B8137AFF00003802
(1426617749.364800) can0 477#FFFF447B9A001400
(1426617749.386916) can0 475#A6131C0000020800
(1426617749.387207) can0 306#0F004800E2000000
(1426617749.387459) can0 294#BAFE9CFFFA00F4FF
(1426617749.387703) can0 270#B81353FF00003902
(1426617749.461867) can0 477#0000457B9A001400
(1426617749.486597) can0 475#A0131C0000020500
(1426617749.486909) can0 306#0F004700DF000000
(1426617749.487155) can0 294#2AFF9CFFFA00F3FF
(1426617749.487398) can0 270#B9139BFF00003802
(1426617749.558745) can0 477#FBFF457B9A001400
(1426617749.586569) can0 475#A2131C0000020600
(1426617749.586893) can0 306#0F004700E0000000
(1426617749.587172) can0 294#16FF9CFFFA00F2FF
(1426617749.587422) can0 270#B9137FFF00004D02
(1426617749.655703) can0 477#FAFF477B9A001400
(1426617749.686834) can0 475#9C131C0000020500
(1426617749.687121) can0 306#0F004700DF000000
(1426617749.687368) can0 294#49FF9CFFFA00F1FF
(1426617749.687614) can0 270#B913AFFF00002502
(1426617749.753893) can0 477#0000467B9A001400
(1426617749.786757) can0 475#9E131C0000020500
(1426617749.787031) can0 306#10004700DE000000
(1426617749.787432) can0 294#30FF9CFFFA00F3FF
(1426617749.787686) can0 270#B913A3FF00003802
(1426617749.849643) can0 477#FDFF467B9A001400
(1426617749.886795) can0 475#98131C0000020900
(1426617749.887361) can0 306#10004900E4000000
(1426617749.887673) can0 294#22FF9CFFFA00F1FF
(1426617749.887925) can0 270#B9139DFF00006002
(1426617749.946641) can0 477#0000477B9A001400
(1426617749.986757) can0 475#A0131C0000020400
(1426617749.987060) can0 306#10004800E1000000
(1426617749.987448) can0 294#90FF9CFFFA00F3FF
(1426617749.987696) can0 270#B913CEFF00002502
(1426617750.043591) can0 477#0300457B9A001400
(1426617750.086717) can0 475#AD131C0000020400
(1426617750.087064) can0 306#10004700DF000000
(1426617750.087349) can0 294#03FF9CFFFA00F6FF
(1426617750.087605) can0 270#B9138FFF00002602
(1426617750.140574) can0 477#FEFF457B9A001400
(1426617750.186655) can0 475#A4131C0000020500
(1426617750.186947) can0 306#10004800E2000000
(1426617750.187331) can0 294#F2FE9CFFFA00F5FF
(1426617750.187581) can0 270#B91388FF00003A02
(1426617750.237615) can0 477#0300467B9A001400
(1426617750.286661) can0 475#A6131C0000020000
(1426617750.286943) can0 306#10004600DB000000
(1426617750.287340) can0 294#D1FF9CFFFA00F8FF
(1426617750.287592) can0 270#B913EBFF00006002
(1426617750.334636) can0 477#0500427B9A001400
(1426617750.386654) can0 475#9C131C0000020000
(1426617750.387062) can0 306#10004700DF000000
(1426617750.387315) can0 294#8EFF9CFFFA00FAFF
(1426617750.387962) can0 270#B813CDFF00004B02
(1426617750.431448) can0 477#0500447B9A001400
(1426617750.486563) can0 475#A2131C0000020000
(1426617750.486847) can0 306#10004800E1000000
(1426617750.487238) can0 294#FBFF9CFFFA00FAFF
(1426617750.487489) can0 270#B813FEFF00007402
(1426617750.528408) can0 477#0900447B9A001400
(1426617750.586578) can0 475#A0131C0000020000
(1426617750.586979) can0 306#10004700E0000000
(1426617750.587228) can0 294#44009CFFFA00FEFF
(1426617750.587475) can0 270#B9131E000000AE02
(1426617750.625387) can0 477#0500407B9A001400
(1426617750.686761) can0 475#A9131C0000020000
(1426617750.687039) can0 306#10004A00E9000000
(1426617750.687335) can0 294#16009CFFFA00FDFF
(1426617750.687721) can0 270#B813090000007502
(1426617750.722345) can0 477#0400427B9A001400
(1426617750.786677) can0 475#A8131C0000020000
(1426617750.786967) can0 306#11004A00EA000000
(1426617750.787210) can0 294#76009CFFFA00FEFF
(1426617750.787459) can0 270#B81334000000C302
(1426617750.819313) can0 477#0900417B9A001400
(1426617750.886708) can0 475#9C131C0000020000
(1426617750.887001) can0 306#11004C00EF000000
(1426617750.887253) can0 294#29009CFFFA000000
(1426617750.887498) can0 270#B81312000000C202
(1426617750.916337) can0 477#0400417B9A001400
(1426617750.986459) can0 475#A4131C0000020000
(1426617750.986887) can0 306#11004E00F6000000
(1426617750.987137) can0 294#34009CFFFA00FEFF
(1426617750.987429) can0 270#B81317000000D602
(1426617751.013259) can0 477#0900437B9A001400
(1426617751.086616) can0 475#A4131C0000020000
(1426617751.086935) can0 306#11004F00F7000000
(1426617751.087304) can0 294#38009CFFFA000300
(1426617751.087550) can0 270#B813180000002403
(1426617751.110238) can0 477#0B003E7B9A001400
(1426617751.186659) can0 475#A6131C0000020000
(1426617751.186971) can0 306#1100520000010000
(1426617751.187217) can0 294#65009CFFFA000400
(1426617751.187458) can0 270#B8132C0000002503
(1426617751.207226) can0 477#0A00417B9A001400
(1426617751.286583) can0 475#A2131C0000020800
(1426617751.286884) can0 306#1100520000010000
(1426617751.287160) can0 294#4D019CFFFA000D00
(1426617751.287403) can0 270#B813940000004B03
(1426617751.304190) can0 477#18003C7B9A001400
(1426617751.386812) can0 475#94131C0000020800
(1426617751.387140) can0 306#1100540009010000
(1426617751.387392) can0 294#F9009CFFFA001B00
(1426617751.387640) can0 270#B8136F0000008503
(1426617751.401147) can0 477#1B00357B9A001400
(1426617751.486743) can0 475#9C131C0000020B00
(1426617751.487044) can0 306#1100590016010000
(1426617751.487294) can0 294#F5019CFFFA002200
(1426617751.487546) can0 270#B613DE0000009A03
(1426617751.498147) can0 477#2500357B9A001400
(1426617751.586709) can0 475#A2131C0000020E00
(1426617751.587048) can0 306#11005D0023010000
(1426617751.587322) can0 294#00029CFFFA003100
(1426617751.587570) can0 270#B613E3000000FC03
(1426617751.595105) can0 477#26002D7B9A001400
(1426617751.686716) can0 475#92131C0000020C00
(1426617751.687012) can0 306#1000640039010000
(1426617751.687406) can0 294#35029CFFFA003600
(1426617751.687661) can0 270#B613FB0000002104
(1426617751.692038) can0 477#2A002D7B9A001400
(1426617751.786685) can0 475#98131C0000021100
(1426617751.786964) can0 306#1000680047010000
(1426617751.787210) can0 294#CE029CFFFA004100
(1426617751.787445) can0 270#B5133F0100000E04
(1426617751.789030) can0 477#36002C7B9A001400
(1426617751.886010) can0 477#6C00127B9A001400
(1426617751.886881) can0 306#10005F002B010000
(1426617751.887146) can0 294#09069CFFFA007400
(1426617751.887388) can0 270#B413AE020000FA03
(1426617751.982917) can0 477#6700017B9A001400
(1426617751.986605) can0 475#90131C0000022500
(1426617751.987029) can0 306#1000640039010000
(1426617751.987418) can0 294#8E059CFFFA009E00
(1426617751.987618) can0 270#AE13780200003304
(1426617752.079944) can0 477#8700FE7A9A001400
(1426617752.086579) can0 475#8D131C0000023000
(1426617752.086882) can0 306#100065003E010000
(1426617752.087156) can0 294#C7069CFFFA00C100
(1426617752.087413) can0 270#AE13020300005A04
(1426617752.176884) can0 477#9300F07A9A001400
(1426617752.186587) can0 475#8B131C0000023300
(1426617752.186972) can0 306#10006A004B010000
(1426617752.187530) can0 294#59079CFFFA00E100
(1426617752.187751) can0 270#AB1343030000A804
(1426617752.274027) can0 477#A900E17A9A001400
(1426617752.286520) can0 475#87131C0000023A00
(1426617752.286977) can0 306#10006B0051010000
(1426617752.287233) can0 294#74089CFFFA000601
(1426617752.287477) can0 270#A913C1030000E204
(1426617752.371543) can0 477#B200D07A9A001400
(1426617752.386712) can0 475#8D131C0000023C00
(1426617752.387019) can0 306#1000710062010000
(1426617752.387272) can0 294#E1089CFFFA002701
(1426617752.387519) can0 270#A913F10300000A05
(1426617752.467834) can0 477#CE00C37A9A001400
(1426617752.486712) can0 475#7F131C0000024100
(1426617752.487008) can0 306#100075006F010000
(1426617752.487256) can0 294#81099CFFFA004C01
(1426617752.487497) can0 270#A513380400006805
(1426617752.564780) can0 477#D900B77A9A001400
(1426617752.586640) can0 475#85131C0000024500
(1426617752.586946) can0 306#10007C0084010000
(1426617752.587201) can0 294#C2099CFFFA006901
(1426617752.587447) can0 270#A213550400006905
(1426617752.662878) can0 477#F100AB7A9A001400
(1426617752.686615) can0 475#87131C0000024200
(1426617752.686928) can0 306#1000820098010000
(1426617752.687181) can0 294#D4099CFFFA008B01
(1426617752.687430) can0 270#A2135D040000DE05
(1426617752.759682) can0 477#0C019C7A9A001400
(1426617752.786866) can0 475#81131C0000024D00
(1426617752.787166) can0 306#10008600A5010000
(1426617752.787414) can0 294#9F0A9CFFFA00AF01
(1426617752.787658) can0 270#9E13B8040000C905
(1426617752.856068) can0 477#1A01887A9A001400
(1426617752.886805) can0 475#79131C0000024F00
(1426617752.887187) can0 306#10008C00B7010000
(1426617752.887457) can0 294#760B9CFFFA00D101
(1426617752.887706) can0 270#9A13170500001606
(1426617752.952632) can0 477#2D01787A9A001400
(1426617752.986827) can0 475#75131C0000025000
(1426617752.987116) can0 306#10009200CA010000
(1426617752.987489) can0 294#A50B9CFFFA00FA01
(1426617752.987735) can0 270#9A132C0500004F06
(1426617753.049625) can0 477#53016E7A9A001400
(1426617753.086785) can0 475#75131C0000025200
(1426617753.087184) can0 306#10009700DA010000
(1426617753.087451) can0 294#EE0B9CFFFA002602
(1426617753.087698) can0 270#96134C050000C306
(1426617753.146606) can0 477#6401557A9A001400
(1426617753.186798) can0 475#7D131C0000025700
(1426617753.187198) can0 306#0F009D00EC010000
(1426617753.187446) can0 294#820C9CFFFA004C02
(1426617753.187698) can0 270#92138E050000EC06
(1426617753.243598) can0 477#6A01467A9A001400
(1426617753.286736) can0 475#77131C0000025400
(1426617753.287110) can0 306#1000A40001020000
(1426617753.287395) can0 294#790B9CFFFA006602
(1426617753.287667) can0 270#921318050000D706
(1426617753.340491) can0 477#4F01427A9A001400
(1426617753.386692) can0 475#7B131C0000024C00
(1426617753.387025) can0 306#1000A90010020000
(1426617753.387422) can0 294#8F0A9CFFFA004F02
(1426617753.387772) can0 270#8F13B00400002707
(1426617753.437546) can0 477#47014F7A9A001400
(1426617753.486650) can0 475#7F131C0000024300
(1426617753.487116) can0 306#1000B00027020000
(1426617753.487378) can0 294#53099CFFFA003402
(1426617753.487627) can0 270#9213240400001307
(1426617753.534474) can0 477#17015F7A9A001400
(1426617753.586617) can0 475#79131D0000023900
(1426617753.587027) can0 306#0F00B2002C020000
(1426617753.587277) can0 294#F3079CFFFA00F801
(1426617753.587520) can0 270#9213880300003C07
(1426617753.631437) can0 477#FE00727A9A001400
(1426617753.686786) can0 475#7B131D0000023500
(1426617753.687101) can0 306#0F00B90042020000
(1426617753.687351) can0 270#9713570300008807
(1426617753.687552) can0 294#84079CFFFA00C801
(1426617753.728412) can0 477#F2007A7A9A001400
(1426617753.786762) can0 475#85131D0000023200
(1426617753.787060) can0 306#0F00BC004D020000
(1426617753.787311) can0 294#39079CFFFA00AB01
(1426617753.787558) can0 270#9813350300007907
(1426617753.825383) can0 477#F000837A9A001400
(1426617753.886971) can0 475#8D131D0000022700
(1426617753.887269) can0 306#1000BE0054020000
(1426617753.887530) can0 294#EC059CFFFA008E01
(1426617753.887783) can0 270#9813A1020000A107
(1426617753.922289) can0 477#D300947A9A001400
(1426617753.986709) can0 475#7D131D0000022600
(1426617753.987284) can0 306#1000BE0053020000
(1426617753.987511) can0 294#A2049CFFFA006D01
(1426617754.019325) can0 477#A300937A9A001400
(1426617754.086709) can0 475#87131D0000021F00
(1426617754.087031) can0 306#1100BF0057020000
(1426617754.087291) can0 294#FA039CFFFA003101
(1426617754.087576) can0 270#9F13C40100008B07
(1426617754.116240) can0 477#8500B27A9A001400
(1426617754.186707) can0 475#89131D0000021400
(1426617754.186998) can0 306#1100C5006A020000
(1426617754.187249) can0 294#F3029CFFFA00EE00
(1426617754.187496) can0 270#9F134F010000A307
(1426617754.213402) can0 477#6200CC7A9A001400
(1426617754.286700) can0 475#8E131D0000020E00
(1426617754.287003) can0 306#1200C90075020000
(1426617754.287251) can0 294#67029CFFFA00B300
(1426617754.287496) can0 270#A51311010000B707
(1426617754.310204) can0 477#5500E07A9A001400
(1426617754.386886) can0 475#98131D0000021000
(1426617754.387198) can0 306#1100CA0077020000
(1426617754.387447) can0 294#86029CFFFA009400
(1426617754.387694) can0 270#A9131F010000A307
(1426617754.407199) can0 477#5800E67A9A001400
(1426617754.486843) can0 475#9E131D0000021300
(1426617754.487131) can0 306#1100C6006C020000
(1426617754.487383) can0 294#97029CFFFA009500
(1426617754.487631) can0 270#A913260100006F07
(1426617754.504146) can0 477#5D00E07A9A001400
(1426617754.586826) can0 475#8D131D0000021100
(1426617754.587223) can0 306#1100C40066020000
(1426617754.587468) can0 294#3E029CFFFA009600
(1426617754.587713) can0 270#A813FF0000007C07
(1426617754.601108) can0 477#5800E07A9A001400
(1426617754.686738) can0 475#90131D0000020D00
(1426617754.687229) can0 306#1100C40066020000
(1426617754.687497) can0 294#EC019CFFFA008900
(1426617754.687745) can0 270#A913DA0000007E07
(1426617754.698098) can0 477#4A00EB7A9A001400
(1426617754.786747) can0 475#94131D0000020C00
(1426617754.787107) can0 306#1100C40064020000
(1426617754.787513) can0 294#FB019CFFFA007600
(1426617754.787865) can0 270#A913E10000006B07
(1426617754.795046) can0 477#4300F27A9A001400
(1426617754.886751) can0 475#A0131D0000020B00
(1426617754.887056) can0 306#1100C2005F020000
(1426617754.887310) can0 294#0E029CFFFA006B00
(1426617754.887558) can0 270#AB13E90000005C07
(1426617754.892010) can0 477#4100F47A9A001400
(1426617754.986650) can0 475#94131D0000020A00
(1426617754.987121) can0 306#1100C1005D020000
(1426617754.987371) can0 294#FE019CFFFA006200
(1426617754.987616) can0 270#AC13E20000005607
(1426617754.988973) can0 477#3B00F67A9A001400
(1426617755.086050) can0 477#3500F97A9A001400
(1426617755.086606) can0 475#96131D0000020900
(1426617755.087049) can0 306#1000C00059020000
(1426617755.087330) can0 294#ED019CFFFA005A00
(1426617755.087583) can0 270#AC13DB0000003107
(1426617755.182927) can0 477#3400FB7A9A001400
(1426617755.186656) can0 475#98131D0000020A00
(1426617755.187062) can0 306#1100BF0056020000
(1426617755.187314) can0 294#F7019CFFFA005700
(1426617755.187562) can0 270#AD13DF0000003107
(1426617755.279871) can0 477#3600F97A9A001400
(1426617755.286616) can0 475#8B131D0000020A00
(1426617755.286997) can0 306#1000BF0056020000
(1426617755.287269) can0 294#FF019CFFFA005900
(1426617755.287520) can0 270#AC13E30000004307
(1426617755.378092) can0 477#3800F97A9A001400
(1426617755.386865) can0 475#96131D0000020B00
(1426617755.387214) can0 306#1000C00058020000
(1426617755.387475) can0 294#09029CFFFA005C00
(1426617755.387720) can0 270#AC13E70000004307
(1426617755.473875) can0 477#3D00F87A9A001400
(1426617755.486558) can0 475#87131D0000020C00
(1426617755.486839) can0 306#1000C0005A020000
(1426617755.487238) can0 294#2D029CFFFA005F00
(1426617755.487492) can0 270#AD13F70000005207
(1426617755.570805) can0 477#3B00F77A9A001400
(1426617755.586531) can0 475#8E131D0000020D00
(1426617755.586811) can0 306#1000C1005C020000
(1426617755.587217) can0 294#2B029CFFFA006200
(1426617755.587473) can0 270#AC13F60000005607
(1426617755.668841) can0 477#4000F87A9A001400
(1426617755.686519) can0 475#96131D0000020E00
(1426617755.686894) can0 306#1000C2005E020000
(1426617755.687154) can0 294#55029CFFFA006400
(1426617755.687401) can0 270#AC13090100005807
(1426617755.765171) can0 477#4900F47A9A001400
(1426617755.786512) can0 475#98131D0000020F00
(1426617755.786909) can0 306#1000C1005D020000
(1426617755.787195) can0 294#A4029CFFFA006F00
(1426617755.787449) can0 270#AC132C0100007F07
(1426617755.861666) can0 477#5500EE7A9A001400
(1426617755.886647) can0 475#8D131D0000021500
(1426617755.886968) can0 306#1000C1005C020000
(1426617755.887219) can0 294#71039CFFFA007E00
(1426617755.887458) can0 270#AB13870100005407
(1426617755.958659) can0 477#9200DE7A9A001400
(1426617755.986834) can0 475#8B131D0000022100
(1426617755.987135) can0 306#0F00BA0046020000
(1426617755.987395) can0 294#26059CFFFA00BE00
(1426617755.987643) can0 270#AB13490200004107
(1426617756.056860) can0 477#9700C27A9A001400
(1426617756.086866) can0 475#8D131D0000022200
(1426617756.087250) can0 306#0F00BA0047020000
(1426617756.087513) can0 294#3F059CFFFA00E800
(1426617756.087761) can0 270#A613540200005407
(1426617756.152788) can0 477#B100B67A9A001400
(1426617756.186827) can0 475#8E131D0000022700
(1426617756.187230) can0 306#1000BA0046020000
(1426617756.187493) can0 294#83059CFFFA000D01
(1426617756.187740) can0 270#A213730200005707
(1426617756.249573) can0 477#BC00AA7A9A001400
(1426617756.286829) can0 475#90131D0000022B00
(1426617756.287229) can0 306#1000BB0049020000
(1426617756.287480) can0 294#CC059CFFFA002D01
(1426617756.287729) can0 270#A213930200005807
(1426617756.346548) can0 477#CE009C7A9A001400
(1426617756.386766) can0 475#87131D0000022E00
(1426617756.387088) can0 306#1000BC004D020000
(1426617756.387344) can0 294#5C069CFFFA004C01
(1426617756.387590) can0 270#9F13D30200006507
(1426617756.443567) can0 477#DD00927A9A001400
(1426617756.486754) can0 475#7F131D0000023100
(1426617756.487125) can0 306#1000BD0050020000
(1426617756.487410) can0 294#F4069CFFFA006901
(1426617756.487683) can0 270#9C13160300007507
(1426617756.540517) can0 477#ED008A7A9A001400
(1426617756.586702) can0 475#85131D0000023400
(1426617756.587033) can0 306#1100BF0055020000
(1426617756.587288) can0 294#5E079CFFFA008301
(1426617756.587534) can0 270#9C13450300007807
(1426617756.637529) can0 477#FC00827A9A001400
(1426617756.686734) can0 475#75131D0000023500
(1426617756.687030) can0 306#1100C00058020000
(1426617756.687291) can0 294#91079CFFFA009C01
(1426617756.687537) can0 270#9A135C0300009C07
(1426617756.734418) can0 477#0201757A9A001400
(1426617756.786681) can0 475#7D131D0000023600
(1426617756.786983) can0 306#1200C1005C020000
(1426617756.787232) can0 294#D7079CFFFA00AE01
(1426617756.787479) can0 270#97137B030000B107
(1426617756.831414) can0 477#0D016E7A9A001400
(1426617756.886802) can0 475#7D131D0000023800
(1426617756.887101) can0 306#1200C20060020000
(1426617756.887357) can0 294#E0079CFFFA00BE01
(1426617756.887606) can0 270#97137F030000B107
(1426617756.928380) can0 477#1501677A9A001400
(1426617756.986772) can0 475#77131D0000023A00
(1426617756.987096) can0 306#1200C40064020000
(1426617756.987349) can0 294#D7079CFFFA00CE01
(1426617756.987595) can0 270#95137B030000D607
(1426617757.025379) can0 477#17015F7A9A001400
(1426617757.086813) can0 475#7D131D0000023900
(1426617757.087111) can0 306#1200C50069020000
(1426617757.087363) can0 294#60089CFFFA00DC01
(1426617757.087610) can0 270#9413B80300001008
(1426617757.122318) can0 477#21015C7A9A001400
(1426617757.186770) can0 475#74131D0000023A00
(1426617757.187072) can0 306#1300C7006F020000
(1426617757.187323) can0 294#86089CFFFA00EA01
(1426617757.187682) can0 270#9413C9030000F807
(1426617757.219259) can0 477#1601557A9A001400
(1426617757.286678) can0 475#7F131D0000023700
(1426617757.286970) can0 306#1300C90076020000
(1426617757.287222) can0 294#F8079CFFFA00E501
(1426617757.287468) can0 270#92138A0300001208
(1426617757.316274) can0 477#0D01597A9A001400
(1426617757.386469) can0 475#79131D0000023600
(1426617757.386868) can0 306#1300CB007C020000
(1426617757.387133) can0 294#61079CFFFA00D601
(1426617757.387380) can0 270#9313470300000E08
(1426617757.413186) can0 477#0D015D7A9A001400
(1426617757.486724) can0 475#7D131D0000023500
(1426617757.487114) can0 306#1300CC007E020000
(1426617757.487356) can0 294#C5079CFFFA00CD01
(1426617757.487601) can0 270#9313730300003708
(1426617757.510256) can0 477#07015E7A9A001400
(1426617757.586639) can0 475#75131D0000023400
(1426617757.587045) can0 306#1200CE0086020000
(1426617757.587311) can0 294#46079CFFFA00C501
(1426617757.587559) can0 270#94133B0300002308
(1426617757.607128) can0 477#00015E7A9A001400
(1426617757.686889) can0 475#7D131D0000023100
(1426617757.687204) can0 306#1200D0008A020000
(1426617757.687452) can0 294#BC069CFFFA00BD01
(1426617757.687702) can0 270#9413FE0200004C08
(1426617757.704123) can0 477#F500617A9A001400
(1426617757.786866) can0 475#75131D0000022E00
(1426617757.787146) can0 306#1200D20090020000
(1426617757.787393) can0 294#A1069CFFFA00AD01
(1426617757.787596) can0 270#9413F20200004808
(1426617757.801095) can0 477#EB00667A9A001400
(1426617757.886838) can0 475#75131D0000022800
(1426617757.887145) can0 306#1100D50099020000
(1426617757.887397) can0 294#87059CFFFA009101
(1426617757.887639) can0 270#9513740200005F08
(1426617757.898035) can0 477#CB006F7A9A001400
(1426617757.986772) can0 475#7F131D0000022500
(1426617757.987187) can0 306#1100D800A3020000
(1426617757.987439) can0 294#3D059CFFFA006B01
(1426617757.987685) can0 270#9813530200006108
(1426617757.995036) can0 477#BD007E7A9A001400
(1426617758.086788) can0 475#89131D0000022400
(1426617758.087106) can0 306#1000D900A6020000
(1426617758.087367) can0 294#6D059CFFFA005301
(1426617758.087619) can0 270#9813690200007408
(1426617758.092161) can0 477#C200877A9A001400
(1426617758.186708) can0 475#7B131D0000022500
(1426617758.187013) can0 306#1000D900A6020000
(1426617758.187362) can0 294#F8049CFFFA005301
(1426617758.187612) can0 270#9A13350200005E08
(1426617758.188926) can0 477#C800817A9A001400
(1426617758.285943) can0 477#C400807A9A001400
(1426617758.286614) can0 475#89131D0000022500
(1426617758.287043) can0 306#1000D900A8020000
(1426617758.287309) can0 294#78059CFFFA004F01
(1426617758.287568) can0 270#99136D0200007608
(1426617758.382886) can0 477#B000877A9A001400
(1426617758.386657) can0 475#85131D0000022100
(1426617758.387022) can0 306#1000DB00AC020000
(1426617758.387297) can0 294#D7049CFFFA003E01
(1426617758.387556) can0 270#9913260200008B08
(1426617758.480505) can0 477#9500917A9A001400
(1426617758.487122) can0 475#7F131D0000021C00
(1426617758.487423) can0 306#1000DD00B2020000
(1426617758.487697) can0 294#07049CFFFA002101
(1426617758.487945) can0 270#9A13CA0100007808
(1426617758.576844) can0 477#87009D7A9A001400
(1426617758.586834) can0 475#7F131D0000021700
(1426617758.587136) can0 306#1000DF00BA020000
(1426617758.587404) can0 294#39039CFFFA000301
(1426617758.587666) can0 270#9E136E010000AF08
(1426617758.673808) can0 477#8E00A77A9A001400
(1426617758.686749) can0 475#83131D0000021C00
(1426617758.687021) can0 306#1000E000BD020000
(1426617758.687279) can0 294#C0039CFFFA00F400
(1426617758.687530) can0 270#9E13AA0100008B08
(1426617758.770762) can0 477#9500A57A9A001400
(1426617758.786827) can0 475#8B131D0000021C00
(1426617758.787132) can0 306#1000DF00BA020000
(1426617758.787418) can0 294#53049CFFFA00F000
(1426617758.787672) can0 270#9F13EB0100006408
(1426617758.867738) can0 477#9D009E7A9A001400
(1426617758.886752) can0 475#85131D0000021D00
(1426617758.887044) can0 306#1000DC00B1020000
(1426617758.887302) can0 294#4A049CFFFA000101
(1426617758.887553) can0 270#9E13E70100008B08
(1426617758.965930) can0 477#9200A07A9A001400
(1426617758.986963) can0 475#89131D0000021B00
(1426617758.987254) can0 306#1000DE00B6020000
(1426617758.987501) can0 294#08049CFFFA00FC00
(1426617758.987751) can0 270#9E13CA010000A008
(1426617759.061669) can0 477#9300A27A9A001400
(1426617759.086796) can0 475#89131D0000021B00
(1426617759.087139) can0 306#1000DF00BB020000
(1426617759.087397) can0 294#90039CFFFA00FA00
(1426617759.087644) can0 270#9E13950100009C08
(1426617759.158631) can0 477#9500A37A9A001400
(1426617759.186947) can0 475#8E131D0000021800
(1426617759.187246) can0 294#64039CFFFA00F600
(1426617759.187448) can0 306#1000E100C1020000
(1426617759.187696) can0 270#9F1381010000CA08
(1426617759.255610) can0 477#8C00A67A9A001400
(1426617759.286859) can0 475#7F131D0000021A00
(1426617759.287165) can0 306#1000E300C7020000
(1426617759.287824) can0 294#89039CFFFA00F200
(1426617759.352590) can0 477#8900A47A9A001400
(1426617759.386847) can0 475#90131D0000021900
(1426617759.387169) can0 306#1000E500CB020000
(1426617759.387423) can0 294#B1039CFFFA00EF00
(1426617759.387670) can0 270#9F13A4010000C808
(1426617759.449543) can0 477#A500A27A9A001400
(1426617759.486915) can0 475#8D131D0000022100
(1426617759.487196) can0 306#0F00E500CB020000
(1426617759.487444) can0 294#8E049CFFFA000501
(1426617759.487691) can0 270#9F1306020000D908
(1426617759.546554) can0 477#BE008E7A9A001400
(1426617759.586780) can0 475#85131D0000022900
(1426617759.587078) can0 306#1000E500CB020000
(1426617759.587470) can0 294#C4059CFFFA003001
(1426617759.587730) can0 270#9F138F020000D708
(1426617759.643564) can0 477#F900727A9A001400
(1426617759.686737) can0 475#89131D0000022D00
(1426617759.687118) can0 306#1100E500CD020000
(1426617759.687401) can0 294#84069CFFFA007501
(1426617759.687650) can0 270#9B13E50200000209
(1426617759.740436) can0 477#10015E7A9A001400
(1426617759.786734) can0 475#74131D0000023300
(1426617759.787015) can0 306#1100E700D3020000
(1426617759.787402) can0 294#3B079CFFFA00AD01
(1426617759.787659) can0 270#9413360300000909
(1426617759.837448) can0 477#2A014E7A9A001400
(1426617759.886701) can0 475#70131D0000023400
(1426617759.887083) can0 306#1100EA00DD020000
(1426617759.887348) can0 294#9B079CFFFA00E201
(1426617759.887597) can0 270#9413610300007A09
(1426617759.934465) can0 477#4501387A9A001400
(1426617759.986870) can0 475#72131D0000023D00
(1426617759.987161) can0 306#1000ED00E4020000
(1426617759.987410) can0 294#A4089CFFFA001802
(1426617759.987661) can0 270#9013D60300005809
(1426617760.031517) can0 477#6E01207A9A001400
(1426617760.086871) can0 475#68131D0000024200
(1426617760.087171) can0 306#1100EF00EC020000
(1426617760.087430) can0 270#8A13490400009D09
(1426617760.087632) can0 294#A7099CFFFA005702
(1426617760.128345) can0 477#9101097A9A001400
(1426617760.186839) can0 475#66131D0000024800
(1426617760.187139) can0 306#1100F200F6020000
(1426617760.187398) can0 294#180A9CFFFA009302
(1426617760.187660) can0 270#8A137B0400009B09
(1426617760.225325) can0 477#C001F1799A001400
(1426617760.286671) can0 475#60131D0000024B00
(1426617760.287128) can0 306#1000F500FE020000
(1426617760.287397) can0 270#8413B5040000E809
(1426617760.287603) can0 294#9A0A9CFFFA00D202
(1426617760.322293) can0 477#E001D7799A001400
(1426617760.386785) can0 475#5C131D0000025100
(1426617760.387084) can0 294#C20B9CFFFA001003
(1426617760.387289) can0 306#1000F9000B030000
(1426617760.387536) can0 270#7E1339050000FE09
(1426617760.419248) can0 477#FB01C0799A001400
(1426617760.486756) can0 475#5A131D0000025300
(1426617760.487045) can0 306#0F00FE001B030000
(1426617760.487299) can0 294#C20B9CFFFA004503
(1426617760.487550) can0 270#7E1339050000310A
(1426617760.516239) can0 477#1802A2799A001400
(1426617760.586626) can0 475#5A131D0000025700
(1426617760.586956) can0 306#100003012B030000
(1426617760.587205) can0 294#E40B9CFFFA007703
(1426617760.587456) can0 270#781348050000820A
(1426617760.613179) can0 477#330292799A001400
(1426617760.686803) can0 475#4D131D0000025A00
(1426617760.687100) can0 306#110008013B030000
(1426617760.687354) can0 294#9A0C9CFFFA00AE03
(1426617760.687593) can0 270#731399050000010B
(1426617760.710144) can0 477#59027E799A001400
(1426617760.786909) can0 475#4B131D0000026000
(1426617760.787316) can0 306#12000D0149030000
(1426617760.787573) can0 294#180D9CFFFA00EE03
(1426617760.787821) can0 270#7313D1050000EC0A
(1426617760.807162) can0 477#7E0262799A001400
(1426617760.886814) can0 475#51131D0000026000
(1426617760.887139) can0 306#120013015C030000
(1426617760.887391) can0 294#960D9CFFFA002104
(1426617760.887640) can0 270#6D1309060000520B
(1426617760.904095) can0 477#93024A799A001400
(1426617760.986842) can0 475#43131D0000026200
(1426617760.987138) can0 306#120019016F030000
(1426617760.987392) can0 294#1D0E9CFFFA005604
(1426617760.987638) can0 270#6813450600006F0B
(1426617761.001050) can0 477#AD0231799A001400
(1426617761.086877) can0 475#3A131D0000026400
(1426617761.087199) can0 306#1200200184030000
(1426617761.088324) can0 270#64131C060000B70B
(1426617761.088594) can0 294#C20D9CFFFA008404
(1426617761.098048) can0 477#CD0231799A001400
(1426617761.186766) can0 475#41131D0000026800
(1426617761.187093) can0 306#1200260198030000
(1426617761.187345) can0 294#6E0E9CFFFA00BB04
(1426617761.187693) can0 270#641369060000E20B
(1426617761.195031) can0 477#E6020B799A001400
(1426617761.286761) can0 475#34131D0000026A00
(1426617761.287054) can0 306#12002C01AB030000
(1426617761.287313) can0 294#220F9CFFFA00EE04
(1426617761.287667) can0 270#5B13B9060000280C
(1426617761.291995) can0 477#FC02F0789A001400
(1426617761.386730) can0 475#38131D0000026B00
(1426617761.387023) can0 306#12003301BF030000
(1426617761.387388) can0 294#100F9CFFFA002505
(1426617761.387634) can0 270#5713B1060000750C
(1426617761.388915) can0 477#1603D7789A001400
(1426617761.485920) can0 477#3C03C1789A001400
(1426617761.486895) can0 475#34131D0000027000
(1426617761.487164) can0 306#12003901D2030000
(1426617761.487416) can0 294#7B0F9CFFFA005905
(1426617761.487663) can0 270#5713E0060000AC0C
(1426617761.582902) can0 477#5803AB789A001400
(1426617761.586983) can0 475#2E131E0000026F00
(1426617761.587303) can0 306#12003F01E6030000
(1426617761.587564) can0 294#8E0F9CFFFA009005
(1426617761.587810) can0 270#5113E9060000540D
(1426617761.679835) can0 477#800392789A001400
(1426617761.686812) can0 475#23131E0000027100
(1426617761.687232) can0 306#13004601FB030000
(1426617761.687485) can0 270#4A132C070000390D
(1426617761.687684) can0 294#26109CFFFA00CA05
(1426617761.776828) can0 477#B40374789A001400
(1426617761.786921) can0 475#23131E0000027500
(1426617761.787271) can0 306#12004B010A040000
(1426617761.787524) can0 294#A2109CFFFA000A06
(1426617761.787770) can0 270#4A1363070000D40D
(1426617761.874716) can0 477#D50355789A001400
(1426617761.886886) can0 475#1D131E0000027900
(1426617761.887161) can0 306#130051011D040000
(1426617761.887410) can0 294#C7109CFFFA004D06
(1426617761.887657) can0 270#431373070000B80D
(1426617761.970932) can0 477#E60332789A001400
(1426617761.986826) can0 475#1B131E0000027B00
(1426617761.987135) can0 306#1300580133040000
(1426617761.987400) can0 294#06119CFFFA008506
(1426617761.987660) can0 270#3B1390070000060E
(1426617762.067737) can0 477#1C041E789A001400
(1426617762.086832) can0 475#0F131E0000027A00
(1426617762.087154) can0 306#12005E0147040000
(1426617762.087418) can0 294#7A119CFFFA00C006
(1426617762.087674) can0 270#3B13C30700009C0E
(1426617762.165588) can0 477#4104FD779A001400
(1426617762.186775) can0 475#15131E0000028000
(1426617762.187127) can0 306#120064015A040000
(1426617762.187395) can0 294#11129CFFFA000007
(1426617762.187652) can0 270#351306080000650E
(1426617762.262546) can0 477#5A04DD779A001400
(1426617762.286829) can0 475#FC121E0000028000
(1426617762.287126) can0 306#12006B016F040000
(1426617762.287399) can0 294#1A129CFFFA004007
(1426617762.287652) can0 270#2D130A080000CB0E
(1426617762.358688) can0 477#8D04C1779A001400
(1426617762.386913) can0 475#02131E0000028200
(1426617762.387250) can0 306#1200720186040000
(1426617762.387518) can0 294#59129CFFFA007707
(1426617762.387769) can0 270#2D1326080000870F
(1426617762.455575) can0 477#BC04AF779A001400
(1426617762.486996) can0 475#F4121E0000028300
(1426617762.487274) can0 306#1200780198040000
(1426617762.487524) can0 294#CC129CFFFA00BB07
(1426617762.487769) can0 270#2913590800009F0F
(1426617762.552724) can0 477#D9048B779A001400
(1426617762.586885) can0 475#00131E0000028300
(1426617762.587185) can0 306#12007F01AD040000
(1426617762.587537) can0 294#E8129CFFFA00FC07
(1426617762.587808) can0 270#201366080000E20F
(1426617762.649531) can0 477#F00470779A001400
(1426617762.686877) can0 475#E9121E0000028700
(1426617762.687251) can0 306#12008701C7040000
(1426617762.687496) can0 294#E6129CFFFA003208
(1426617762.687741) can0 270#2013650800006410
(1426617762.746505) can0 477#02055D779A001400
(1426617762.786845) can0 475#ED121E0000028100
(1426617762.787280) can0 306#11009101E4040000
(1426617762.787529) can0 294#73129CFFFA005208
(1426617762.787783) can0 270#1A13320800009110
(1426617762.843497) can0 477#260540779A001400
(1426617762.886848) can0 475#F4121F0000028300
(1426617762.887147) can0 306#11009801FA040000
(1426617762.887396) can0 294#B6129CFFFA008008
(1426617762.887644) can0 270#141350080000F710
(1426617762.940429) can0 477#480536779A001400
(1426617762.986767) can0 475#E5121F0000028200
(1426617762.987168) can0 306#11009F0110050000
(1426617762.987421) can0 294#25139CFFFA00B608
(1426617762.987669) can0 270#1413810800009A11
(1426617763.037419) can0 477#6A05197799001400
(1426617763.086781) can0 475#E9121F0000028300
(1426617763.087081) can0 306#1000A8012C050000
(1426617763.087442) can0 294#D2129CFFFA00E008
(1426617763.087693) can0 270#0E135C08F8FFB411
(1426617763.134414) can0 477#67050A7799001400
(1426617763.186856) can0 475#DD121F0000028600
(1426617763.187173) can0 306#1000AE013F050000
(1426617763.187424) can0 294#6E139CFFFA000A09
(1426617763.187674) can0 270#0B13A10800001312
(1426617763.231354) can0 477#C105EE7699001400
(1426617763.286746) can0 475#D8121F0000028E00
(1426617763.287135) can0 306#1000B2014D050000
(1426617763.287383) can0 294#CC139CFFFA006109
(1426617763.287641) can0 270#0B13CB08D6FF4D11
(1426617763.328327) can0 477#D505BC7699001400
(1426617763.386825) can0 475#D9121F0000028B00
(1426617763.387119) can0 306#1000B90163050000
(1426617763.387370) can0 294#0A149CFFFA00AA09
(1426617763.387618) can0 270#0113E6081EFF0912
(1426617763.425269) can0 477#FF05AB7699001400
(1426617763.486586) can0 475#D6121F0000028E00
(1426617763.486946) can0 306#1000C00178050000
(1426617763.487313) can0 294#7D139CFFFA00E109
(1426617763.487556) can0 270#FA129E08D0FE8211
(1426617763.522284) can0 477#AB059A7699001400
(1426617763.586781) can0 475#E7121F0000027A00
(1426617763.587077) can0 306#1000C50189050000
(1426617763.587328) can0 294#4A109CFFFA007009
(1426617763.587579) can0 270#FA123C0765FFE810
(1426617763.619194) can0 477#9904F57699001400
(1426617763.686841) can0 475#11131F0000025700
(1426617763.687234) can0 306#1000CB019C050000
(1426617763.687484) can0 294#970B9CFFFA00EA07
(1426617763.687725) can0 270#08132605A7FF4311
(1426617763.716206) can0 477#C0029A7799001400
(1426617763.786742) can0 475#40131F0000062A00
(1426617763.787061) can0 306#1000CF01A8050000
(1426617763.787417) can0 294#24059CFFFA008405
(1426617763.787659) can0 270#4013480200005C11
(1426617763.813130) can0 477#6F01B97899001400
(1426617763.886862) can0 475#70131F0000060400
(1426617763.887330) can0 306#1000D001A9050000
(1426617763.887539) can0 294#53009CFFFA00F802
(1426617763.887790) can0 270#4013250000009F10
(1426617763.910308) can0 477#0600857999001400
(1426617763.986932) can0 475#72131F0000060000
(1426617763.987283) can0 306#1000BF0175050000
(1426617763.987539) can0 294#00009CFFFA001C01
(1426617763.987784) can0 270#7113000000007D0F
(1426617764.007071) can0 477#FBFF247A99001400
(1426617764.086891) can0 475#79131F0000060C00
(1426617764.087208) can0 306#1000BE0171050000
(1426617764.087463) can0 294#F9FD9CFFFA005B00
(1426617764.087708) can0 270#8C13A0FEA1FF8410
(1426617764.104061) can0 477#BFFE357A99001400
(1426617764.186800) can0 475#8D131F0000061400
(1426617764.187131) can0 306#1000D001AB050000
(1426617764.187383) can0 294#81FD9CFFFA00DDFE
(1426617764.187639) can0 270#8C130AFF0000AD0F
(1426617764.201089) can0 477#65FF2C7B99001400
(1426617764.286887) can0 475#96131F0000061600
(1426617764.287183) can0 306#1100CA0198050000
(1426617764.287443) can0 294#CCFC9CFFFA00ECFE
(1426617764.287801) can0 270#AA1375FE00000210
(1426617764.298019) can0 477#09FFAA7A99001400
(1426617764.386788) can0 475#96131F0000061800
(1426617764.387098) can0 306#1100C80191050000
(1426617764.387347) can0 294#7FFC9CFFFA00ADFE
(1426617764.387597) can0 270#A81372FEB1FF980F
(1426617764.394992) can0 477#1AFFE67A99001400
(1426617764.486809) can0 475#96131F0000061B00
(1426617764.487142) can0 306#1100C30183050000
(1426617764.487394) can0 294#5BFC9CFFFA0098FE
(1426617764.487642) can0 270#A8136FFE5DFFFD0E
(1426617764.491960) can0 477#F7FEE77A99001400
(1426617764.587914) can0 294#2CFC9CFFFA007BFE
(1426617764.588166) can0 270#AB1332FE58FF3B0F
(1426617764.588870) can0 477#E3FE047B99001400
(1426617764.685890) can0 477#B7FE197B99001400
(1426617764.687092) can0 475#A4131F0000062200
(1426617764.687416) can0 306#1100BD0170050000
(1426617764.687667) can0 294#2FFB9CFFFA0053FE
(1426617764.687916) can0 270#AF13DDFD4FFFDD0E
(1426617764.782928) can0 477#D3FE297B99001400
(1426617764.879842) can0 477#B9FE337B99001400
(1426617764.887128) can0 475#A4131F0000062200
(1426617764.887414) can0 306#1100B30151050000
(1426617764.887661) can0 294#50FB9CFFFA0028FE
(1426617764.887913) can0 270#B413EAFD90FF970E
(1426617764.976765) can0 477#B9FE417B99001400
(1426617764.987026) can0 475#9A131F0000062400
(1426617764.987326) can0 306#1100AF0142050000
(1426617764.987578) can0 294#08FB9CFFFA001FFE
(1426617764.987831) can0 270#B813C8FDBBFF9F0E
(1426617765.074756) can0 477#C2FE427B99001400
(1426617765.086993) can0 475#A8131F0000062400
(1426617765.087306) can0 306#1100A90130050000
(1426617765.087558) can0 294#08FB9CFFFA001FFE
(1426617765.087807) can0 270#B813CBFDF4FFAA0E
(1426617765.170754) can0 477#C8FE467B99001400
(1426617765.186979) can0 475#A8131F0000062500
(1426617765.187272) can0 306#1100A3011E050000
(1426617765.187527) can0 294#EAFA9CFFFA0025FE
(1426617765.187780) can0 270#B813BDFD0000AA0E
(1426617765.267708) can0 477#B9FE4B7B99001400
(1426617765.286992) can0 475#AB131F0000062100
(1426617765.287272) can0 306#11009E010E050000
(1426617765.287520) can0 294#09FB9CFFFA001EFE
(1426617765.287762) can0 270#BA13CBFD00000F0E
(1426617765.364677) can0 477#C2FE4E7B99001400
(1426617765.386975) can0 475#A2131F0000062300
(1426617765.387303) can0 306#11009801FB040000
(1426617765.387560) can0 294#68FB9CFFFA0024FE
(1426617765.387807) can0 270#BA13F5FD0000F80D
(1426617765.462733) can0 477#C5FE517B99001400
(1426617765.487202) can0 475#A2131F0000062200
(1426617765.487469) can0 306#10009301EB040000
(1426617765.487718) can0 294#F8FA9CFFFA0029FE
(1426617765.487964) can0 270#BA13C3FD0000BB0D
(1426617765.559600) can0 477#B3FE5C7B99001400
(1426617765.586953) can0 475#A2131F0000062400
(1426617765.587324) can0 306#10008F01DE040000
(1426617765.587584) can0 294#ADFA9CFFFA001BFE
(1426617765.587843) can0 270#BC13A2FD0000830D
(1426617765.655606) can0 477#AFFE647B99001400
(1426617765.687026) can0 475#AD131F0000062800
(1426617765.687447) can0 306#10008A01D0040000
(1426617765.687702) can0 270#BC139FFD00006F0D
(1426617765.687903) can0 294#A5FA9CFFFA0010FE
(1426617765.752540) can0 477#B5FE6C7B99001400
(1426617765.786911) can0 475#AF131F0000062800
(1426617765.787283) can0 306#10008401BE040000
(1426617765.787546) can0 294#E1FA9CFFFA0010FE
(1426617765.787788) can0 270#BE13B9FD00005F0D
(1426617765.849658) can0 477#ADFE6A7B99001400
(1426617765.887102) can0 475#B5131F0000062B00
(1426617765.887390) can0 306#10008001B0040000
(1426617765.887640) can0 294#7FFA9CFFFA000EFE
(1426617765.887840) can0 270#BF138EFD0000650D
(1426617765.946499) can0 477#9DFE797B99001400
(1426617765.987055) can0 475#B5131F0000062C00
(1426617765.987351) can0 306#10007C01A3040000
(1426617765.987600) can0 294#3CFA9CFFFA0001FE
(1426617765.987843) can0 270#BF1370FD0000D90C
(1426617766.043479) can0 477#A0FE807B99001400
(1426617766.086800) can0 475#A6131F0000062800
(1426617766.087290) can0 306#1000760192040000
(1426617766.087544) can0 294#3AFA9CFFFA00FEFD
(1426617766.087745) can0 270#C1136FFD0000870C
(1426617766.140416) can0 477#B1FE807B99001400
(1426617766.186751) can0 475#B5131F0000062800
(1426617766.187033) can0 306#1100710180040000
(1426617766.187380) can0 294#10FA9CFFFA0007FE
(1426617766.187645) can0 270#C2135DFD0000620C
(1426617766.237385) can0 477#B0FE7D7B99001400
(1426617766.287044) can0 475#B5131F0000062A00
(1426617766.287328) can0 294#BCF99CFFFA0009FE
(1426617766.287529) can0 306#11006C0171040000
(1426617766.287774) can0 270#C21337FD00004F0C
(1426617766.334360) can0 477#A9FE817B99001400
(1426617766.387020) can0 475#B7131F0000062C00
(1426617766.387310) can0 294#03FA9CFFFA00FDFD
(1426617766.387511) can0 306#1100680164040000
(1426617766.387760) can0 270#C21357FD0000280C
(1426617766.431358) can0 477#A2FE8D7B99001400
(1426617766.486929) can0 475#A9131F0000062C00
(1426617766.487247) can0 294#E2F99CFFFA00F8FD
(1426617766.487447) can0 306#1200620154040000
(1426617766.487960) can0 270#C51348FD0000E70B
(1426617766.528308) can0 477#AEFE8E7B99001400
(1426617766.586835) can0 475#B3131F0000062C00
(1426617766.587134) can0 306#12005D0143040000
(1426617766.587379) can0 294#96F99CFFFA0002FE
(1426617766.587619) can0 270#C51326FD0000C80B
(1426617766.625247) can0 477#9EFE917B99001400
(1426617766.686864) can0 475#B1131F0000063000
(1426617766.687237) can0 294#79F99CFFFA00FCFD
(1426617766.687447) can0 306#1200580135040000
(1426617766.687695) can0 270#C41319FD0000C20B
(1426617766.722202) can0 477#96FE977B99001400
(1426617766.786791) can0 475#B7131F0000063200
(1426617766.787082) can0 306#120055012B040000
(1426617766.787327) can0 294#D3F89CFFFA00EBFD
(1426617766.787572) can0 270#C613D0FC00007A0B
(1426617766.819190) can0 477#84FEA97B99001400
(1426617766.886803) can0 475#BB131F0000063500
(1426617766.887203) can0 306#130051011D040000
(1426617766.887453) can0 270#C613F3FC0000780B
(1426617766.887650) can0 294#23F99CFFFA00DBFD
(1426617766.916182) can0 477#8BFEAB7B99001400
(1426617766.986997) can0 475#B3131F0000063300
(1426617766.987280) can0 306#13004B010C040000
(1426617766.987523) can0 294#C1F89CFFFA00E3FD
(1426617766.987767) can0 270#CA13C8FC00003D0B
(1426617767.013131) can0 477#A4FEAB7B99001400
(1426617767.087024) can0 475#AB131F0000063200
(1426617767.087374) can0 306#12004401F6030000
(1426617767.087625) can0 294#30F99CFFFA00F5FD
(1426617767.087870) can0 270#C913F9FC0000D60A
(1426617767.110094) can0 477#A1FEA27B99001400
(1426617767.186961) can0 475#AF131F0000063200
(1426617767.187289) can0 306#13004001E8030000
(1426617767.187536) can0 294#E8F89CFFFA00F6FD
(1426617767.187782) can0 270#C913D9FC0000B10A
(1426617767.207115) can0 477#A6FEAE7B99001400
(1426617767.286896) can0 475#B5131F0000063000
(1426617767.287326) can0 306#13003901D3030000
(1426617767.287544) can0 294#0DF99CFFFA0007FE
(1426617767.287794) can0 270#C913E9FC0000550A
(1426617767.304084) can0 477#D1FEA67B99001400
(1426617767.386864) can0 475#AF131F0000062C00
(1426617767.387156) can0 306#13002F01B4030000
(1426617767.387405) can0 294#25FA9CFFFA0038FE
(1426617767.387647) can0 270#C71366FD0000370A
(1426617767.400995) can0 477#EFFE877B99001400
(1426617767.486867) can0 475#A8131F0000022800
(1426617767.487327) can0 306#120027019A030000
(1426617767.487578) can0 294#BCFA9CFFFA0063FE
(1426617767.487822) can0 270#C713A9FD0000D409
(1426617767.497944) can0 477#0EFF7E7B99001400
(1426617767.586818) can0 475#A6131F0000022400
(1426617767.587110) can0 306#1100200184030000
(1426617767.587354) can0 294#71FA9CFFFA008CFE
(1426617767.587610) can0 270#C21388FD00007209
(1426617767.595528) can0 477#1CFF6E7B99001400
(1426617767.686766) can0 475#A9131F0000022500
(1426617767.687287) can0 306#1100190170030000
(1426617767.687538) can0 294#04FB9CFFFA00A4FE
(1426617767.687781) can0 270#BF13C9FD00004909
(1426617767.691905) can0 477#26FF6C7B99001400
(1426617767.786774) can0 475#AF131F0000022100
(1426617767.787154) can0 306#1000120159030000
(1426617767.787425) can0 294#B7FB9CFFFA00C0FE
(1426617767.787672) can0 270#BF1318FE00001309
(1426617767.789044) can0 477#43FF657B99001400
(1426617767.885854) can0 477#55FF537B99001400
(1426617767.886954) can0 475#98131F0000021E00
(1426617767.887326) can0 306#11000A0141030000
(1426617767.887581) can0 294#10FC9CFFFA00E4FE
(1426617767.887826) can0 270#BE1340FE0000CF08
(1426617767.982797) can0 477#62FF4A7B99001400
(1426617767.987001) can0 475#A0131F0000021D00
(1426617767.987313) can0 306#110005012F030000
(1426617767.987592) can0 294#E9FB9CFFFA00FCFE
(1426617767.987841) can0 270#BA132FFE0000BF08
(1426617768.079790) can0 477#70FF447B99001400
(1426617768.086679) can0 475#A9131F0000021A00
(1426617768.087203) can0 306#1100FE001B030000
(1426617768.087581) can0 294#2AFC9CFFFA0013FF
(1426617768.087830) can0 270#BA134BFE00006E08
(1426617768.176752) can0 477#7EFF397B99001400
(1426617768.186858) can0 475#A2131F0000021900
(1426617768.187164) can0 306#1000F80009030000
(1426617768.187413) can0 294#A6FC9CFFFA002BFF
(1426617768.187659) can0 270#B81383FE00005C08
(1426617768.273742) can0 477#82FF337B99001400
(1426617768.286635) can0 475#9E131F0000021800
(1426617768.287831) can0 306#1100F500FD020000
(1426617768.370708) can0 477#99FF2D7B99001400
(1426617768.387063) can0 475#96131F0000021400
(1426617768.387366) can0 306#1100F000EE020000
(1426617768.387628) can0 294#24FD9CFFFA004CFF
(1426617768.387884) can0 270#B613BBFE0000F707
(1426617768.467664) can0 477#A7FF247B99001400
(1426617768.487042) can0 475#9E131F0000021200
(1426617768.487404) can0 306#1000EB00DF020000
(1426617768.487656) can0 294#3BFD9CFFFA0063FF
(1426617768.487899) can0 270#B513C5FE0000BE07
(1426617768.564654) can0 477#ACFF1D7B99001400
(1426617768.576982) can0 475#A0131F0000021100
(1426617768.577274) can0 306#1000E700D4020000
(1426617768.577523) can0 294#89FD9CFFFA0071FF
(1426617768.577765) can0 270#B213E8FE0000BD07
(1426617768.661930) can0 477#B7FF177B99001400
(1426617768.677038) can0 475#9A131F0000020F00
(1426617768.677337) can0 306#1000E300C6020000
(1426617768.677590) can0 294#FFFD9CFFFA0082FF
(1426617768.677838) can0 270#B2131CFF0000A707
(1426617768.758579) can0 477#C0FF0F7B99001400
(1426617768.776923) can0 475#A2131F0000020D00
(1426617768.777263) can0 306#1000DF00BB020000
(1426617768.777540) can0 294#0FFE9CFFFA008FFF
(1426617768.777785) can0 270#B11323FF00005D07
(1426617768.855523) can0 477#C2FF0E7B99001400
(1426617768.876972) can0 475#8E131F0000020D00
(1426617768.877266) can0 306#0F00DD00B2020000
(1426617768.877517) can0 294#03FE9CFFFA0097FF
(1426617768.877765) can0 270#B0131DFF00005607
(1426617768.953246) can0 477#CBFF097B99001400
(1426617768.976875) can0 475#9C131F0000020A00
(1426617768.977187) can0 306#0F00D800A4020000
(1426617768.977454) can0 294#80FE9CFFFA00A3FF
(1426617768.977704) can0 270#B01355FF00003407
(1426617769.049500) can0 477#DCFF067B99001400
(1426617769.076907) can0 475#90131F0000020800
(1426617769.077219) can0 306#0F00D40097020000
(1426617769.077481) can0 294#39FF9CFFFA00B2FF
(1426617769.077732) can0 270#AF13A7FF00000907
(1426617769.146462) can0 477#E9FFF87A99001400
(1426617769.176867) can0 475#96131F0000020400
(1426617769.177173) can0 306#0E00D0008C020000
(1426617769.177469) can0 294#54FF9CFFFA00C6FF
(1426617769.177722) can0 270#AD13B4FF00000707
(1426617769.243475) can0 477#F0FFF27A99001400
(1426617769.276848) can0 475#9C131F0000020400
(1426617769.277144) can0 306#0E00CE0086020000
(1426617769.277398) can0 294#25FF9CFFFA00D6FF
(1426617769.277643) can0 270#AD139FFF00000A07
(1426617769.340403) can0 477#F8FFF07A99001400
(1426617769.376803) can0 475#96131F0000020000
(1426617769.377206) can0 306#0E00CC007E020000
(1426617769.377457) can0 294#E2FF9CFFFA00E2FF
(1426617769.377702) can0 270#AB13F3FF0000F606
(1426617769.437360) can0 477#FEFFEB7A99001400
(1426617769.476917) can0 475#92131F0000020000
(1426617769.477239) can0 306#0E00CA0078020000
(1426617769.477494) can0 294#E1FF9CFFFA00EEFF
(1426617769.477738) can0 270#AA13F2FF00000707
(1426617769.534360) can0 477#0500E77A99001400
(1426617769.576699) can0 475#8E131F0000020000
(1426617769.577164) can0 306#0E00C80071020000
(1426617769.577421) can0 294#EBFF9CFFFA00FAFF
(1426617769.577675) can0 270#AA13F7FF00000507
(1426617769.631348) can0 477#1000DE7A99001400
(1426617769.676733) can0 475#87131F0000020000
(1426617769.677152) can0 306#0F00C5006A020000
(1426617769.677439) can0 294#ECFF9CFFFA000A00
(1426617769.677794) can0 270#A913F7FF00001907
(1426617769.728461) can0 477#1A00D97A99001400
(1426617769.776886) can0 475#89131F0000020400
(1426617769.777173) can0 306#0E00C20060020000
(1426617769.777422) can0 294#9A009CFFFA001C00
(1426617769.777676) can0 270#A713440000003F07
(1426617769.825230) can0 477#2500D07A99001400
(1426617769.876887) can0 475#8E131E0000020600
(1426617769.877170) can0 306#0E00C00059020000
(1426617769.877426) can0 294#C0009CFFFA002F00
(1426617769.877803) can0 270#A713550000002E07
(1426617769.922207) can0 477#2900CD7A99001400
(1426617769.976786) can0 475#92131E0000020800
(1426617769.977111) can0 306#0E00BF0056020000
(1426617769.977363) can0 294#B4009CFFFA003800
(1426617769.977612) can0 270#A613500000001D07
(1426617770.019174) can0 477#2D00CA7A99001400
(1426617770.076847) can0 475#8D131E0000020800
(1426617770.077150) can0 306#0E00BE0052020000
(1426617770.077854) can0 294#EA009CFFFA003D00
(1426617770.116158) can0 477#3500C67A99001400
(1426617770.177008) can0 475#8E131E0000020900
(1426617770.177291) can0 306#0F00BC004B020000
(1426617770.177644) can0 294#72019CFFFA004700
(1426617770.177913) can0 270#A513A40000001A07
(1426617770.213111) can0 477#3300C27A99001400
(1426617770.276995) can0 475#8E131E0000020C00
(1426617770.277287) can0 306#0F00BB0049020000
(1426617770.277536) can0 294#D3019CFFFA005000
(1426617770.277781) can0 270#A413CF0000002E07
(1426617770.310131) can0 477#3D00BD7A99001400
(1426617770.376943) can0 475#83131E0000020C00
(1426617770.377245) can0 306#1000BC004D020000
(1426617770.377509) can0 294#CE019CFFFA005A00
(1426617770.377757) can0 270#A313CD0000005207
(1426617770.407059) can0 477#4100B97A99001400
(1426617770.476954) can0 475#87131E0000020D00
(1426617770.477272) can0 306#1000BF0056020000
(1426617770.477523) can0 294#E7019CFFFA006200
(1426617770.477767) can0 270#A313D80000007A07
(1426617770.504027) can0 477#4700B57A99001400
(1426617770.576905) can0 475#89131E0000021000
(1426617770.577187) can0 306#1000C2005F020000
(1426617770.577443) can0 294#66029CFFFA006C00
(1426617770.577696) can0 270#A213100100006607
(1426617770.600987) can0 477#7000AF7A99001400
(1426617770.676848) can0 475#7D131E0000022A00
(1426617770.677169) can0 306#1000B80041020000
(1426617770.677423) can0 294#3E069CFFFA00B500
(1426617770.677668) can0 270#A113C60200000007
(1426617770.697928) can0 477#CD00777A99001400
(1426617770.776785) can0 475#77131E0000022B00
(1426617770.777263) can0 306#1000B60039020000
(1426617770.777519) can0 294#7E069CFFFA001A01
(1426617770.777766) can0 270#A113E20200004A07
(1426617770.794933) can0 477#DE005F7A99001400
(1426617770.876849) can0 475#77131E0000023700
(1426617770.877246) can0 306#1000B50037020000
(1426617770.877493) can0 294#8A079CFFFA005F01
(1426617770.877739) can0 270#9413590300003907
(1426617770.891888) can0 477#0601457A99001400
(1426617770.976786) can0 475#70131E0000023E00
(1426617770.977219) can0 306#1000B50038020000
(1426617770.977470) can0 294#C0089CFFFA00A301
(1426617770.977716) can0 270#8E13E30300004807
(1426617770.988861) can0 477#2501317A99001400
(1426617771.077090) can0 475#74131E0000024700
(1426617771.077427) can0 306#1000B6003B020000
(1426617771.077715) can0 294#F0099CFFFA00E101
(1426617771.077969) can0 270#8E136A0400005B07
(1426617771.085811) can0 477#48011C7A99001400
(1426617771.176775) can0 475#66131E0000024B00
(1426617771.177152) can0 306#1000B80041020000
(1426617771.177429) can0 294#CC0A9CFFFA001A02
(1426617771.177680) can0 270#8913CC0400007E07
(1426617771.184045) can0 477#6001087A99001400
(1426617771.276774) can0 475#6E131E0000024F00
(1426617771.277184) can0 306#1000BA0046020000
(1426617771.277433) can0 294#2A0B9CFFFA004F02
(1426617771.277679) can0 270#8413F5040000E507
(1426617771.279757) can0 477#7A01F67999001400
(1426617771.376721) can0 477#9801E47999001400
(1426617771.377185) can0 475#66131E0000025300
(1426617771.377445) can0 306#1100BC004E020000
(1426617771.377693) can0 294#A60B9CFFFA007D02
(1426617771.377940) can0 270#84132C0500000808
(1426617771.473697) can0 477#AD01D07999001400
(1426617771.476903) can0 475#5A131E0000025500
(1426617771.477202) can0 306#1100C00058020000
(1426617771.477465) can0 294#160C9CFFFA00A802
(1426617771.477728) can0 270#80135E0500002A08
(1426617771.570688) can0 477#C601BC7999001400
(1426617771.577104) can0 475#5C131E0000025A00
(1426617771.577369) can0 306#1000C20060020000
(1426617771.577622) can0 294#C70C9CFFFA00D302
(1426617771.577914) can0 270#7B13AD0500003D08
(1426617771.668174) can0 477#DF01AB7999001400
(1426617771.677082) can0 475#5A131E0000025E00
(1426617771.677468) can0 306#1000C5006A020000
(1426617771.677734) can0 294#860D9CFFFA00FD02
(1426617771.677981) can0 270#7B13020600005208
(1426617771.764955) can0 477#F101987999001400
(1426617771.777055) can0 475#53131E0000026000
(1426617771.777393) can0 306#1100CA0077020000
(1426617771.777650) can0 294#A00D9CFFFA002403
(1426617771.777902) can0 270#77130D0600007508
(1426617771.861581) can0 477#FD018C7999001400
(1426617771.877016) can0 475#4B131E0000026100
(1426617771.877604) can0 306#1100CE0085020000
(1426617771.877836) can0 294#6A0D9CFFFA004803
(1426617771.878078) can0 270#7313F5050000BD08
(1426617771.958579) can0 477#11027F7999001400
(1426617771.976945) can0 475#5A131E0000026500
(1426617771.977401) can0 306#1100D1008F020000
(1426617771.977654) can0 294#660E9CFFFA006E03
(1426617771.977902) can0 270#731365060000D908
(1426617772.056906) can0 477#E9017B7999001400
(1426617772.076966) can0 475#5E131E0000025C00
(1426617772.077351) can0 306#1200D30095020000
(1426617772.077599) can0 294#C80C9CFFFA006903
(1426617772.077848) can0 270#7013AD050000D908
(1426617772.152463) can0 477#B9018F7999001400
(1426617772.176932) can0 475#55131E0000025000
(1426617772.177221) can0 306#1200D700A1020000
(1426617772.177500) can0 294#610B9CFFFA003103
(1426617772.177749) can0 270#71130E050000D408
(1426617772.249462) can0 477#A901A37999001400
(1426617772.276875) can0 475#60131F0000024F00
(1426617772.277298) can0 306#1300DB00AC020000
(1426617772.277545) can0 294#1D0B9CFFFA00F802
(1426617772.277792) can0 270#7113EF040000C908
(1426617772.346428) can0 477#B001A37999001400
(1426617772.376865) can0 475#66131F0000024C00
(1426617772.377279) can0 306#1300DF00BB020000
(1426617772.377528) can0 294#E50A9CFFFA00EA02
(1426617772.377770) can0 270#7613D70400003A09
(1426617772.443397) can0 477#6701A77999001400
(1426617772.476828) can0 475#68131F0000023D00
(1426617772.477223) can0 306#1300DE00B8020000
(1426617772.477473) can0 294#58089CFFFA00B102
(1426617772.477755) can0 270#7513B40300000109
(1426617772.540389) can0 477#2601D97999001400
(1426617772.576987) can0 475#6A131F0000023400
(1426617772.577298) can0 306#1400E100BF020000
(1426617772.577544) can0 294#7A079CFFFA004102
(1426617772.577789) can0 270#7513520300002E09
(1426617772.637377) can0 477#F000EE7999001400
(1426617772.676790) can0 475#74131F0000022D00
(1426617772.677067) can0 306#1400E400C8020000
(1426617772.677450) can0 294#5B069CFFFA00DA01
(1426617772.677703) can0 270#8113D2020000F608
(1426617772.734336) can0 477#D6000D7A99001400
(1426617772.776757) can0 475#75131F0000022500
(1426617772.777134) can0 306#1400E600D1020000
(1426617772.777406) can0 294#3E059CFFFA009F01
(1426617772.777654) can0 270#8713540200000A09
(1426617772.831301) can0 477#C000227A99001400
(1426617772.876744) can0 475#6C131F0000022100
(1426617772.877133) can0 306#1400E800D6020000
(1426617772.877404) can0 294#A0049CFFFA006B01
(1426617772.877652) can0 270#87130E020000E208
(1426617772.928238) can0 477#A600307A99001400
(1426617772.976670) can0 475#75131F0000021B00
(1426617772.977102) can0 306#1400E900D9020000
(1426617772.977348) can0 294#A4039CFFFA003801
(1426617772.977592) can0 270#8B139E010000F708
(1426617773.025217) can0 477#8500487A99001400
(1426617773.076919) can0 475#75131F0000021600
(1426617773.077230) can0 306#1400EA00DC020000
(1426617773.077485) can0 294#B6029CFFFA000501
(1426617773.077769) can0 270#8F1334010000E408
(1426617773.131614) can0 477#6C00577A99001400
(1426617773.176886) can0 475#85131F0000021000
(1426617773.177225) can0 306#1400EB00DF020000
(1426617773.177486) can0 294#36029CFFFA00D300
(1426617773.177731) can0 270#8F13FB000000D908
(1426617773.219161) can0 477#57006C7A99001400
(1426617773.277090) can0 475#90131F0000020D00
(1426617773.277382) can0 306#1400EC00E1020000
(1426617773.277630) can0 294#47029CFFFA00A700
(1426617773.277874) can0 270#941302010000C508
(1426617773.316075) can0 477#4B00797A99001400
(1426617773.377061) can0 475#7F131F0000020C00
(1426617773.377341) can0 306#1400EA00DD020000
(1426617773.377621) can0 294#14029CFFFA008B00
(1426617773.377974) can0 270#9813EC000000BF08
(1426617773.413099) can0 477#4700807A99001400
(1426617773.476961) can0 475#7F131F0000020C00
(1426617773.477262) can0 306#1500E800D6020000
(1426617773.477510) can0 294#1B029CFFFA007E00
(1426617773.477754) can0 270#9813EF000000C408
(1426617773.510052) can0 477#3F00837A99001400
(1426617773.576960) can0 475#85131F0000020900
(1426617773.577247) can0 306#1500E600D1020000
(1426617773.577495) can0 294#BA019CFFFA007600
(1426617773.577734) can0 270#9913C4000000C608
(1426617773.607147) can0 477#3800887A99001400
(1426617773.676929) can0 475#81131F0000020900
(1426617773.677263) can0 306#1600E500CD020000
(1426617773.677512) can0 294#9A019CFFFA006800
(1426617773.677757) can0 270#9A13B60000009B08
(1426617773.703999) can0 477#3A008F7A99001400
(1426617773.776935) can0 475#8D131F0000020900
(1426617773.777230) can0 306#1600E300C7020000
(1426617773.777475) can0 294#6E019CFFFA005F00
(1426617773.777718) can0 270#9C13A20000006408
(1426617773.800993) can0 477#28008E7A99001400
(1426617773.876915) can0 475#8D131F0000020000
(1426617773.877245) can0 306#1600E700D3020000
(1426617773.877493) can0 294#DFFF9CFFFA003B00
(1426617773.877737) can0 270#9C13F1FF00003F08
(1426617773.897898) can0 477#ECFF9D7A99001400
(1426617773.976826) can0 475#8B131F0000020400
(1426617773.977277) can0 306#1600E900D9020000
(1426617773.977527) can0 294#91FF9CFFFA000100
(1426617773.977771) can0 270#A013CEFF00000408
(1426617773.994958) can0 477#EAFFC17A99001400
(1426617774.077069) can0 475#8E131F0000020600
(1426617774.077390) can0 306#1600E900D9020000
(1426617774.077654) can0 294#08FF9CFFFA00E4FF
(1426617774.077902) can0 270#A41392FF0000F107
(1426617774.091835) can0 477#DBFFC77A99001400
(1426617774.177047) can0 475#8D131F0000020500
(1426617774.177355) can0 306#1700E700D3020000
(1426617774.177601) can0 294#18FF9CFFFA00D2FF
(1426617774.177845) can0 270#A41399FF0000B707
(1426617774.188836) can0 477#DCFFCD7A99001400
(1426617774.276769) can0 475#8E131F0000020500
(1426617774.277066) can0 306#1700E400CA020000
(1426617774.277461) can0 294#0CFF9CFFFA00CAFF
(1426617774.277712) can0 270#A61393FF00009207
(1426617774.285786) can0 477#E0FFCF7A99001400
(1426617774.376778) can0 475#87131F0000020800
(1426617774.377163) can0 306#1700E100C0020000
(1426617774.377426) can0 294#37FF9CFFFA00C8FF
(1426617774.377694) can0 270#A613A7FF0000B307
(1426617774.384094) can0 477#E2FFD07A99001400
(1426617774.476756) can0 475#89131F0000020600
(1426617774.477155) can0 306#1600DF00BA020000
(1426617774.477409) can0 294#3EFF9CFFFA00C9FF
(1426617774.477653) can0 270#A613AAFF0000A007
(1426617774.479799) can0 477#E1FFD27A99001400
(1426617774.576741) can0 477#F5FFD07A99001400
(1426617774.577121) can0 475#87131F0000020000
(1426617774.577391) can0 306#1600DD00B4020000
(1426617774.577636) can0 294#32FF9CFFFA00D5FF
(1426617774.577882) can0 270#A613A4FF00008D07
(1426617774.673689) can0 477#FDFFC57A99001400
(1426617774.677025) can0 475#89131E0000020000
(1426617774.677325) can0 306#1600DC00B1020000
(1426617774.677584) can0 294#D9FF9CFFFA00E6FF
(1426617774.677853) can0 270#A413EEFF0000A307
(1426617774.770624) can0 477#0F00BF7A99001400
(1426617774.777120) can0 475#89131E0000020000
(1426617774.777399) can0 306#1600DA00A9020000
(1426617774.777646) can0 294#71009CFFFA00F8FF
(1426617774.777888) can0 270#A41332000000CC07
(1426617774.868531) can0 477#1C00B37A99001400
(1426617774.877113) can0 475#7D131E0000020000
(1426617774.877484) can0 306#1600D800A3020000
(1426617774.877759) can0 294#66009CFFFA001000
(1426617774.878003) can0 270#A3132D000000EE07
(1426617774.965384) can0 477#2500AD7A99001400
(1426617774.977058) can0 475#83131E0000020500
(1426617774.977487) can0 306#1500D700A1020000
(1426617774.977729) can0 294#FE009CFFFA002500
(1426617774.977976) can0 270#A01370000000FF07
(1426617775.061799) can0 477#3100A87A99001400
(1426617775.077038) can0 475#89131E0000020800
(1426617775.077366) can0 306#1400D6009D020000
(1426617775.077618) can0 294#8A019CFFFA003800
(1426617775.077870) can0 270#A013AF0000001808
(1426617775.160035) can0 477#43009F7A99001400
(1426617775.177000) can0 475#7F131E0000020C00
(1426617775.177377) can0 306#1400D6009F020000
(1426617775.177654) can0 294#BF019CFFFA004C00
(1426617775.177901) can0 270#A013C70000001308
(1426617775.255485) can0 477#4600997A99001400
(1426617775.277003) can0 475#7D131E0000020C00
(1426617775.277305) can0 306#1400D700A1020000
(1426617775.277553) can0 294#42029CFFFA005F00
(1426617775.277800) can0 270#9E13000100004D08
(1426617775.352433) can0 477#5100967A99001400
(1426617775.376936) can0 475#89131E0000020C00
(1426617775.377351) can0 306#1300DA00A9020000
(1426617775.377614) can0 294#75019CFFFA006C00
(1426617775.378830) can0 270#9E13A60000003C08
(1426617775.449406) can0 477#4B00967A99001400
(1426617775.476910) can0 475#7F131E0000020D00
(1426617775.477210) can0 306#1300DC00B1020000
(1426617775.477486) can0 294#BE019CFFFA007200
(1426617775.477736) can0 270#9D13C60000006208
(1426617775.546565) can0 477#5300907A99001400
(1426617775.576840) can0 475#83131E0000021000
(1426617775.577302) can0 306#1300DE00B6020000
(1426617775.577559) can0 294#38029CFFFA007E00
(1426617775.577804) can0 270#9C13FC0000004E08
(1426617775.643380) can0 477#9E008A7A99001400
(1426617775.677110) can0 475#74131E0000022100
(1426617775.677388) can0 306#1200D50099020000
(1426617775.677637) can0 294#EA049CFFFA00B900
(1426617775.677884) can0 270#9C132E020000FC07
(1426617775.740372) can0 477#A4005F7A99001400
(1426617775.776871) can0 475#7F131E0000022000
(1426617775.777241) can0 306#1300D40098020000
(1426617775.777513) can0 294#8E049CFFFA00F200
(1426617775.777766) can0 270#9713060200001108
(1426617775.837294) can0 477#B300587A99001400
(1426617775.876824) can0 475#70131E0000022400
(1426617775.877225) can0 306#1300D30094020000
(1426617775.877473) can0 294#55059CFFFA001201
(1426617775.877719) can0 270#93135E0200002008
(1426617775.934257) can0 477#BB004C7A99001400
(1426617775.976901) can0 475#75131E0000022500
(1426617775.977207) can0 306#1300D5009A020000
(1426617775.977453) can0 294#4D059CFFFA002B01
(1426617775.977704) can0 270#93135B0200004A08
(1426617776.031252) can0 477#CA004B7A99001400
(1426617776.076904) can0 475#79131E0000022800
(1426617776.077216) can0 306#1200D50099020000
(1426617776.077467) can0 294#FC059CFFFA004401
(1426617776.077705) can0 270#9113A80200005D08
(1426617776.128234) can0 477#D1003D7A99001400
(1426617776.176957) can0 475#6E131E0000022600
(1426617776.177253) can0 306#1200D6009D020000
(1426617776.177499) can0 294#6E059CFFFA005B01
(1426617776.177699) can0 270#8E13690200008008
(1426617776.225206) can0 477#DB003A7A99001400
(1426617776.276974) can0 475#70131E0000022A00
(1426617776.277271) can0 306#1200D700A2020000
(1426617776.277518) can0 294#F7059CFFFA006701
(1426617776.277760) can0 270#8E13A60200006F08
(1426617776.322147) can0 477#E000347A99001400
(1426617776.376866) can0 475#77131E0000022B00
(1426617776.377260) can0 306#1200D900A6020000
(1426617776.377533) can0 294#3B069CFFFA007601
(1426617776.377780) can0 270#8E13C40200008308
(1426617776.419139) can0 477#EB002D7A99001400
(1426617776.476874) can0 475#7D131E0000022A00
(1426617776.477272) can0 306#1200DB00AC020000
(1426617776.477519) can0 294#F3059CFFFA008201
(1426617776.477762) can0 270#8C13A4020000AC08
(1426617776.516077) can0 477#EC00297A99001400
(1426617776.576981) can0 475#6E131E0000022C00
(1426617776.577279) can0 306#1300DD00B3020000
(1426617776.577530) can0 294#47069CFFFA008B01
(1426617776.577774) can0 270#8C13CA0200009708
(1426617776.613023) can0 477#F400247A99001400
(1426617776.676829) can0 475#66131E0000022D00
(1426617776.677236) can0 306#1200DE00B6020000
(1426617776.677479) can0 294#BC069CFFFA009801
(1426617776.677724) can0 270#8B13FD020000CC08
(1426617776.710002) can0 477#F9001E7A99001400
(1426617776.776948) can0 475#75131E0000022F00
(1426617776.777239) can0 306#1200E000BC020000
(1426617776.777486) can0 294#07079CFFFA00A301
(1426617776.777730) can0 270#89131F030000D008
(1426617776.807014) can0 477#FD00167A99001400
(1426617776.876980) can0 475#77131E0000022E00
(1426617776.877268) can0 306#1200E100C1020000
(1426617776.877512) can0 294#B3069CFFFA00AE01
(1426617776.877757) can0 270#8913FA020000E408
(1426617776.903976) can0 477#0301127A99001400
(1426617776.976893) can0 475#66131E0000022E00
(1426617776.977182) can0 306#1200E400C8020000
(1426617776.977435) can0 294#70069CFFFA00B801
(1426617776.977679) can0 270#8813DC020000F308
(1426617777.000928) can0 477#09010F7A99001400
(1426617777.076923) can0 475#70131E0000022F00
(1426617777.077246) can0 306#1200E600D0020000
(1426617777.077498) can0 294#A2069CFFFA00BB01
(1426617777.077743) can0 270#8713F2020000E108
(1426617777.097917) can0 477#0D010D7A99001400
(1426617777.176906) can0 475#6C131E0000022F00
(1426617777.177314) can0 306#1100E800D5020000
(1426617777.177852) can0 294#D8069CFFFA00C201
(1426617777.178080) can0 270#87130A0300000909
(1426617777.194904) can0 477#0F01097A99001400
(1426617777.276877) can0 475#6A131E0000023000
(1426617777.277282) can0 306#1200EA00DB020000
(1426617777.277528) can0 294#3C079CFFFA00CC01
(1426617777.277775) can0 270#8613360300003D09
(1426617777.291878) can0 477#1001067A99001400
(1426617777.377054) can0 475#74131E0000023000
(1426617777.377359) can0 306#1200EC00E3020000
(1426617777.377613) can0 294#E7069CFFFA00D101
(1426617777.377858) can0 270#8513100300004309
(1426617777.388792) can0 477#0A01017A99001400
(1426617777.476846) can0 475#75131E0000023000
(1426617777.477245) can0 306#1300EE00EA020000
(1426617777.477493) can0 294#A9069CFFFA00CE01
(1426617777.477743) can0 270#8513F50200004709
(1426617777.485940) can0 477#0901037A99001400
(1426617777.576814) can0 475#74131E0000022800
(1426617777.577242) can0 306#1300EF00ED020000
(1426617777.577493) can0 294#CC059CFFFA00C301
(1426617777.577735) can0 270#8513930200009309
(1426617777.582730) can0 477#FA00047A99001400
(1426617777.676750) can0 475#7B131E0000022800
(1426617777.677162) can0 306#1300F200F4020000
(1426617777.677412) can0 294#DD059CFFFA00A701
(1426617777.677657) can0 270#87139A0200006C09
(1426617777.679661) can0 477#E600137A99001400
(1426617777.776667) can0 477#D5001F7A99001400
(1426617777.777437) can0 306#1400F400FB020000
(1426617777.777703) can0 294#30059CFFFA008801
(1426617777.777950) can0 270#87134E0200008309
(1426617777.873675) can0 477#C400277A99001400
(1426617777.877109) can0 475#77131E0000022100
(1426617777.877402) can0 306#1400F500FD020000
(1426617777.877653) can0 294#73049CFFFA006C01
(1426617777.877900) can0 270#8A13FA0100004609
(1426617777.971949) can0 477#B2002B7A99001400
(1426617777.977098) can0 475#75131E0000021E00
(1426617777.977547) can0 306#1400F60001030000
(1426617777.977800) can0 294#79049CFFFA005001
(1426617777.978048) can0 270#8C13FC0100007E09
(1426617778.067634) can0 477#9D00397A99001400
(1426617778.077114) can0 475#77131E0000021A00
(1426617778.077395) can0 306#1500F70006030000
(1426617778.077780) can0 294#77039CFFFA002E01
(1426617778.078035) can0 270#8C138A0100007209
(1426617778.164539) can0 477#9500467A99001400
(1426617778.177079) can0 475#7D131E0000021800
(1426617778.177451) can0 306#1500F80007030000
(1426617778.177714) can0 294#C3039CFFFA000E01
(1426617778.177974) can0 270#8F13AC0100008309
(1426617778.262526) can0 477#87004E7A99001400
(1426617778.277081) can0 475#7B131E0000021400
(1426617778.277378) can0 306#1500F9000A030000
(1426617778.277627) can0 294#27039CFFFA00F300
(1426617778.277873) can0 270#9113660100009709
(1426617778.358488) can0 477#7600577A99001400
(1426617778.377026) can0 475#81131E0000021300
(1426617778.377324) can0 306#1500F80007030000
(1426617778.377599) can0 294#42039CFFFA00DE00
(1426617778.377848) can0 270#9113720100008809
(1426617778.455485) can0 477#6700617A99001400
(1426617778.476980) can0 475#81131E0000021100
(1426617778.477287) can0 306#1400F80009030000
(1426617778.477585) can0 294#76029CFFFA00C500
(1426617778.477846) can0 270#9313180100007409
(1426617778.552428) can0 477#5B006A7A99001400
(1426617778.576942) can0 475#87131E0000020E00
(1426617778.577238) can0 306#1400F80008030000
(1426617778.577503) can0 294#46029CFFFA00AC00
(1426617778.577750) can0 270#9613020100004C09
(1426617778.649403) can0 477#5000737A99001400
(1426617778.676931) can0 475#85131E0000020E00
(1426617778.677212) can0 306#1300F70006030000
(1426617778.677571) can0 294#0B029CFFFA009700
(1426617778.677821) can0 270#9613E80000003809
(1426617778.746328) can0 477#5000797A99001400
(1426617778.776873) can0 475#7B131E0000020C00
(1426617778.777335) can0 306#1300F60001030000
(1426617778.777590) can0 294#A9019CFFFA008A00
(1426617778.777838) can0 270#9713BC0000002109
(1426617778.843372) can0 477#49007C7A99001400
(1426617778.876892) can0 475#75131E0000020C00
(1426617778.877277) can0 306#1200F400FB020000
(1426617778.877542) can0 294#FC019CFFFA008200
(1426617778.877811) can0 270#9813E20000002009
(1426617778.940323) can0 477#4A007D7A99001400
(1426617778.976848) can0 475#81131E0000020C00
(1426617778.977391) can0 306#1200F200F5020000
(1426617778.977773) can0 270#9813CF0000001009
(1426617779.037279) can0 477#3F00817A99001400
(1426617779.076858) can0 475#83131E0000020900
(1426617779.077256) can0 306#1200F000F0020000
(1426617779.077505) can0 294#5B019CFFFA007300
(1426617779.077751) can0 270#99139A000000FD08
(1426617779.134263) can0 477#4000867A99001400
(1426617779.176998) can0 475#79131E0000020B00
(1426617779.177300) can0 306#1200EF00EC020000
(1426617779.177553) can0 294#07029CFFFA006C00
(1426617779.177796) can0 270#9A13E6000000F908
(1426617779.231242) can0 477#4C00847A99001400
(1426617779.276995) can0 475#7F131E0000020E00
(1426617779.277293) can0 306#1200F000EE020000
(1426617779.277567) can0 294#27029CFFFA007700
(1426617779.277814) can0 270#9A13F40000000F09
(1426617779.328236) can0 477#4700817A99001400
(1426617779.376984) can0 475#81131E0000020B00
(1426617779.377293) can0 306#1200F500FE020000
(1426617779.377546) can0 294#8E019CFFFA007B00
(1426617779.377790) can0 270#9913B10000004A09
(1426617779.425360) can0 477#5200847A99001400
(1426617779.476939) can0 475#83131E0000020F00
(1426617779.477312) can0 306#1200F9000C030000
(1426617779.477571) can0 294#65029CFFFA008400
(1426617779.477818) can0 270#9A13100100008709
(1426617779.522121) can0 477#6100797A99001400
(1426617779.577078) can0 475#81131E0000020E00
(1426617779.577415) can0 306#1100FE001C030000
(1426617779.577666) can0 294#4B029CFFFA009200
(1426617779.577911) can0 270#9A13F2000000C009
(1426617779.619100) can0 477#6900757A99001400
(1426617779.676900) can0 475#77131E0000021000
(1426617779.677306) can0 306#120003012B030000
(1426617779.677556) can0 294#61029CFFFA009F00
(1426617779.677804) can0 270#98130E010000DF09
(1426617779.716100) can0 477#85006D7A99001400
(1426617779.776862) can0 475#70131E0000022500
(1426617779.777149) can0 306#1200FF001F030000
(1426617779.777544) can0 294#B5059CFFFA00D900
(1426617779.777796) can0 270#96136F0200007E09
(1426617779.813046) can0 477#14013A7A99001400
(1426617779.877036) can0 475#6A131E0000022A00
(1426617779.877428) can0 306#1100FA000E030000
(1426617779.877677) can0 270#961399020000B409
(1426617779.877878) can0 294#D9059CFFFA006B01
(1426617779.909984) can0 477#24010C7A99001400
(1426617779.976942) can0 475#68131E0000023300
(1426617779.977241) can0 306#1100FB0012030000
(1426617779.977489) can0 294#56079CFFFA00BC01
(1426617779.977736) can0 270#871322030000C909
(1426617780.006944) can0 477#4A01F27999001400
(1426617780.076939) can0 475#60131E0000023600
(1426617780.077265) can0 306#1100FD0016030000
(1426617780.077518) can0 294#CC079CFFFA000102
(1426617780.077766) can0 270#821376030000FC09
(1426617780.103945) can0 477#5C01E17999001400
(1426617780.177175) can0 475#62131E0000023A00
(1426617780.177498) can0 306#1000000121030000
(1426617780.177753) can0 294#01089CFFFA003502
(1426617780.177999) can0 270#8213A8030000110A
(1426617780.200918) can0 477#7901D37999001400
(1426617780.276969) can0 475#60131E0000023C00
(1426617780.277374) can0 306#100004012D030000
(1426617780.277660) can0 294#74089CFFFA005F02
(1426617780.277914) can0 270#7D13AA030000380A
(1426617780.297918) can0 477#8201C17999001400
(1426617780.377138) can0 475#53131E0000024000
(1426617780.377438) can0 306#1000070138030000
(1426617780.377703) can0 294#3D099CFFFA008502
(1426617780.377983) can0 270#7A13DE0300006F0A
(1426617780.394872) can0 477#9D01B57999001400
(1426617780.477256) can0 475#5E131E0000023F00
(1426617780.477614) can0 306#10000B0143030000
(1426617780.477863) can0 294#4F099CFFFA00AB02
(1426617780.478109) can0 270#7A130C040000AB0A
(1426617780.491780) can0 477#AB01A67999001400
(1426617780.577077) can0 475#55131E0000024500
(1426617780.577389) can0 306#10000D014A030000
(1426617780.577642) can0 294#EB099CFFFA00CD02
(1426617780.577921) can0 270#761330040000A50A
(1426617780.588780) can0 477#BF01957999001400
(1426617780.677065) can0 475#51131E0000024400
(1426617780.677388) can0 306#1000110156030000
(1426617780.677650) can0 294#AB099CFFFA00E902
(1426617780.677901) can0 270#73132B040000DE0A
(1426617780.685762) can0 477#CA018B7999001400
(1426617780.777221) can0 475#55131E0000024400
(1426617780.777794) can0 306#1000150161030000
(1426617780.778026) can0 294#BB099CFFFA000003
(1426617780.782703) can0 477#DC017B7999001400
(1426617780.876997) can0 475#4F131E0000024600
(1426617780.877305) can0 306#0F00170169030000
(1426617780.877556) can0 294#060A9CFFFA001B03
(1426617780.877805) can0 270#7113A7040000270B
(1426617780.879664) can0 477#EA01737999001400
(1426617780.976643) can0 477#02025F7999001400
(1426617780.977303) can0 475#55131E0000024A00
(1426617780.977505) can0 306#0F001A0171030000
(1426617780.977753) can0 294#650A9CFFFA003D03
(1426617780.977997) can0 270#6D139E0400001C0B
(1426617781.074226) can0 477#1702557999001400
(1426617781.077188) can0 475#4F131E0000024E00
(1426617781.077515) can0 306#0F001C0177030000
(1426617781.077771) can0 294#200B9CFFFA006203
(1426617781.078016) can0 270#6D13F1040000270B
(1426617781.170603) can0 477#23023E7999001400
(1426617781.177160) can0 475#45131E0000024E00
(1426617781.177533) can0 306#0F001F0182030000
(1426617781.177794) can0 294#4F0B9CFFFA008303
(1426617781.178051) can0 270#6913060500005E0B
(1426617781.267532) can0 477#3102377999001400
(1426617781.277092) can0 475#41131E0000024E00
(1426617781.277561) can0 306#0F0022018C030000
(1426617781.277823) can0 294#690B9CFFFA00A403
(1426617781.278073) can0 270#6613110500006E0B
(1426617781.364811) can0 477#3002317999001400
(1426617781.377106) can0 475#45131E0000024C00
(1426617781.377418) can0 306#0F0027019A030000
(1426617781.377670) can0 294#F00A9CFFFA00B203
(1426617781.377916) can0 270#6613DC040000FA0B
(1426617781.461609) can0 477#34022B7999001400
(1426617781.477101) can0 475#41131E0000024E00
(1426617781.477389) can0 306#0F002A01A5030000
(1426617781.477638) can0 294#230B9CFFFA00B803
(1426617781.477893) can0 270#6413F2040000D10B
(1426617781.558478) can0 477#3B02217999001400
(1426617781.577039) can0 475#47131E0000025000
(1426617781.577328) can0 306#0F002D01AC030000
(1426617781.577607) can0 294#520B9CFFFA00C503
(1426617781.577858) can0 270#621307050000FB0B
(1426617781.655771) can0 477#4C02197999001400
(1426617781.677013) can0 475#45131E0000024E00
(1426617781.677325) can0 306#0F002F01B4030000
(1426617781.677587) can0 294#4B0B9CFFFA00D203
(1426617781.677834) can0 270#621304050000080C
(1426617781.752446) can0 477#4702197999001400
(1426617781.776962) can0 475#41131E0000024E00
(1426617781.777267) can0 306#0F003301BF030000
(1426617781.777535) can0 294#360B9CFFFA00D603
(1426617781.777803) can0 270#6013FA040000300C
(1426617781.849392) can0 477#3C02167999001400
(1426617781.876958) can0 475#47131F0000024D00
(1426617781.877243) can0 306#0F003701CD030000
(1426617781.877606) can0 294#B70A9CFFFA00D103
(1426617781.877854) can0 270#6013C2040000320C
(1426617781.946348) can0 477#4C02197999001400
(1426617781.977056) can0 475#41131F0000024B00
(1426617781.977371) can0 306#10003A01D7030000
(1426617781.977622) can0 294#850A9CFFFA00CF03
(1426617781.977866) can0 270#6013AC0400007E0C
(1426617782.043344) can0 477#3F02127999001400
(1426617782.076959) can0 475#3A131F0000024D00
(1426617782.077360) can0 306#11003D01DF030000
(1426617782.077609) can0 294#A20A9CFFFA00CF03
(1426617782.077860) can0 270#6013B9040000680C
(1426617782.140282) can0 477#2602147999001400
(1426617782.177099) can0 475#45131F0000024400
(1426617782.177379) can0 306#11004001E9030000
(1426617782.177635) can0 294#BE099CFFFA00BB03
(1426617782.177885) can0 270#5F1353040000930C
(1426617782.237230) can0 477#FE01287999001400
(1426617782.277061) can0 475#47131F0000024000
(1426617782.277347) can0 306#11004401F5030000
(1426617782.277599) can0 294#E7089CFFFA008803
(1426617782.277848) can0 270#5F13F4030000B90C
(1426617782.334216) can0 477#CF01357999001400
(1426617782.377048) can0 475#49131F0000023A00
(1426617782.377330) can0 306#11004601FC030000
(1426617782.377580) can0 294#61089CFFFA004803
(1426617782.377824) can0 270#6313B9030000A70C
(1426617782.431191) can0 477#AF01567999001400
(1426617782.477011) can0 475#53131F0000023500
(1426617782.477387) can0 306#1100480102040000
(1426617782.477651) can0 294#AC079CFFFA000803
(1426617782.477905) can0 270#691368030000870C
(1426617782.528165) can0 477#8801687999001400
(1426617782.576985) can0 475#55131F0000023200
(1426617782.577302) can0 306#1100490106040000
(1426617782.577696) can0 294#B2069CFFFA00C502
(1426617782.577951) can0 270#6913F9020000710C
(1426617782.625162) can0 477#5701887999001400
(1426617782.677079) can0 475#51131F0000022900
(1426617782.677417) can0 306#10004B010C040000
(1426617782.677674) can0 294#F2059CFFFA007602
(1426617782.677922) can0 270#6E13A40200008E0C
(1426617782.722089) can0 477#1F01A37999001400
(1426617782.777211) can0 475#62131F0000022200
(1426617782.777698) can0 294#A6049CFFFA001E02
(1426617782.777913) can0 306#10004C010F040000
(1426617782.819075) can0 477#ED00C17999001400
(1426617782.877119) can0 475#62131F0000021A00
(1426617782.877415) can0 306#10004D0111040000
(1426617782.877669) can0 294#C1039CFFFA00C501
(1426617782.877912) can0 270#7E13AB010000690C
(1426617782.916053) can0 477#AE00E57999001400
(1426617782.976872) can0 475#6E131F0000021200
(1426617782.977247) can0 306#10004D0111040000
(1426617782.977526) can0 294#03039CFFFA006701
(1426617782.977787) can0 270#7E1356010000830C
(1426617783.012976) can0 477#8900067A99001400
(1426617783.076868) can0 475#6E131F0000020F00
(1426617783.077280) can0 306#10004D0110040000
(1426617783.077537) can0 294#DB019CFFFA001101
(1426617783.077787) can0 270#8613D30000004B0C
(1426617783.109952) can0 477#6C00237A99001400
(1426617783.177071) can0 475#70131F0000020D00
(1426617783.177371) can0 306#1000490105040000
(1426617783.177623) can0 294#F3019CFFFA00D300
(1426617783.177836) can0 270#8C13DD000000000C
(1426617783.206952) can0 477#4D00347A99001400
(1426617783.277075) can0 475#7B131F0000020B00
(1426617783.277413) can0 306#10004501F8030000
(1426617783.277669) can0 294#6D019CFFFA00AC00
(1426617783.277917) can0 270#8C13A2000000DE0B
(1426617783.304069) can0 477#4C00407A99001400
(1426617783.377043) can0 475#72131F0000020900
(1426617783.377460) can0 306#0F003F01E5030000
(1426617783.377709) can0 294#B2019CFFFA009400
(1426617783.377957) can0 270#8F13C10000009F0B
(1426617783.400877) can0 477#4B00457A99001400
(1426617783.476983) can0 475#75131F0000020800
(1426617783.477393) can0 306#0F003901D2030000
(1426617783.477641) can0 294#C2019CFFFA008800
(1426617783.477887) can0 270#9013C80000008D0B
(1426617783.497861) can0 477#4200467A99001400
(1426617783.577154) can0 475#7B131F0000020600
(1426617783.577449) can0 306#10003401C3030000
(1426617783.577698) can0 294#48019CFFFA007A00
(1426617783.577944) can0 270#901391000000560B
(1426617783.594827) can0 477#20004F7A99001400
(1426617783.676938) can0 475#85131F0000020600
(1426617783.677348) can0 306#10003801CF030000
(1426617783.677589) can0 294#CBFE9CFFFA002700
(1426617783.677838) can0 270#911377FF0000BF0A
(1426617783.691773) can0 477#C2FF787A99001400
(1426617783.776860) can0 475#8E131F0000020A00
(1426617783.777319) can0 306#10003701CC030000
(1426617783.777571) can0 294#8FFE9CFFFA00CBFF
(1426617783.777817) can0 270#9F135CFF0000B10A
(1426617783.788757) can0 477#B0FFA47A99001400
(1426617783.876888) can0 475#87131F0000020F00
(1426617783.877315) can0 306#11003401C4030000
(1426617783.877572) can0 294#D4FD9CFFFA0093FF
(1426617783.877821) can0 270#9F1309FF0000730A
(1426617783.885694) can0 477#8EFFB97A99001400
(1426617783.977093) can0 475#8D131F0000021300
(1426617783.977409) can0 306#11003101B9030000
(1426617783.977684) can0 294#75FD9CFFFA0066FF
(1426617783.977936) can0 270#A413DFFE00004E0A
(1426617783.983741) can0 477#74FFC57A99001400
(1426617784.077189) can0 475#8E131F0000021500
(1426617784.077516) can0 306#11002E01B1030000
(1426617784.077767) can0 294#E0FC9CFFFA003FFF
(1426617784.078018) can0 270#A7139CFE0000120A
(1426617784.079617) can0 477#67FFDE7A99001400
(1426617784.176747) can0 477#60FFE57A99001400
(1426617784.177329) can0 306#11002A01A5030000
(1426617784.177756) can0 294#E7FC9CFFFA0026FF
(1426617784.178013) can0 270#A7139FFE0000F009
(1426617784.273642) can0 477#44FFF47A99001400
(1426617784.277203) can0 475#A2131F0000021C00
(1426617784.277629) can0 306#100028019D030000
(1426617784.277881) can0 294#BFFB9CFFFA000FFF
(1426617784.278128) can0 270#A9131CFE0000F709
(1426617784.370548) can0 477#3CFF067B99001400
(1426617784.377171) can0 475#9C131F0000021D00
(1426617784.377463) can0 306#1100250194030000
(1426617784.377805) can0 294#B7FB9CFFFA00F1FE
(1426617784.378066) can0 270#AF1318FE0000CE09
(1426617784.467515) can0 477#32FF0F7B99001400
(1426617784.477159) can0 475#A0131F0000022000
(1426617784.477439) can0 306#120022018C030000
(1426617784.477803) can0 294#71FB9CFFFA00DEFE
(1426617784.478055) can0 270#AF13F9FD0000A709
(1426617784.564792) can0 477#3CFF147B99001400
(1426617784.577144) can0 475#96131F0000022100
(1426617784.577444) can0 306#12001F0181030000
(1426617784.577702) can0 294#7AFB9CFFFA00D1FE
(1426617784.577950) can0 270#B013FDFD0000A209
(1426617784.662674) can0 477#41FF127B99001400
(1426617784.677134) can0 475#96131F0000022000
(1426617784.677425) can0 306#12001B0174030000
(1426617784.677679) can0 294#64FB9CFFFA00D6FE
(1426617784.677930) can0 270#B113F3FD00006909
(1426617784.758427) can0 477#54FF127B99001400
(1426617784.777030) can0 475#94131F0000021D00
(1426617784.777398) can0 306#1200160167030000
(1426617784.777661) can0 294#50FC9CFFFA00E2FE
(1426617784.777921) can0 270#B1135CFE00006709
(1426617784.855763) can0 477#61FF0A7B99001400
(1426617784.877010) can0 475#98131F0000021A00
(1426617784.877403) can0 306#1200150163030000
(1426617784.877666) can0 294#63FC9CFFFA00F8FE
(1426617784.877916) can0 270#B01365FE00004409
(1426617784.952361) can0 477#7CFFFD7A99001400
(1426617784.976998) can0 475#9C131F0000021400
(1426617784.977386) can0 306#120013015B030000
(1426617784.977666) can0 294#32FD9CFFFA0018FF
(1426617784.977918) can0 270#AD13C1FE00003209
(1426617785.049348) can0 477#AFFFEB7A99001400
(1426617785.076990) can0 475#8D131E0000020B00
(1426617785.077402) can0 306#1300100152030000
(1426617785.077671) can0 294#3AFE9CFFFA004CFF
(1426617785.077924) can0 270#AD1336FF00001409
(1426617785.146304) can0 477#DAFFD57A99001400
(1426617785.177004) can0 475#85131E0000020400
(1426617785.177429) can0 306#13000E014C030000
(1426617785.177684) can0 294#60FF9CFFFA008CFF
(1426617785.177930) can0 270#A913B8FF00003909
(1426617785.243482) can0 477#0C00BE7A99001400
(1426617785.277132) can0 475#87131E0000020400
(1426617785.277409) can0 306#13000C0146030000
(1426617785.277660) can0 294#8B009CFFFA00D4FF
(1426617785.277906) can0 270#A3133D000000AF09
(1426617785.340297) can0 477#36009F7A99001400
(1426617785.377107) can0 475#87131E0000020A00
(1426617785.377389) can0 306#13000C0146030000
(1426617785.377643) can0 294#51019CFFFA001E00
(1426617785.377888) can0 270#A31395000000D509
(1426617785.437250) can0 477#5800867A99001400
(1426617785.476893) can0 475#7F131E0000020E00
(1426617785.477273) can0 306#13000D014A030000
(1426617785.477547) can0 294#25029CFFFA005E00
(1426617785.477801) can0 270#9C13F40000001F0A
(1426617785.534168) can0 477#67006D7A99001400
(1426617785.577118) can0 475#7F131E0000020E00
(1426617785.577415) can0 306#1300120159030000
(1426617785.577682) can0 294#E2019CFFFA008B00
(1426617785.577931) can0 270#9613D6000000830A
(1426617785.631162) can0 477#7000667A99001400
(1426617785.677062) can0 475#7D131E0000021100
(1426617785.677380) can0 306#1300160167030000
(1426617785.677628) can0 294#B9029CFFFA00A800
(1426617785.677873) can0 270#961335010000810A
(1426617785.728131) can0 477#99005D7A99001400
(1426617785.777269) can0 475#6E131E0000022400
(1426617785.777544) can0 306#130014015E030000
(1426617785.777792) can0 294#F1059CFFFA00E500
(1426617785.778041) can0 270#9413A3020000510A
(1426617785.825115) can0 477#4301FC7999001400
(1426617785.877232) can0 475#6C131E0000022E00
(1426617785.877515) can0 306#13000C0147030000
(1426617785.877772) can0 294#EB069CFFFA009801
(1426617785.878156) can0 270#841313030000880A
(1426617785.922049) can0 477#5501E57999001400
(1426617785.977131) can0 475#64131E0000023800
(1426617785.977419) can0 306#14000D0148030000
(1426617785.977673) can0 294#60089CFFFA000002
(1426617785.977925) can0 270#8413B80300009A0A
(1426617786.019015) can0 477#8501C47999001400
(1426617786.077190) can0 475#66131E0000023D00
(1426617786.077513) can0 306#14000F014F030000
(1426617786.077766) can0 294#27099CFFFA006002
(1426617786.078017) can0 270#7F1311040000C30A
(1426617786.116010) can0 477#B401A77999001400
(1426617786.177167) can0 475#57131E0000024600
(1426617786.177445) can0 294#130A9CFFFA00B702
(1426617786.177647) can0 306#1400110156030000
(1426617786.177895) can0 270#761379040000B90A
(1426617786.212981) can0 477#E001857999001400
(1426617786.277086) can0 475#53131E0000024B00
(1426617786.277377) can0 306#1400150162030000
(1426617786.277624) can0 294#970A9CFFFA000703
(1426617786.278074) can0 270#7613B4040000F30A
(1426617786.309929) can0 477#1402647999001400
(1426617786.377204) can0 475#53131E0000025100
(1426617786.377532) can0 306#140018016C030000
(1426617786.377779) can0 294#8B0B9CFFFA005703
(1426617786.378024) can0 270#6C13200500004F0B
(1426617786.406912) can0 477#47024A7999001400
(1426617786.477025) can0 475#45131E0000025600
(1426617786.477321) can0 306#14001C0177030000
(1426617786.477711) can0 294#650C9CFFFA00AC03
(1426617786.477968) can0 270#6613810500005B0B
(1426617786.503886) can0 477#7202297999001400
(1426617786.577209) can0 475#41131E0000025A00
(1426617786.577488) can0 306#1400200185030000
(1426617786.577739) can0 294#E50C9CFFFA00FD03
(1426617786.577995) can0 270#6613BA050000CD0B
(1426617786.600923) can0 477#A202027999001400
(1426617786.677028) can0 475#34131E0000026200
(1426617786.677441) can0 306#1400250194030000
(1426617786.677687) can0 294#100E9CFFFA004B04
(1426617786.677937) can0 270#5D133F060000C90B
(1426617786.697825) can0 477#D002E27899001400
(1426617786.777216) can0 475#30131E0000026700
(1426617786.777496) can0 306#13002901A2030000
(1426617786.777746) can0 294#DD0E9CFFFA00A104
(1426617786.777993) can0 270#54139A060000440C
(1426617786.794828) can0 477#E802C67899001400
(1426617786.877148) can0 475#32131E0000026700
(1426617786.877457) can0 306#13002F01B2030000
(1426617786.877710) can0 294#670F9CFFFA00F004
(1426617786.877958) can0 270#5413D7060000A80C
(1426617786.891715) can0 477#13039B7899001400
(1426617786.977099) can0 475#27131F0000026F00
(1426617786.977401) can0 306#13003501C6030000
(1426617786.977650) can0 294#F10F9CFFFA003805
(1426617786.977916) can0 270#4E13140700007B0C
(1426617786.988739) can0 477#41037C7899001400
(1426617787.077089) can0 475#28131F0000027400
(1426617787.077415) can0 306#14003A01D6030000
(1426617787.077674) can0 294#2C109CFFFA008905
(1426617787.077924) can0 270#45132F070000CE0C
(1426617787.085659) can0 477#7B03637899001400
(1426617787.177166) can0 475#1F131F0000027300
(1426617787.177474) can0 306#14004001E8030000
(1426617787.177728) can0 294#84109CFFFA00DC05
(1426617787.177977) can0 270#451356070000710D
(1426617787.182812) can0 477#9D03437899001400
(1426617787.277250) can0 475#19131F0000027C00
(1426617787.277554) can0 306#14004701FE030000
(1426617787.277807) can0 294#52119CFFFA002B06
(1426617787.278053) can0 270#3D13B1070000310D
(1426617787.279614) can0 477#CE03157899001400
(1426617787.377306) can0 475#0F131F0000027C00
(1426617787.377639) can0 306#14004D0111040000
(1426617787.377892) can0 477#0204037899001400
(1426617787.378140) can0 294#9D119CFFFA007506
(1426617787.378370) can0 270#3613D3070000D80D
(1426617787.473664) can0 477#1B04E67799001400
(1426617787.477238) can0 475#0C131F0000027C00
(1426617787.477503) can0 306#1400550129040000
(1426617787.477893) can0 294#F9119CFFFA00BC06
(1426617787.478162) can0 270#3613FB070000120E
(1426617787.570545) can0 477#1303C37799001400
(1426617787.577365) can0 475#15131F0000026300
(1426617787.577644) can0 306#1400590137040000
(1426617787.577897) can0 294#220D9CFFFA00BB06
(1426617787.578152) can0 270#2D13D50500006C0D
(1426617787.667505) can0 477#3F02807899001400
(1426617787.677196) can0 475#36131F0000024700
(1426617787.677571) can0 306#1400530125040000
(1426617787.677819) can0 294#B9099CFFFA005E05
(1426617787.678066) can0 270#341352040000330D
(1426617787.764529) can0 477#4402E97899001400
(1426617787.777181) can0 475#3C131F0000024500
(1426617787.777470) can0 306#140061014F040000
(1426617787.777728) can0 294#8E099CFFFA005404
(1426617787.777978) can0 270#34133E040000BF0D
(1426617787.861436) can0 477#4102E37899001400
(1426617787.877063) can0 475#38131F0000024700
(1426617787.877538) can0 306#1400610151040000
(1426617787.877797) can0 294#C2099CFFFA00FE03
(1426617787.878842) can0 270#5813560400004C0D
(1426617787.958418) can0 477#BC01E97899001400
(1426617787.977124) can0 475#4B131F0000023500
(1426617787.977421) can0 306#1400620152040000
(1426617787.977673) can0 294#94079CFFFA009203
(1426617787.977924) can0 270#58135D030000590D
(1426617788.056549) can0 477#97012A7999001400
(1426617788.077227) can0 475#53131F0000023100
(1426617788.077535) can0 306#1500620153040000
(1426617788.077787) can0 270#581304030000970D
(1426617788.077990) can0 294#CA069CFFFA002103
(1426617788.152337) can0 477#7801537999001400
(1426617788.177048) can0 475#51131F0000022D00
(1426617788.177428) can0 306#1400630155040000
(1426617788.177694) can0 294#69069CFFFA00C502
(1426617788.177967) can0 270#6413D80200006E0D
(1426617788.249328) can0 477#2F016D7999001400
(1426617788.277221) can0 475#59131F0000022000
(1426617788.277502) can0 306#1400630155040000
(1426617788.277784) can0 294#6C049CFFFA006802
(1426617788.278143) can0 270#6B13F7010000730D
(1426617788.346300) can0 477#6B00D27999001400
(1426617788.377182) can0 475#75131F0000020B00
(1426617788.377476) can0 306#14005B013E040000
(1426617788.377731) can0 294#91019CFFFA008B01
(1426617788.377977) can0 270#6B13B20000009F0C
(1426617788.443283) can0 477#0E00177A99001400
(1426617788.477186) can0 475#75131F0000020000
(1426617788.477469) can0 306#150050011B040000
(1426617788.477714) can0 294#0E009CFFFA00BE00
(1426617788.477962) can0 270#7D13060000008E0B
(1426617788.540249) can0 477#F8FF487A99001400
(1426617788.577192) can0 475#7B131F0000060000
(1426617788.577474) can0 294#00009CFFFA004500
(1426617788.577675) can0 306#15004301F2030000
(1426617788.577923) can0 270#901300000000910B
(1426617788.637222) can0 477#DFFE767A99001400
(1426617788.677307) can0 475#92131F0000062200
(1426617788.677609) can0 306#15005A0139040000
(1426617788.677862) can0 294#7FFB9CFFFA005BFF
(1426617788.678110) can0 270#901300FE0000D80B
(1426617788.734174) can0 477#69FFF17A99001400
(1426617788.777110) can0 475#92131F0000061800
(1426617788.777390) can0 306#1500530125040000
(1426617788.777787) can0 294#D2FC9CFFFA0018FF
(1426617788.778054) can0 270#A81396FE0000880B
(1426617788.831106) can0 477#28FFD17A99001400
(1426617788.877261) can0 475#96131F0000061B00
(1426617788.877547) can0 306#150051011D040000
(1426617788.877798) can0 294#07FC9CFFFA00E6FE
(1426617788.878048) can0 270#A3133CFE0000630B
(1426617788.928117) can0 477#38FFE07A99001400
(1426617788.977403) can0 475#8D131F0000061B00
(1426617788.977703) can0 306#14004C010D040000
(1426617788.977956) can0 294#0FFC9CFFFA00D7FE
(1426617788.978200) can0 270#A31340FE0000260B
(1426617789.025149) can0 477#2CFFE77A99001400
(1426617789.077216) can0 475#94131F0000061E00
(1426617789.077531) can0 306#14004701FD030000
(1426617789.077786) can0 294#27FC9CFFFA00D1FE
(1426617789.078038) can0 270#A8134AFE0000280B
(1426617789.122173) can0 477#28FFEA7A99001400
(1426617789.177081) can0 475#9E131F0000061D00
(1426617789.177506) can0 306#14004201F0030000
(1426617789.177766) can0 294#9DFB9CFFFA00C7FE
(1426617789.178013) can0 270#AA130DFE0000CB0A
(1426617789.219008) can0 477#18FFF67A99001400
(1426617789.277156) can0 475#92131F0000062200
(1426617789.277536) can0 306#14003F01E6030000
(1426617789.277809) can0 294#C5FA9CFFFA00B0FE
(1426617789.278059) can0 270#AA13ADFD0000A10A
(1426617789.316001) can0 477#07FF087B99001400
(1426617789.377160) can0 475#A2131F0000062400
(1426617789.377441) can0 306#14003B01D9030000
(1426617789.377699) can0 294#ECFA9CFFFA009CFE
(1426617789.378047) can0 270#AE13BEFD0000930A
(1426617789.413059) can0 477#05FF0F7B99001400
(1426617789.477145) can0 475#A2131F0000062800
(1426617789.477457) can0 306#15003701CC030000
(1426617789.477707) can0 294#F6FA9CFFFA008CFE
(1426617789.477953) can0 270#B013C3FD00006D0A
(1426617789.509919) can0 477#F8FE197B99001400
(1426617789.577149) can0 475#9C131F0000062800
(1426617789.577535) can0 306#14003201BC030000
(1426617789.577781) can0 294#A2FA9CFFFA0086FE
(1426617789.578027) can0 270#B0139DFD0000460A
(1426617789.606839) can0 477#F2FE1B7B99001400
(1426617789.677103) can0 475#94131F0000062800
(1426617789.677550) can0 306#14002D01AE030000
(1426617789.678109) can0 294#F2F99CFFFA0079FE
(1426617789.678340) can0 270#B2134FFD0000F009
(1426617789.703869) can0 477#F3FE297B99001400
(1426617789.777272) can0 475#A2131F0000062800
(1426617789.777569) can0 306#140028019F030000
(1426617789.777821) can0 294#D7F99CFFFA0076FE
(1426617789.778056) can0 270#B41343FD0000D409
(1426617789.800850) can0 477#F7FE297B99001400
(1426617789.877184) can0 475#9E131F0000062900
(1426617789.877557) can0 306#130023018F030000
(1426617789.877818) can0 294#43FA9CFFFA0076FE
(1426617789.878069) can0 270#B41373FD0000A609
(1426617789.897801) can0 477#FAFE2D7B99001400
(1426617789.977008) can0 475#A0131F0000062900
(1426617789.977324) can0 306#13001E017D030000
(1426617789.977675) can0 294#A6F99CFFFA007AFE
(1426617789.977924) can0 270#B4132DFD00005809
(1426617789.994806) can0 477#FFFE2C7B99001400
(1426617790.076933) can0 475#98131F0000062A00
(1426617790.077336) can0 306#120018016B030000
(1426617790.077600) can0 294#E7F99CFFFA007DFE
(1426617790.077877) can0 270#B5134AFD00004509
(1426617790.091745) can0 477#F8FE2E7B99001400
(1426617790.177186) can0 475#9E131F0000062E00
(1426617790.177471) can0 306#120013015C030000
(1426617790.177718) can0 294#08FA9CFFFA007FFE
(1426617790.177969) can0 270#B51359FD00003109
(1426617790.188707) can0 477#FCFE317B99001400
(1426617790.277159) can0 475#AB131F0000062D00
(1426617790.277447) can0 306#12000E014E030000
(1426617790.277691) can0 294#C1F99CFFFA007DFE
(1426617790.277939) can0 270#B51339FD0000E608
(1426617790.285647) can0 477#FAFE357B99001400
(1426617790.377358) can0 475#9C131F0000062E00
(1426617790.377635) can0 306#120009013D030000
