(1426617696.605917) can0 475#A9131A0000020800
(1426617696.606171) can0 306#1600020007000000
(1426617696.606396) can0 294#52019CFFFA000700
(1426617696.606686) can0 270#BC13960000004E00
(1426617696.613763) can0 477#1700597B9A001400
(1426617696.706120) can0 475#9E131A0000020800
(1426617696.706294) can0 306#1500010006000000
(1426617696.706465) can0 294#5B019CFFFA000700
(1426617696.706692) can0 270#BC139A0000006200
(1426617696.710749) can0 477#1900567B9A001400
(1426617696.806159) can0 475#A2131A0000020900
(1426617696.806355) can0 306#1400010006000000
(1426617696.806513) can0 294#8E019CFFFA000800
(1426617696.806777) can0 270#BC13B10000006200
(1426617696.807685) can0 477#1A00557B9A001400
(1426617696.904719) can0 477#1D00557B9A001400
(1426617696.906034) can0 475#A0131A0000020B00
(1426617696.906464) can0 306#1400020007000000
(1426617696.906710) can0 294#BE019CFFFA000900
(1426617696.906953) can0 270#BC13C60000008900
(1426617697.001671) can0 477#1F00527B9A001400
(1426617697.006056) can0 475#A6131A0000020C00
(1426617697.006472) can0 306#1400010006000000
(1426617697.006719) can0 294#D9019CFFFA000A00
(1426617697.006957) can0 270#BB13D20000007500
(1426617697.098615) can0 477#2100517B9A001400
(1426617697.105947) can0 475#9C131A0000020C00
(1426617697.106367) can0 306#1300010006000000
(1426617697.106641) can0 294#FE019CFFFA000B00
(1426617697.106894) can0 270#BB13E2000000B000
(1426617697.195645) can0 477#1D00507B9A001400
(1426617697.205958) can0 475#A4131A0000020D00
(1426617697.206246) can0 306#1400010006000000
(1426617697.206519) can0 294#20029CFFFA000C00
(1426617697.206770) can0 270#BB13F10000009D00
(1426617697.292632) can0 477#1A00527B9A001400
(1426617697.305899) can0 475#92131A0000020F00
(1426617697.306177) can0 306#1300010005000000
(1426617697.306564) can0 294#24029CFFFA000D00
(1426617697.306816) can0 270#BB13F30000008900
(1426617697.389487) can0 477#1700557B9A001400
(1426617697.405944) can0 475#9C131A0000021000
(1426617697.406257) can0 306#1400010006000000
(1426617697.406509) can0 294#46029CFFFA000E00
(1426617697.406756) can0 270#BB13020100007500
(1426617697.486500) can0 477#1800557B9A001400
(1426617697.505896) can0 475#9E131A0000021000
(1426617697.506292) can0 306#1400020007000000
(1426617697.506541) can0 294#53029CFFFA000E00
(1426617697.506798) can0 270#BB13080100008900
(1426617697.583469) can0 477#1400557B9A001400
(1426617697.606008) can0 475#A0131A0000021000
(1426617697.606330) can0 306#1400020007000000
(1426617697.606582) can0 294#63029CFFFA000F00
(1426617697.606829) can0 270#BB130F0100007500
(1426617697.681103) can0 477#1700577B9A001400
(1426617697.706014) can0 475#A9131A0000021000
(1426617697.706307) can0 306#1500020008000000
(1426617697.706557) can0 294#7E029CFFFA000F00
(1426617697.706805) can0 270#BC131B0100008900
(1426617697.778416) can0 477#1400567B9A001400
(1426617697.805978) can0 475#A2131A0000021000
(1426617697.806267) can0 306#140003000A000000
(1426617697.806518) can0 294#83029CFFFA001100
(1426617697.806761) can0 270#BC131D010000B000
(1426617697.874383) can0 477#1700577B9A001400
(1426617697.905750) can0 475#A2131A0000021000
(1426617697.906162) can0 306#1500020008000000
(1426617697.906422) can0 294#96029CFFFA001100
(1426617697.906674) can0 270#BC13260100009D00
(1426617697.971822) can0 477#1C00557B9A001400
(1426617698.005760) can0 475#9E131A0000021100
(1426617698.006161) can0 306#150003000A000000
(1426617698.006412) can0 294#8E029CFFFA001200
(1426617698.006659) can0 270#BB13220100008900
(1426617698.068322) can0 477#1A00537B9A001400
(1426617698.105904) can0 475#A2131A0000021100
(1426617698.106350) can0 306#1400020009000000
(1426617698.106606) can0 294#6F029CFFFA001100
(1426617698.106853) can0 270#BB13140100008900
(1426617698.165282) can0 477#1E00537B9A001400
(1426617698.205947) can0 475#A4131A0000020F00
(1426617698.206230) can0 306#140003000A000000
(1426617698.206584) can0 294#5B029CFFFA001000
(1426617698.206829) can0 270#BB130C0100009C00
(1426617698.262226) can0 477#22004F7B9A001400
(1426617698.305847) can0 475#9C131A0000021000
(1426617698.306254) can0 306#140003000B000000
(1426617698.306525) can0 294#65029CFFFA001000
(1426617698.306776) can0 270#BA13100100008900
(1426617698.359877) can0 477#26004D7B9A001400
(1426617698.406020) can0 475#9E131A0000021000
(1426617698.406364) can0 306#140003000B000000
(1426617698.406616) can0 294#85029CFFFA001100
(1426617698.406861) can0 270#BA131E0100009C00
(1426617698.456598) can0 477#28004B7B9A001400
(1426617698.505994) can0 475#98131A0000021100
(1426617698.506290) can0 306#140003000C000000
(1426617698.506539) can0 294#99029CFFFA001200
(1426617698.506780) can0 270#BA13270100009C00
(1426617698.553349) can0 477#2800487B9A001400
(1426617698.605921) can0 475#9C131A0000021400
(1426617698.606245) can0 306#130003000B000000
(1426617698.606492) can0 294#DA029CFFFA001300
(1426617698.606735) can0 270#B913440100009C00
(1426617698.650197) can0 477#2B00487B9A001400
(1426617698.705765) can0 475#AF131A0000021800
(1426617698.706135) can0 306#130004000F000000
(1426617698.706408) can0 294#5D039CFFFA001500
(1426617698.706668) can0 270#B9137E0100009D00
(1426617698.747097) can0 477#2600487B9A001400
(1426617698.805994) can0 475#A6131A0000021700
(1426617698.806307) can0 306#130004000E000000
(1426617698.806555) can0 294#7A039CFFFA001900
(1426617698.806811) can0 270#B9138B010000B000
(1426617698.844053) can0 477#2300457B9A001400
(1426617698.905894) can0 475#A2131A0000021D00
(1426617698.906233) can0 306#1300050011000000
(1426617698.906491) can0 294#54049CFFFA001E00
(1426617698.906736) can0 270#B913EC010000D700
(1426617698.941012) can0 477#2300497B9A001400
(1426617699.005953) can0 475#AD131A0000022000
(1426617699.006349) can0 306#1300060014000000
(1426617699.006594) can0 294#A6049CFFFA002400
(1426617699.006842) can0 270#B91310020000B100
(1426617699.038030) can0 477#16004F7B9A001400
(1426617699.106045) can0 475#A9131B0000022100
(1426617699.106388) can0 306#1300060014000000
(1426617699.106643) can0 294#C2049CFFFA002700
(1426617699.106889) can0 270#BA131D020000EC00
(1426617699.135025) can0 477#1C00537B9A001400
(1426617699.206069) can0 475#9C131B0000022400
(1426617699.206374) can0 306#1300080019000000
(1426617699.206621) can0 294#2A059CFFFA002C00
(1426617699.206864) can0 270#BB134B020000FF00
(1426617699.231941) can0 477#1D004F7B9A001400
(1426617699.306006) can0 475#A4131B0000022400
(1426617699.306332) can0 306#130008001A000000
(1426617699.306581) can0 294#52059CFFFA002F00
(1426617699.306835) can0 270#BB135D020000FF00
(1426617699.328943) can0 477#1F004F7B9A001400
(1426617699.405800) can0 475#A2131B0000022500
(1426617699.406191) can0 306#130009001F000000
(1426617699.406465) can0 294#44059CFFFA003300
(1426617699.406722) can0 270#BA1356020000FF00
(1426617699.425858) can0 477#1D004D7B9A001400
(1426617699.505769) can0 475#9C131B0000022400
(1426617699.506052) can0 306#140009001F000000
(1426617699.506402) can0 294#25059CFFFA003300
(1426617699.506661) can0 270#BA13490200001201
(1426617699.522882) can0 477#20004F7B9A001400
(1426617699.605886) can0 475#A6131B0000022500
(1426617699.606200) can0 306#14000B0025000000
(1426617699.606475) can0 294#37059CFFFA003500
(1426617699.606725) can0 270#BA1351020000FF00
(1426617699.619771) can0 477#1F004D7B9A001400
(1426617699.706075) can0 475#A4131B0000022400
(1426617699.706394) can0 306#13000C0027000000
(1426617699.706642) can0 294#32059CFFFA003600
(1426617699.706887) can0 270#BA134F0200002601
(1426617699.716810) can0 477#20004D7B9A001400
(1426617699.806109) can0 475#A0131B0000022300
(1426617699.806398) can0 306#13000D002B000000
(1426617699.806643) can0 294#0F059CFFFA003700
(1426617699.806884) can0 270#BA133F0200001201
(1426617699.813711) can0 477#21004C7B9A001400
(1426617699.906121) can0 475#9C131B0000022400
(1426617699.906442) can0 306#13000E002D000000
(1426617699.906697) can0 294#39059CFFFA003800
(1426617699.906941) can0 270#BA13520200002601
(1426617699.910838) can0 477#22004C7B9A001400
(1426617700.006129) can0 475#A6131B0000022400
(1426617700.006548) can0 306#1300100033000000
(1426617700.006797) can0 294#32059CFFFA003A00
(1426617700.007056) can0 270#BA134E0200003A01
(1426617700.007627) can0 477#21004A7B9A001400
(1426617700.104628) can0 477#23004A7B9A001400
(1426617700.106001) can0 475#A9131B0000022500
(1426617700.106423) can0 306#1300100034000000
(1426617700.106966) can0 294#3D059CFFFA003C00
(1426617700.107187) can0 270#BA13530200002601
(1426617700.201622) can0 477#2500497B9A001400
(1426617700.206031) can0 475#A2131B0000022500
(1426617700.206481) can0 306#1300110038000000
(1426617700.206730) can0 294#57059CFFFA003E00
(1426617700.206975) can0 270#BA135F0200003A01
(1426617700.298664) can0 477#2400487B9A001400
(1426617700.305971) can0 475#9E131B0000022400
(1426617700.306244) can0 306#1400120039000000
(1426617700.306638) can0 294#20059CFFFA003E00
(1426617700.306894) can0 270#B913470200003901
(1426617700.395530) can0 477#2600497B9A001400
(1426617700.405991) can0 475#A0131B0000022400
(1426617700.406417) can0 306#140013003C000000
(1426617700.406667) can0 294#29059CFFFA003F00
(1426617700.406923) can0 270#B9134A0200004D01
(1426617700.492536) can0 477#2500477B9A001400
(1426617700.505911) can0 475#9A131B0000022400
(1426617700.506358) can0 306#1300140040000000
(1426617700.506609) can0 294#1B059CFFFA004000
(1426617700.506854) can0 270#B913440200003A01
(1426617700.589528) can0 477#2600487B9A001400
(1426617700.605885) can0 475#A6131B0000022300
(1426617700.606296) can0 306#1400150043000000
(1426617700.606555) can0 294#0D059CFFFA004000
(1426617700.606799) can0 270#B9133E0200007501
(1426617700.686436) can0 477#2600467B9A001400
(1426617700.706058) can0 475#9C131B0000022400
(1426617700.706340) can0 306#1400160047000000
(1426617700.706586) can0 294#35059CFFFA004200
(1426617700.706828) can0 270#B913500200007401
(1426617700.783557) can0 477#2700457B9A001400
(1426617700.806105) can0 475#A4131B0000022300
(1426617700.806382) can0 306#1400170049000000
(1426617700.806768) can0 294#04059CFFFA004300
(1426617700.807034) can0 270#B9133A0200007501
(1426617700.880423) can0 477#2A00467B9A001400
(1426617700.906054) can0 475#A8131B0000022400
(1426617700.906318) can0 306#150018004C000000
(1426617700.906571) can0 294#29059CFFFA004400
(1426617700.906822) can0 270#B9134B0200008901
(1426617700.978328) can0 477#2800457B9A001400
(1426617701.005821) can0 475#A4131B0000022300
(1426617701.006207) can0 306#150018004E000000
(1426617701.006475) can0 294#03059CFFFA004500
(1426617701.006731) can0 270#B9133A0200008901
(1426617701.074342) can0 477#2800457B9A001400
(1426617701.105887) can0 475#A4131B0000022200
(1426617701.106192) can0 306#14001A0052000000
(1426617701.106475) can0 294#E4049CFFFA004500
(1426617701.106722) can0 270#B9132C0200009C01
(1426617701.171325) can0 477#2900447B9A001400
(1426617701.205987) can0 475#9C131B0000022200
(1426617701.206289) can0 306#1300190051000000
(1426617701.206550) can0 294#C7049CFFFA004400
(1426617701.206798) can0 270#B8131F0200007401
(1426617701.268254) can0 477#2700447B9A001400
(1426617701.305936) can0 475#A6131B0000021F00
(1426617701.306203) can0 306#14001B0055000000
(1426617701.306594) can0 294#A0049CFFFA004300
(1426617701.306848) can0 270#B8130E020000B001
(1426617701.365391) can0 477#2200457B9A001400
(1426617701.406063) can0 475#A0131B0000021800
(1426617701.406375) can0 306#14001B0056000000
(1426617701.406621) can0 294#73039CFFFA003C00
(1426617701.406868) can0 270#B813880100006101
(1426617701.462262) can0 477#1D00497B9A001400
(1426617701.505878) can0 475#A6131B0000021600
(1426617701.506344) can0 306#14001A0054000000
(1426617701.506598) can0 294#2E039CFFFA003200
(1426617701.506844) can0 270#B9136C0100008801
(1426617701.560302) can0 477#1F004A7B9A001400
(1426617701.606028) can0 475#9E131B0000021700
(1426617701.606339) can0 306#14001D005B000000
(1426617701.606615) can0 294#58039CFFFA003000
(1426617701.606858) can0 270#B9137F0100007401
(1426617701.657084) can0 477#1D004A7B9A001400
(1426617701.706057) can0 475#96131B0000021500
(1426617701.706343) can0 306#14001B0055000000
(1426617701.706591) can0 294#1E039CFFFA002D00
(1426617701.706836) can0 270#B913620100007401
(1426617701.753160) can0 477#1D004B7B9A001400
(1426617701.805836) can0 475#98131B0000021500
(1426617701.806257) can0 306#14001C005A000000
(1426617701.806500) can0 294#1E039CFFFA002B00
(1426617701.806747) can0 270#BA13620100008801
(1426617701.850248) can0 477#1C004B7B9A001400
(1426617701.906025) can0 475#9A131B0000021500
(1426617701.906594) can0 306#14001B0055000000
(1426617701.906826) can0 294#20039CFFFA002A00
(1426617701.947050) can0 477#1C004C7B9A001400
(1426617702.006193) can0 475#A0131B0000021400
(1426617702.006520) can0 306#14001B0055000000
(1426617702.006778) can0 294#F9029CFFFA002900
(1426617702.007026) can0 270#BA13510100008801
(1426617702.044044) can0 477#1C004C7B9A001400
(1426617702.105912) can0 475#9E131B0000021500
(1426617702.106231) can0 306#14001B0057000000
(1426617702.106495) can0 294#FE029CFFFA002800
(1426617702.106751) can0 270#BA13580100006101
(1426617702.141034) can0 477#1C004B7B9A001400
(1426617702.206337) can0 475#9E131B0000021400
(1426617702.206629) can0 306#14001A0053000000
(1426617702.206876) can0 294#05039CFFFA002800
(1426617702.207117) can0 270#BA13580100008801
(1426617702.237989) can0 477#1C004C7B9A001400
(1426617702.306256) can0 475#A6131B0000021500
(1426617702.306598) can0 306#14001A0053000000
(1426617702.306861) can0 294#10039CFFFA002800
(1426617702.307114) can0 270#BA135F0100007501
(1426617702.334942) can0 477#1B004B7B9A001400
(1426617702.407126) can0 294#1B039CFFFA002800
(1426617702.407376) can0 270#BA13620100004D01
(1426617702.431912) can0 477#1C004B7B9A001400
(1426617702.506029) can0 475#A2131B0000021400
(1426617702.506349) can0 306#1300190051000000
(1426617702.506600) can0 294#1D039CFFFA002800
(1426617702.506845) can0 270#BA135E0100008801
(1426617702.528852) can0 477#1B004D7B9A001400
(1426617702.606187) can0 475#A6131B0000021500
(1426617702.606519) can0 306#130018004D000000
(1426617702.606760) can0 294#16039CFFFA002700
(1426617702.607004) can0 270#BA135F0100006101
(1426617702.625849) can0 477#1B004C7B9A001400
(1426617702.706118) can0 475#A8131B0000021600
(1426617702.706428) can0 306#1300190050000000
(1426617702.706705) can0 294#2F039CFFFA002800
(1426617702.706951) can0 270#BA13690100006101
(1426617702.722776) can0 477#1C004C7B9A001400
(1426617702.806114) can0 475#A6131B0000021500
(1426617702.806437) can0 306#120019004F000000
(1426617702.806690) can0 294#13039CFFFA002800
(1426617702.806932) can0 270#BA135D0100006101
(1426617702.819754) can0 477#1B004B7B9A001400
(1426617702.906177) can0 475#96131B0000021600
(1426617702.906468) can0 306#120018004D000000
(1426617702.906859) can0 294#3F039CFFFA002800
(1426617702.907112) can0 270#BA13710100007401
(1426617702.916759) can0 477#1C004B7B9A001400
(1426617703.006158) can0 475#A8131B0000021800
(1426617703.006458) can0 306#120019004F000000
(1426617703.006860) can0 294#68039CFFFA002A00
(1426617703.007125) can0 270#BA13830100004D01
(1426617703.013678) can0 477#1C004B7B9A001400
(1426617703.106131) can0 475#A2131B0000021900
(1426617703.106550) can0 306#120018004D000000
(1426617703.106802) can0 294#EA039CFFFA002C00
(1426617703.107046) can0 270#BA13BD0100007401
(1426617703.110634) can0 477#20004B7B9A001400
(1426617703.206100) can0 475#A0131B0000021F00
(1426617703.206430) can0 306#12001A0052000000
(1426617703.206825) can0 294#82049CFFFA003500
(1426617703.207081) can0 270#B913000200008801
(1426617703.207534) can0 477#2400477B9A001400
(1426617703.304629) can0 477#2300467B9A001400
(1426617703.306292) can0 475#A8131B0000022000
(1426617703.306582) can0 306#120018004E000000
(1426617703.306834) can0 294#97049CFFFA003A00
(1426617703.307078) can0 270#B9130A0200006101
(1426617703.401628) can0 477#2700457B9A001400
(1426617703.406219) can0 475#9C131B0000022000
(1426617703.406531) can0 306#13001A0052000000
(1426617703.406798) can0 294#B6049CFFFA003D00
(1426617703.407048) can0 270#B91318020000AF01
(1426617703.498530) can0 477#2500447B9A001400
(1426617703.506031) can0 475#A9131B0000022100
(1426617703.506408) can0 306#13001A0054000000
(1426617703.506674) can0 294#CF049CFFFA004100
(1426617703.506921) can0 270#B813220200007501
(1426617703.595571) can0 477#2500447B9A001400
(1426617703.605982) can0 475#A0131B0000022000
(1426617703.606417) can0 306#13001B0056000000
(1426617703.606670) can0 294#B9049CFFFA004200
(1426617703.606920) can0 270#B813190200008801
(1426617703.692508) can0 477#2600437B9A001400
(1426617703.705972) can0 475#9C131B0000022000
(1426617703.706344) can0 306#14001C005A000000
(1426617703.706885) can0 294#AD049CFFFA004400
(1426617703.707116) can0 270#B813140200009B01
(1426617703.789626) can0 477#2600437B9A001400
(1426617703.805891) can0 475#A6131B0000022100
(1426617703.806362) can0 306#14001C0058000000
(1426617703.806621) can0 294#C2049CFFFA004400
(1426617703.806865) can0 270#B8131D0200008801
(1426617703.886447) can0 477#2800437B9A001400
(1426617703.906103) can0 475#A9131B0000022100
(1426617703.906397) can0 306#14001D005B000000
(1426617703.906655) can0 294#D0049CFFFA004500
(1426617703.906904) can0 270#B81323020000AF01
(1426617703.983391) can0 477#2600427B9A001400
(1426617704.005899) can0 475#9E131B0000022100
(1426617704.006284) can0 306#14001D005C000000
(1426617704.006535) can0 294#CE049CFFFA004600
(1426617704.006785) can0 270#B81322020000AF01
(1426617704.080406) can0 477#2900427B9A001400
(1426617704.106003) can0 475#9E131B0000022000
(1426617704.106322) can0 306#14001E0060000000
(1426617704.106573) can0 294#A0049CFFFA004600
(1426617704.106815) can0 270#B8130D020000C301
(1426617704.178463) can0 477#2600427B9A001400
(1426617704.205803) can0 475#A0131B0000021B00
(1426617704.206080) can0 306#14001F0063000000
(1426617704.206472) can0 294#B5039CFFFA004300
(1426617704.206725) can0 270#B813A50100009B01
(1426617704.274322) can0 477#1E00457B9A001400
(1426617704.306106) can0 475#A0131B0000021600
(1426617704.306411) can0 306#14001D005D000000
(1426617704.306661) can0 294#30039CFFFA003700
(1426617704.306915) can0 270#B8136A0100009B01
(1426617704.371863) can0 477#1F00467B9A001400
(1426617704.406016) can0 475#A4131B0000021600
(1426617704.406431) can0 306#1400200065000000
(1426617704.406680) can0 294#29039CFFFA003200
(1426617704.406927) can0 270#B91367010000B001
(1426617704.468264) can0 477#1D00477B9A001400
(1426617704.505979) can0 475#9C131B0000021500
(1426617704.506369) can0 306#15001E0060000000
(1426617704.506618) can0 294#2B039CFFFA002F00
(1426617704.506865) can0 270#B91368010000AF01
(1426617704.565213) can0 477#2000467B9A001400
(1426617704.605969) can0 475#98131B0000021500
(1426617704.606432) can0 306#1600200064000000
(1426617704.606735) can0 294#2F039CFFFA002F00
(1426617704.606954) can0 270#B9136A010000AF01
(1426617704.663342) can0 477#1E00477B9A001400
(1426617704.706088) can0 475#A0131B0000021500
(1426617704.706386) can0 306#1600200064000000
(1426617704.706639) can0 294#2F039CFFFA002E00
(1426617704.706885) can0 270#B9136A010000AF01
(1426617704.759146) can0 477#2100467B9A001400
(1426617704.806049) can0 475#9C131B0000021600
(1426617704.806355) can0 306#160021006A000000
(1426617704.806602) can0 294#30039CFFFA002F00
(1426617704.806851) can0 270#B9136A010000C301
(1426617704.856113) can0 477#2200457B9A001400
