(1426616814.826037) can0 475#A413184945000000
(1426616814.826223) can0 306#1200000000000000
(1426616814.826376) can0 294#00009CFFFA000000
(1426616814.877308) can0 477#0700AE7B9B001400
(1426616814.925918) can0 475#B513184945000000
(1426616814.926240) can0 306#1200000000000000
(1426616814.926480) can0 294#00009CFFFA000000
(1426616814.974251) can0 477#0700AD7B9B001400
(1426616815.026062) can0 475#B713184945000000
(1426616815.026298) can0 306#1100000000000000
(1426616815.026568) can0 294#00009CFFFA000000
(1426616815.071203) can0 477#0700AE7B9B001400
(1426616815.126094) can0 475#AD13184945000000
(1426616815.126402) can0 306#1100000000000000
(1426616815.126693) can0 294#00009CFFFA000000
(1426616815.168165) can0 477#0700AE7B9B001400
(1426616815.226003) can0 475#B113184945000000
(1426616815.226343) can0 306#1100000000000000
(1426616815.226617) can0 294#00009CFFFA000000
(1426616815.265165) can0 477#0700AE7B9B001400
(1426616815.326038) can0 475#BB13184945000000
(1426616815.326361) can0 306#1000000000000000
(1426616815.326611) can0 294#00009CFFFA000000
(1426616815.362278) can0 477#0700AD7B9B001400
(1426616815.425958) can0 475#AB13184945000000
(1426616815.426257) can0 306#1000000000000000
(1426616815.426531) can0 294#00009CFFFA000000
(1426616815.459100) can0 477#0700AE7B9B001400
(1426616815.525966) can0 475#B513184945000000
(1426616815.526270) can0 306#1100000000000000
(1426616815.526528) can0 294#00009CFFFA000000
(1426616815.556040) can0 477#0700AE7B9B001400
(1426616815.626055) can0 475#A913184945000000
(1426616815.626386) can0 306#1100000000000000
(1426616815.626667) can0 294#00009CFFFA000000
(1426616815.653025) can0 477#0700AE7B9B001400
(1426616815.726180) can0 475#B313184945000000
(1426616815.726509) can0 306#1000000000000000
(1426616815.726758) can0 294#00009CFFFA000000
(1426616815.749986) can0 477#0700AE7B9B001400
(1426616815.826130) can0 475#B113184945000000
(1426616815.826593) can0 306#1000000000000000
(1426616815.826851) can0 294#00009CFFFA000000
(1426616815.847005) can0 477#0700AE7B9B001400
(1426616815.926096) can0 475#B113184945000000
(1426616815.926522) can0 306#1100000000000000
(1426616815.926791) can0 294#00009CFFFA000000
(1426616815.943889) can0 477#0700AE7B9B001400
(1426616816.026093) can0 475#AF13184945000000
(1426616816.026502) can0 306#1000000000000000
(1426616816.026764) can0 294#00009CFFFA000000
(1426616816.040890) can0 477#0700AD7B9B001400
(1426616816.126047) can0 475#A913184945000000
(1426616816.126451) can0 306#1100000000000000
(1426616816.126714) can0 294#00009CFFFA000000
(1426616816.137866) can0 477#0700AE7B9B001400
(1426616816.226006) can0 475#AF13184945000000
(1426616816.226432) can0 306#1100000000000000
(1426616816.226700) can0 294#00009CFFFA000000
(1426616816.234805) can0 477#0700AD7B9B001400
(1426616816.326042) can0 475#B713184945000000
(1426616816.326466) can0 306#1100000000000000
(1426616816.326717) can0 294#00009CFFFA000000
(1426616816.331810) can0 477#0700AD7B9B001400
(1426616816.425925) can0 475#AD13184945000000
(1426616816.426256) can0 306#1200000000000000
(1426616816.426626) can0 294#00009CFFFA000000
(1426616816.428735) can0 477#0700AD7B9B001400
(1426616816.525769) can0 477#0700AE7B9B001400
(1426616816.526168) can0 475#B113184945000000
(1426616816.526570) can0 306#1200000000000000
(1426616816.526780) can0 294#00009CFFFA000000
(1426616816.622678) can0 477#0700AE7B9B001400
(1426616816.626073) can0 475#B313184945000000
(1426616816.626364) can0 306#1200000000000000
(1426616816.626619) can0 294#00009CFFFA000000
(1426616816.719636) can0 477#0700AD7B9B001400
(1426616816.726086) can0 475#B513184945000000
(1426616816.726387) can0 306#1200000000000000
(1426616816.726637) can0 294#00009CFFFA000000
(1426616816.816659) can0 477#0700AE7B9B001400
(1426616816.825990) can0 475#AF13184945000000
(1426616816.826319) can0 306#1300000000000000
(1426616816.826585) can0 294#00009CFFFA000000
(1426616816.913575) can0 477#0700AE7B9B001400
(1426616816.925995) can0 475#A913184945000000
(1426616816.926294) can0 306#1300000000000000
(1426616816.926545) can0 294#00009CFFFA000000
(1426616817.010924) can0 477#0700AE7B9B001400
(1426616817.025932) can0 475#A913184945000000
(1426616817.026530) can0 306#1300000000000000
(1426616817.026767) can0 294#00009CFFFA000000
(1426616817.108310) can0 477#0700AE7B9B001400
(1426616817.126020) can0 475#B513184945000000
(1426616817.126298) can0 306#1300000000000000
(1426616817.126550) can0 294#00009CFFFA000000
(1426616817.204511) can0 477#0700AD7B9B001400
(1426616817.225920) can0 475#B313184945000000
(1426616817.226208) can0 306#1300000000000000
(1426616817.226503) can0 294#00009CFFFA000000
(1426616817.301662) can0 477#0700AD7B9B001400
(1426616817.325974) can0 475#A813184945000000
(1426616817.326383) can0 306#1300000000000000
(1426616817.326637) can0 294#00009CFFFA000000
(1426616817.399177) can0 477#0700AE7B9B001400
(1426616817.426069) can0 475#AF13184945000000
(1426616817.426381) can0 306#1300000000000000
(1426616817.426650) can0 294#00009CFFFA000000
(1426616817.495827) can0 477#0700AE7B9B001400
(1426616817.526045) can0 475#AB13184945000000
(1426616817.526354) can0 306#1300000000000000
(1426616817.526638) can0 294#00009CFFFA000000
(1426616817.592558) can0 477#0700AD7B9B001400
(1426616817.625996) can0 475#AD13184945000000
(1426616817.626305) can0 306#1300000000000000
(1426616817.626568) can0 294#00009CFFFA000000
(1426616817.689493) can0 477#0700AE7B9B001400
(1426616817.725998) can0 475#A613184945000000
(1426616817.726305) can0 306#1300000000000000
(1426616817.726580) can0 294#00009CFFFA000000
(1426616817.786329) can0 477#0700AD7B9B001400
(1426616817.825944) can0 475#B113184945000000
(1426616817.826273) can0 306#1300000000000000
(1426616817.826550) can0 294#00009CFFFA000000
(1426616817.883268) can0 477#0700AF7B9B001400
(1426616817.925959) can0 475#B113184945000000
(1426616817.926259) can0 306#1300000000000000
(1426616817.926521) can0 294#00009CFFFA000000
(1426616817.980325) can0 477#0700AE7B9B001400
(1426616818.026132) can0 475#AF13184945000000
(1426616818.026441) can0 306#1400000000000000
(1426616818.026712) can0 294#00009CFFFA000000
(1426616818.077221) can0 477#0700AD7B9B001400
(1426616818.126329) can0 475#B313184945000000
(1426616818.126655) can0 306#1300000000000000
(1426616818.126906) can0 294#00009CFFFA000000
(1426616818.174220) can0 477#0700AE7B9B001400
(1426616818.226295) can0 475#B713184945000000
(1426616818.226619) can0 306#1200000000000000
(1426616818.226869) can0 294#00009CFFFA000000
(1426616818.271182) can0 477#0700AE7B9B001400
(1426616818.326270) can0 475#AB13184945000000
(1426616818.326617) can0 306#1100000000000000
(1426616818.326880) can0 294#00009CFFFA000000
(1426616818.368185) can0 477#0700AD7B9B001400
(1426616818.426238) can0 475#B513184945000000
(1426616818.426569) can0 306#1000000000000000
(1426616818.426822) can0 294#00009CFFFA000000
(1426616818.465096) can0 477#0700AE7B9B001400
(1426616818.526180) can0 475#AD13184945000000
(1426616818.526497) can0 306#1000000000000000
(1426616818.526768) can0 294#00009CFFFA000000
(1426616818.562059) can0 477#0700AD7B9B001400
(1426616818.626169) can0 475#B313184945000000
(1426616818.626493) can0 306#1000000000000000
(1426616818.626743) can0 294#00009CFFFA000000
(1426616818.659014) can0 477#0700AE7B9B001400
(1426616818.726252) can0 475#9C13184945000000
(1426616818.726541) can0 306#1000000000000000
(1426616818.726787) can0 294#00009CFFFA000000
(1426616818.756070) can0 477#0700AD7B9B001400
(1426616818.826161) can0 475#BB13184945000000
(1426616818.826465) can0 306#1000000000000000
(1426616818.826707) can0 294#00009CFFFA000000
(1426616818.852963) can0 477#0700AE7B9B001400
(1426616818.926186) can0 475#AF13184945000000
(1426616818.926648) can0 306#1100000000000000
(1426616818.926902) can0 294#00009CFFFA000000
(1426616818.949941) can0 477#0700AD7B9B001400
(1426616819.026158) can0 475#B913184945000000
(1426616819.026614) can0 306#1100000000000000
(1426616819.026864) can0 294#00009CFFFA000000
(1426616819.046927) can0 477#0700AE7B9B001400
(1426616819.126100) can0 475#B113184945000000
(1426616819.126536) can0 306#1200000000000000
(1426616819.126837) can0 294#00009CFFFA000000
(1426616819.143899) can0 477#0700AD7B9B001400
(1426616819.226076) can0 475#A813184945000000
(1426616819.226509) can0 306#1200000000000000
(1426616819.227051) can0 294#00009CFFFA000000
(1426616819.241037) can0 477#0700AD7B9B001400
(1426616819.326729) can0 475#AB13184945000000
(1426616819.327557) can0 294#00009CFFFA000000
(1426616819.337805) can0 477#0700AD7B9B001400
(1426616819.426009) can0 475#B313184945000000
(1426616819.426467) can0 306#1200000000000000
(1426616819.426708) can0 294#00009CFFFA000000
(1426616819.434829) can0 477#0700AD7B9B001400
(1426616819.526179) can0 475#AD13184945000000
(1426616819.526474) can0 306#1100000000000000
(1426616819.526718) can0 294#00009CFFFA000000
(1426616819.531747) can0 477#0700AE7B9B001400
(1426616819.625960) can0 475#B113184945000000
(1426616819.626406) can0 306#1000000000000000
(1426616819.626651) can0 294#00009CFFFA000000
(1426616819.628679) can0 477#0700AE7B9B001400
(1426616819.725688) can0 477#0700AD7B9B001400
(1426616819.726435) can0 306#1000000000000000
(1426616819.726714) can0 294#00009CFFFA000000
(1426616819.822660) can0 477#0700AD7B9B001400
(1426616819.826062) can0 475#A213184945000000
(1426616819.826384) can0 306#1000000000000000
(1426616819.826630) can0 294#00009CFFFA000000
(1426616819.919632) can0 477#0700AD7B9B001400
(1426616819.926119) can0 475#B113184945000000
(1426616819.926415) can0 306#1000000000000000
(1426616819.926666) can0 294#00009CFFFA000000
(1426616820.016636) can0 477#0700AD7B9B001400
(1426616820.026040) can0 475#AD13184945000000
(1426616820.026347) can0 306#1100000000000000
(1426616820.026616) can0 294#00009CFFFA000000
(1426616820.113588) can0 477#0700AD7B9B001400
(1426616820.125822) can0 475#AB13184945000000
(1426616820.126280) can0 306#1100000000000000
(1426616820.126533) can0 294#00009CFFFA000000
(1426616820.210551) can0 477#0700AE7B9B001400
(1426616820.225964) can0 475#AB13184945000000
(1426616820.226285) can0 306#1100000000000000
(1426616820.226553) can0 294#00009CFFFA000000
(1426616820.307487) can0 477#0700AE7B9B001400
(1426616820.326017) can0 475#AB13184945000000
(1426616820.326397) can0 306#1100000000000000
(1426616820.326674) can0 294#00009CFFFA000000
(1426616820.405627) can0 477#0700AE7B9B001400
(1426616820.425951) can0 475#A913184945000000
(1426616820.426379) can0 306#1100000000000000
(1426616820.426652) can0 294#00009CFFFA000000
(1426616820.502052) can0 477#0700AD7B9B001400
(1426616820.526121) can0 475#AF13184945000000
(1426616820.526430) can0 306#1100000000000000
(1426616820.526673) can0 294#00009CFFFA000000
(1426616820.598375) can0 477#0700AD7B9B001400
(1426616820.626092) can0 475#AD13184945000000
(1426616820.626431) can0 306#1100000000000000
(1426616820.626696) can0 294#00009CFFFA000000
(1426616820.695414) can0 477#0700AD7B9B001400
(1426616820.726073) can0 475#AB13184945000000
(1426616820.726369) can0 306#1100000000000000
(1426616820.726616) can0 294#00009CFFFA000000
(1426616820.793004) can0 477#0700AD7B9B001400
(1426616820.826046) can0 475#AF13184945000000
(1426616820.826370) can0 306#1100000000000000
(1426616820.826616) can0 294#00009CFFFA000000
(1426616820.889316) can0 477#0700AD7B9B001400
(1426616820.926008) can0 475#B313184945000000
(1426616820.926311) can0 306#1000000000000000
(1426616820.926559) can0 294#00009CFFFA000000
(1426616820.986307) can0 477#0700AE7B9B001400
(1426616821.025987) can0 475#AB13184945000000
(1426616821.026290) can0 306#1100000000000000
(1426616821.026558) can0 294#00009CFFFA000000
(1426616821.083353) can0 477#0700AE7B9B001400
(1426616821.125998) can0 475#B913184945000000
(1426616821.126356) can0 306#1200000000000000
(1426616821.126616) can0 294#00009CFFFA000000
(1426616821.180511) can0 477#0700AD7B9B001400
(1426616821.225967) can0 475#AB13184945000000
(1426616821.226427) can0 306#1200000000000000
(1426616821.226717) can0 294#00009CFFFA000000
(1426616821.277225) can0 477#0700AD7B9B001400
(1426616821.326162) can0 475#B313184945000000
(1426616821.326479) can0 306#1100000000000000
(1426616821.326730) can0 294#00009CFFFA000000
(1426616821.374210) can0 477#0700AE7B9B001400
(1426616821.426086) can0 475#AF13184945000000
(1426616821.426398) can0 306#1100000000000000
(1426616821.426663) can0 294#00009CFFFA000000
(1426616821.471139) can0 477#0700AD7B9B001400
(1426616821.526090) can0 475#B113184945000000
(1426616821.526419) can0 306#1100000000000000
(1426616821.526668) can0 294#00009CFFFA000000
(1426616821.568114) can0 477#0700AD7B9B001400
(1426616821.626038) can0 475#A613184945000000
(1426616821.626338) can0 306#1200000000000000
(1426616821.626604) can0 294#00009CFFFA000000
(1426616821.665126) can0 477#0700AE7B9B001400
(1426616821.726041) can0 475#A913184945000000
(1426616821.726332) can0 306#1100000000000000
(1426616821.726595) can0 294#00009CFFFA000000
(1426616821.762026) can0 477#0700AE7B9B001400
(1426616821.826185) can0 475#AD13184945000000
(1426616821.826515) can0 306#1200000000000000
(1426616821.826759) can0 294#00009CFFFA000000
(1426616821.859012) can0 477#0700AE7B9B001400
(1426616821.926308) can0 475#B113184945000000
(1426616821.926622) can0 306#1200000000000000
(1426616821.926883) can0 294#00009CFFFA000000
(1426616821.956005) can0 477#0700AE7B9B001400
(1426616822.026202) can0 475#B113184945000000
(1426616822.026639) can0 306#1200000000000000
(1426616822.026935) can0 294#00009CFFFA000000
(1426616822.052949) can0 477#0700AD7B9B001400
(1426616822.126193) can0 475#AD13184945000000
(1426616822.126660) can0 306#1200000000000000
(1426616822.126916) can0 294#00009CFFFA000000
(1426616822.149922) can0 477#0700AE7B9B001400
(1426616822.226303) can0 475#AB13184945000000
(1426616822.226595) can0 306#1200000000000000
(1426616822.226878) can0 294#00009CFFFA000000
(1426616822.246908) can0 477#0700AD7B9B001400
(1426616822.326129) can0 475#A813184945000000
(1426616822.326422) can0 306#1200000000000000
(1426616822.326820) can0 294#00009CFFFA000000
(1426616822.343839) can0 477#0700AE7B9B001400
(1426616822.426252) can0 475#AF13184945000000
(1426616822.426578) can0 306#1100000000000000
(1426616822.426851) can0 294#00009CFFFA000000
(1426616822.440838) can0 477#0700AE7B9B001400
(1426616822.526309) can0 475#B113184945000000
(1426616822.526602) can0 306#1000000000000000
(1426616822.526855) can0 294#00009CFFFA000000
(1426616822.537817) can0 477#0700AD7B9B001400
(1426616822.626036) can0 475#AB13184945000000
(1426616822.626479) can0 306#1000000000000000
(1426616822.626747) can0 294#00009CFFFA000000
(1426616822.634769) can0 477#0700AD7B9B001400
(1426616822.726019) can0 475#AB13184945000000
(1426616822.726398) can0 306#0F00000000000000
(1426616822.726655) can0 294#00009CFFFA000000
(1426616822.731735) can0 477#0700AD7B9B001400
(1426616822.826149) can0 475#B113184945000000
(1426616822.826476) can0 306#0F00000000000000
(1426616822.826753) can0 294#00009CFFFA000000
(1426616822.828680) can0 477#0700AD7B9B001400
(1426616822.925659) can0 477#0700AE7B9B001400
(1426616822.926237) can0 475#AB13184945000000
(1426616822.926494) can0 306#0F00000000000000
(1426616822.926752) can0 294#00009CFFFA000000
(1426616823.022632) can0 477#0700AE7B9B001400
(1426616823.026086) can0 475#AD13184945000000
(1426616823.026401) can0 306#0E00000000000000
(1426616823.026662) can0 294#00009CFFFA000000
(1426616823.119784) can0 477#0700AE7B9B001400
(1426616823.126125) can0 475#B313184945000000
(1426616823.126420) can0 306#0E00000000000000
(1426616823.126671) can0 294#00009CFFFA000000
(1426616823.216556) can0 477#0700AE7B9B001400
(1426616823.226032) can0 475#B113184945000000
(1426616823.226327) can0 306#0E00000000000000
(1426616823.226589) can0 294#00009CFFFA000000
(1426616823.313520) can0 477#0700AD7B9B001400
(1426616823.325832) can0 475#B313184945000000
(1426616823.326295) can0 306#0F00000000000000
(1426616823.326554) can0 294#00009CFFFA000000
(1426616823.410554) can0 477#0700AD7B9B001400
(1426616823.426216) can0 475#AB13184945000000
(1426616823.426535) can0 306#0E00000000000000
(1426616823.426786) can0 294#00009CFFFA000000
(1426616823.507520) can0 477#0700AD7B9B001400
(1426616823.526210) can0 475#B313184945000000
(1426616823.526498) can0 306#0F00000000000000
(1426616823.526746) can0 294#00009CFFFA000000
(1426616823.604413) can0 477#0700AD7B9B001400
(1426616823.626211) can0 475#A913184945000000
(1426616823.626513) can0 306#0F00000000000000
(1426616823.626775) can0 294#00009CFFFA000000
(1426616823.701442) can0 477#0700AE7B9B001400
(1426616823.726222) can0 475#A413184945000000
(1426616823.726514) can0 306#0F00000000000000
(1426616823.726875) can0 294#00009CFFFA000000
(1426616823.798752) can0 477#0700AE7B9B001400
(1426616823.826141) can0 475#AB13184945000000
(1426616823.826466) can0 306#0F00000000000000
(1426616823.826731) can0 294#00009CFFFA000000
(1426616823.896343) can0 477#0700AE7B9B001400
(1426616823.926152) can0 475#A613184945000000
(1426616823.926439) can0 306#0F00000000000000
(1426616823.926726) can0 294#00009CFFFA000000
(1426616823.992292) can0 477#0700AC7B9B001400
(1426616824.026072) can0 475#A613184945000000
(1426616824.026376) can0 306#0F00000000000000
(1426616824.026641) can0 294#00009CFFFA000000
(1426616824.089367) can0 477#0700AE7B9B001400
(1426616824.126064) can0 475#B513184945000000
(1426616824.126370) can0 306#0F00000000000000
(1426616824.126634) can0 294#00009CFFFA000000
(1426616824.186272) can0 477#0700AD7B9B001400
(1426616824.226017) can0 475#B313184945000000
(1426616824.226303) can0 306#0F00000000000000
(1426616824.226576) can0 294#00009CFFFA000000
(1426616824.283240) can0 477#0700AD7B9B001400
(1426616824.326030) can0 475#AB13184945000000
(1426616824.326415) can0 306#0E00000000000000
(1426616824.326688) can0 294#00009CFFFA000000
(1426616824.380270) can0 477#0700AD7B9B001400
(1426616824.426159) can0 475#AD13184945000000
(1426616824.426466) can0 306#0E00000000000000
(1426616824.426761) can0 294#00009CFFFA000000
(1426616824.477135) can0 477#0700AD7B9B001400
(1426616824.526182) can0 475#B113184945000000
(1426616824.526483) can0 306#0D00000000000000
(1426616824.526732) can0 294#00009CFFFA000000
(1426616824.574170) can0 477#0700AD7B9B001400
(1426616824.626089) can0 475#AD13184945000000
(1426616824.626402) can0 306#0D00000000000000
(1426616824.626668) can0 294#00009CFFFA000000
(1426616824.671145) can0 477#0700AD7B9B001400
(1426616824.726104) can0 475#AB13184945000000
(1426616824.726393) can0 306#0C00000000000000
(1426616824.726670) can0 294#00009CFFFA000000
(1426616824.768077) can0 477#0700AD7B9B001400
(1426616824.826066) can0 475#AD13184945000000
(1426616824.826399) can0 306#0C00000000000000
(1426616824.826657) can0 294#00009CFFFA000000
(1426616824.865066) can0 477#0700AD7B9B001400
(1426616824.926040) can0 475#B313184945000000
(1426616824.926342) can0 306#0D00000000000000
(1426616824.926609) can0 294#00009CFFFA000000
(1426616824.961987) can0 477#0700AC7B9B001400
(1426616825.026197) can0 475#B513184945000000
(1426616825.026515) can0 306#0C00000000000000
(1426616825.026764) can0 294#00009CFFFA000000
(1426616825.059138) can0 477#0700AD7B9B001400
(1426616825.126292) can0 475#B713184945000000
(1426616825.126711) can0 306#0C00000000000000
(1426616825.126967) can0 294#00009CFFFA000000
(1426616825.155929) can0 477#0700AD7B9B001400
(1426616825.226209) can0 475#A913184945000000
(1426616825.226640) can0 306#0C00000000000000
(1426616825.226912) can0 294#00009CFFFA000000
(1426616825.252917) can0 477#0700AD7B9B001400
(1426616825.326235) can0 475#A613184945000000
(1426616825.326530) can0 306#0C00000000000000
(1426616825.326871) can0 294#00009CFFFA000000
(1426616825.349874) can0 477#0700AD7B9B001400
(1426616825.426335) can0 475#A213184945000000
(1426616825.426654) can0 306#0C00000000000000
(1426616825.426903) can0 294#00009CFFFA000000
(1426616825.446858) can0 477#0700AD7B9B001400
(1426616825.526133) can0 475#A913184945000000
(1426616825.526608) can0 306#0C00000000000000
(1426616825.526864) can0 294#00009CFFFA000000
(1426616825.543845) can0 477#0700AE7B9B001400
(1426616825.626127) can0 475#A913184945000000
(1426616825.626508) can0 306#0D00000000000000
(1426616825.626789) can0 294#00009CFFFA000000
(1426616825.640774) can0 477#0700AD7B9B001400
(1426616825.726023) can0 475#B313184945000000
(1426616825.726479) can0 306#0D00000000000000
(1426616825.726750) can0 294#00009CFFFA000000
(1426616825.737795) can0 477#0700AD7B9B001400
(1426616825.826204) can0 475#A613184945000000
(1426616825.826527) can0 306#0E00000000000000
(1426616825.826779) can0 294#00009CFFFA000000
(1426616825.834788) can0 477#0700AD7B9B001400
(1426616825.926229) can0 475#A913184945000000
(1426616825.926811) can0 306#0E00000000000000
(1426616825.927040) can0 294#00009CFFFA000000
(1426616825.931677) can0 477#0700AD7B9B001400
(1426616826.025965) can0 475#AB13184945000000
(1426616826.026421) can0 306#0E00000000000000
(1426616826.026706) can0 294#00009CFFFA000000
(1426616826.028617) can0 477#0700AD7B9B001400
(1426616826.125652) can0 477#0700AD7B9B001400
(1426616826.126241) can0 475#B713184945000000
(1426616826.126649) can0 294#00009CFFFA000000
(1426616826.126857) can0 306#0E00000000000000
(1426616826.222591) can0 477#0700AD7B9B001400
(1426616826.226391) can0 475#AB13184945000000
(1426616826.226699) can0 306#0D00000000000000
(1426616826.226963) can0 294#00009CFFFA000000
(1426616826.319576) can0 477#0700AD7B9B001400
(1426616826.326082) can0 475#AB13184945000000
(1426616826.326387) can0 306#0D00000000000000
(1426616826.326648) can0 294#00009CFFFA000000
(1426616826.416559) can0 477#0700AD7B9B001400
(1426616826.426032) can0 475#A013184945000000
(1426616826.426349) can0 306#0C00000000000000
(1426616826.426638) can0 294#00009CFFFA000000
(1426616826.513544) can0 477#0700AD7B9B001400
(1426616826.526118) can0 475#AF13184945000000
(1426616826.526414) can0 306#0D00000000000000
(1426616826.526683) can0 294#00009CFFFA000000
(1426616826.610457) can0 477#0700AD7B9B001400
(1426616826.626064) can0 475#AF13184945000000
(1426616826.626391) can0 306#0C00000000000000
(1426616826.626668) can0 294#00009CFFFA000000
(1426616826.707440) can0 477#0700AD7B9B001400
(1426616826.726281) can0 475#BB13184945000000
(1426616826.726603) can0 306#0C00000000000000
(1426616826.726854) can0 294#00009CFFFA000000
(1426616826.805192) can0 477#0700AD7B9B001400
(1426616826.826205) can0 475#A913184945000000
(1426616826.826523) can0 306#0D00000000000000
(1426616826.826798) can0 294#00009CFFFA000000
(1426616826.901397) can0 477#0700AD7B9B001400
(1426616826.926198) can0 475#B713184945000000
(1426616826.926507) can0 306#0E00000000000000
(1426616826.926773) can0 294#00009CFFFA000000
(1426616826.999516) can0 477#0700AD7B9B001400
(1426616827.026126) can0 475#AF13184945000000
(1426616827.026445) can0 306#0E00000000000000
(1426616827.026711) can0 294#00009CFFFA000000
(1426616827.096264) can0 477#0700AD7B9B001400
(1426616827.126136) can0 475#AF13184945000000
(1426616827.126443) can0 306#0E00000000000000
(1426616827.126708) can0 294#00009CFFFA000000
(1426616827.192301) can0 477#0700AD7B9B001400
(1426616827.226063) can0 475#B513184945000000
(1426616827.226351) can0 306#0F00000000000000
(1426616827.226636) can0 294#00009CFFFA000000
(1426616827.290312) can0 477#0700AD7B9B001400
(1426616827.326047) can0 475#AD13184945000000
(1426616827.326355) can0 306#1000000000000000
(1426616827.326620) can0 294#00009CFFFA000000
(1426616827.386243) can0 477#0700AD7B9B001400
(1426616827.426025) can0 475#A913184945000000
(1426616827.426481) can0 306#1100000000000000
(1426616827.426734) can0 294#00009CFFFA000000
(1426616827.483178) can0 477#0700AD7B9B001400
(1426616827.526248) can0 475#B913184945000000
(1426616827.526564) can0 306#1100000000000000
(1426616827.526810) can0 294#00009CFFFA000000
(1426616827.580189) can0 477#0700AC7B9B001400
(1426616827.626169) can0 475#AB13184945000000
(1426616827.626469) can0 306#1200000000000000
(1426616827.626732) can0 294#00009CFFFA000000
(1426616827.677191) can0 477#0700AD7B9B001400
(1426616827.726183) can0 475#AB13184945000000
(1426616827.726499) can0 306#1200000000000000
(1426616827.726748) can0 294#00009CFFFA000000
(1426616827.774215) can0 477#0700AC7B9B001400
(1426616827.826129) can0 475#AB13184945000000
(1426616827.826444) can0 306#1100000000000000
(1426616827.826709) can0 294#00009CFFFA000000
(1426616827.871090) can0 477#0700AD7B9B001400
(1426616827.926111) can0 475#B113184945000000
(1426616827.926407) can0 306#1100000000000000
(1426616827.926689) can0 294#00009CFFFA000000
(1426616827.968033) can0 477#0700AD7B9B001400
(1426616828.026060) can0 475#AB13184945000000
(1426616828.026375) can0 306#1000000000000000
(1426616828.026641) can0 294#00009CFFFA000000
(1426616828.065012) can0 477#0700AC7B9B001400
(1426616828.126246) can0 475#A913184945000000
(1426616828.126851) can0 306#1000000000000000
(1426616828.127084) can0 294#00009CFFFA000000
(1426616828.162015) can0 477#0700AD7B9B001400
(1426616828.226276) can0 475#B713184945000000
(1426616828.226723) can0 306#0F00000000000000
(1426616828.226977) can0 294#00009CFFFA000000
(1426616828.258946) can0 477#0700AD7B9B001400
(1426616828.326264) can0 475#AD13184945000000
(1426616828.326563) can0 306#0F00000000000000
(1426616828.326955) can0 294#00009CFFFA000000
(1426616828.355955) can0 477#0700AD7B9B001400
(1426616828.426264) can0 475#A913184945000000
(1426616828.426662) can0 306#0F00000000000000
(1426616828.426923) can0 294#00009CFFFA000000
(1426616828.452908) can0 477#0700AD7B9B001400
(1426616828.526197) can0 475#A913184945000000
(1426616828.526667) can0 306#0F00000000000000
(1426616828.526923) can0 294#00009CFFFA000000
(1426616828.549871) can0 477#0700AC7B9B001400
(1426616828.626153) can0 475#A813184945000000
(1426616828.626585) can0 306#0F00000000000000
(1426616828.626848) can0 294#00009CFFFA000000
(1426616828.646837) can0 477#0700AD7B9B001400
(1426616828.726155) can0 475#A913184945000000
(1426616828.726619) can0 306#0F00000000000000
(1426616828.726876) can0 294#00009CFFFA000000
(1426616828.743803) can0 477#0700AC7B9B001400
(1426616828.826097) can0 475#AB13184945000000
(1426616828.826547) can0 306#0F00000000000000
(1426616828.826800) can0 294#00009CFFFA000000
(1426616828.840787) can0 477#0700AD7B9B001400
(1426616828.926049) can0 475#B313184945000000
(1426616828.926521) can0 306#0F00000000000000
(1426616828.926779) can0 294#00009CFFFA000000
(1426616828.937881) can0 477#0700AD7B9B001400
(1426616829.026032) can0 475#B113184945000000
(1426616829.026472) can0 306#0F00000000000000
(1426616829.026737) can0 294#00009CFFFA000000
(1426616829.034719) can0 477#0700AD7B9B001400
(1426616829.126260) can0 475#B113184945000000
(1426616829.126557) can0 306#0F00000000000000
(1426616829.126810) can0 294#00009CFFFA000000
(1426616829.131657) can0 477#0700AD7B9B001400
(1426616829.225999) can0 475#B113184945000000
(1426616829.226434) can0 306#0F00000000000000
(1426616829.226706) can0 294#00009CFFFA000000
(1426616829.228582) can0 477#0700AC7B9B001400
(1426616829.325612) can0 477#0700AC7B9B001400
(1426616829.326211) can0 475#A913184945000000
(1426616829.326484) can0 306#0F00000000000000
(1426616829.326733) can0 294#00009CFFFA000000
(1426616829.422564) can0 477#0700AD7B9B001400
(1426616829.426126) can0 475#AF13184945000000
(1426616829.426423) can0 306#0F00000000000000
(1426616829.426686) can0 294#00009CFFFA000000
(1426616829.519551) can0 477#0700AD7B9B001400
(1426616829.526159) can0 475#AB13184945000000
(1426616829.526445) can0 306#0F00000000000000
(1426616829.526698) can0 294#00009CFFFA000000
(1426616829.616493) can0 477#0700AC7B9B001400
(1426616829.626078) can0 475#B113184945000000
(1426616829.626378) can0 306#0F00000000000000
(1426616829.626663) can0 294#00009CFFFA000000
(1426616829.714109) can0 477#0700AD7B9B001400
(1426616829.726093) can0 475#B113184945000000
(1426616829.726396) can0 306#0F00000000000000
(1426616829.726656) can0 294#00009CFFFA000000
(1426616829.811445) can0 477#0700AD7B9B001400
(1426616829.826235) can0 475#AD13184945000000
(1426616829.826551) can0 306#0F00000000000000
(1426616829.826802) can0 294#00009CFFFA000000
(1426616829.907441) can0 477#0700AC7B9B001400
(1426616829.926201) can0 475#AB13184945000000
(1426616829.926521) can0 306#0E00000000000000
(1426616829.926763) can0 294#00009CFFFA000000
(1426616830.004392) can0 477#0700AC7B9B001400
(1426616830.026178) can0 475#AF13184945000000
(1426616830.026496) can0 306#0F00000000000000
(1426616830.026749) can0 294#00009CFFFA000000
(1426616830.102542) can0 477#0700AD7B9B001400
(1426616830.126221) can0 475#AF13184945000000
(1426616830.126496) can0 306#0E00000000000000
(1426616830.126746) can0 294#00009CFFFA000000
(1426616830.198907) can0 477#0700AC7B9B001400
(1426616830.226110) can0 475#AD13184945000000
(1426616830.226426) can0 306#0E00000000000000
(1426616830.226673) can0 294#00009CFFFA000000
(1426616830.296416) can0 477#0700AC7B9B001400
(1426616830.326136) can0 475#B113184945000000
(1426616830.326696) can0 306#0E00000000000000
(1426616830.326928) can0 294#00009CFFFA000000
(1426616830.393152) can0 477#0700AD7B9B001400
(1426616830.426087) can0 475#A613184945000000
(1426616830.426391) can0 306#0E00000000000000
(1426616830.426668) can0 294#00009CFFFA000000
(1426616830.489221) can0 477#0700AC7B9B001400
(1426616830.526081) can0 475#A913184945000000
(1426616830.526538) can0 306#0D00000000000000
(1426616830.526797) can0 294#00009CFFFA000000
(1426616830.586227) can0 477#0700AC7B9B001400
(1426616830.626249) can0 475#AB13184945000000
(1426616830.626541) can0 306#0C00000000000000
(1426616830.626801) can0 294#00009CFFFA000000
(1426616830.683160) can0 477#0700AC7B9B001400
(1426616830.726224) can0 475#B513184945000000
(1426616830.726564) can0 306#0C00000000000000
(1426616830.726817) can0 294#00009CFFFA000000
(1426616830.780177) can0 477#0700AC7B9B001400
(1426616830.826202) can0 475#A813184945000000
(1426616830.826521) can0 306#0C00000000000000
(1426616830.826790) can0 294#00009CFFFA000000
(1426616830.877314) can0 477#0700AB7B9B001400
(1426616830.926405) can0 475#A613184945000000
(1426616830.926697) can0 306#0C00000000000000
(1426616830.926947) can0 294#00009CFFFA000000
(1426616830.974204) can0 477#0700AD7B9B001400
(1426616831.026120) can0 475#AD13184945000000
(1426616831.026426) can0 306#0C00000000000000
(1426616831.026687) can0 294#00009CFFFA000000
(1426616831.071246) can0 477#0700AC7B9B001400
(1426616831.126151) can0 475#A813184945000000
(1426616831.126450) can0 306#0C00000000000000
(1426616831.126705) can0 294#00009CFFFA000000
(1426616831.167999) can0 477#0700AC7B9B001400
(1426616831.226286) can0 475#B113184945000000
(1426616831.226607) can0 306#0C00000000000000
(1426616831.226859) can0 294#00009CFFFA000000
(1426616831.264973) can0 477#0700AD7B9B001400
(1426616831.326318) can0 475#A413184945000000
(1426616831.326781) can0 306#0D00000000000000
(1426616831.327029) can0 294#00009CFFFA000000
(1426616831.362354) can0 477#0700AC7B9B001400
(1426616831.426305) can0 475#A913184945000000
(1426616831.426600) can0 306#0C00000000000000
(1426616831.426962) can0 294#00009CFFFA000000
(1426616831.458913) can0 477#0700AC7B9B001400
(1426616831.526286) can0 475#AF13184945000000
(1426616831.526757) can0 306#0D00000000000000
(1426616831.527012) can0 294#00009CFFFA000000
(1426616831.555927) can0 477#0700AC7B9B001400
(1426616831.626402) can0 475#B313184945000000
(1426616831.626712) can0 306#0D00000000000000
(1426616831.626976) can0 294#00009CFFFA000000
(1426616831.652883) can0 477#0700AC7B9B001400
(1426616831.726252) can0 475#AF13184945000000
(1426616831.726670) can0 306#0D00000000000000
(1426616831.726925) can0 294#00009CFFFA000000
(1426616831.749870) can0 477#0700AC7B9B001400
(1426616831.826198) can0 475#AB13184945000000
(1426616831.826583) can0 306#0D00000000000000
(1426616831.826864) can0 294#00009CFFFA000000
(1426616831.846791) can0 477#0700AC7B9B001400
(1426616831.926375) can0 475#AB13184945000000
(1426616831.926670) can0 306#0D00000000000000
(1426616831.926919) can0 294#00009CFFFA000000
(1426616831.943735) can0 477#0700AC7B9B001400
(1426616832.026121) can0 475#B313184945000000
(1426616832.026566) can0 306#0E00000000000000
(1426616832.026830) can0 294#00009CFFFA000000
(1426616832.040740) can0 477#0700AC7B9B001400
(1426616832.126344) can0 475#B113184945000000
(1426616832.126641) can0 306#0E00000000000000
(1426616832.127037) can0 294#00009CFFFA000000
(1426616832.137700) can0 477#0700AC7B9B001400
(1426616832.226271) can0 475#B313184945000000
(1426616832.226584) can0 306#0F00000000000000
(1426616832.226867) can0 294#00009CFFFA000000
(1426616832.234692) can0 477#0700AC7B9B001400
(1426616832.326087) can0 475#AF13184945000000
(1426616832.326384) can0 306#1000000000000000
(1426616832.326742) can0 294#00009CFFFA000000
(1426616832.331654) can0 477#0700AC7B9B001400
(1426616832.425997) can0 475#A913184945000000
(1426616832.426470) can0 306#1000000000000000
(1426616832.426725) can0 294#00009CFFFA000000
(1426616832.428565) can0 477#0700AC7B9B001400
(1426616832.525611) can0 477#0700AC7B9B001400
(1426616832.526255) can0 475#AF13184945000000
(1426616832.526808) can0 306#1000000000000000
(1426616832.527037) can0 294#00009CFFFA000000
(1426616832.622522) can0 477#0700AC7B9B001400
(1426616832.626375) can0 475#B113184945000000
(1426616832.626673) can0 306#1000000000000000
(1426616832.626939) can0 294#00009CFFFA000000
(1426616832.719525) can0 477#0700AC7B9B001400
(1426616832.726142) can0 475#A913184945000000
(1426616832.726440) can0 306#1000000000000000
(1426616832.726693) can0 294#00009CFFFA000000
(1426616832.816653) can0 477#0700AB7B9B001400
(1426616832.826260) can0 475#B313184945000000
(1426616832.826553) can0 306#0F00000000000000
(1426616832.826829) can0 294#00009CFFFA000000
(1426616832.913475) can0 477#0700AC7B9B001400
(1426616832.926127) can0 475#A413184945000000
(1426616832.926501) can0 306#0F00000000000000
(1426616832.926782) can0 294#00009CFFFA000000
(1426616833.010429) can0 477#0700AC7B9B001400
(1426616833.026244) can0 475#A613184945000000
(1426616833.026551) can0 306#0F00000000000000
(1426616833.026815) can0 294#00009CFFFA000000
(1426616833.108544) can0 477#0700AC7B9B001400
(1426616833.126245) can0 475#A813184945000000
(1426616833.126533) can0 306#0F00000000000000
(1426616833.126795) can0 294#00009CFFFA000000
(1426616833.204373) can0 477#0700AC7B9B001400
(1426616833.226195) can0 475#AD13184945000000
(1426616833.226499) can0 306#0F00000000000000
(1426616833.226759) can0 294#00009CFFFA000000
(1426616833.301338) can0 477#0700AC7B9B001400
(1426616833.326202) can0 475#B113184945000000
(1426616833.326493) can0 306#0F00000000000000
(1426616833.326756) can0 294#00009CFFFA000000
(1426616833.398491) can0 477#0700AB7B9B001400
(1426616833.426130) can0 475#B113184945000000
(1426616833.426429) can0 306#0F00000000000000
(1426616833.426721) can0 294#00009CFFFA000000
(1426616833.495266) can0 477#0700AD7B9B001400
(1426616833.526153) can0 475#A913184945000000
(1426616833.526448) can0 306#0F00000000000000
(1426616833.526696) can0 294#00009CFFFA000000
(1426616833.592233) can0 477#0700AC7B9B001400
(1426616833.626151) can0 475#B313184945000000
(1426616833.626545) can0 306#0E00000000000000
(1426616833.626838) can0 294#00009CFFFA000000
(1426616833.689330) can0 477#0700AC7B9B001400
(1426616833.726607) can0 475#AB13184945000000
(1426616833.726895) can0 306#0E00000000000000
(1426616833.727157) can0 294#00009CFFFA000000
(1426616833.786158) can0 477#0700AB7B9B001400
(1426616833.826529) can0 475#B113184945000000
(1426616833.826854) can0 306#0E00000000000000
(1426616833.827118) can0 294#00009CFFFA000000
(1426616833.883144) can0 477#0700AB7B9B001400
(1426616833.926523) can0 475#A413184945000000
(1426616833.926818) can0 306#0E00000000000000
(1426616833.927066) can0 294#00009CFFFA000000
(1426616833.980136) can0 477#0700AC7B9B001400
(1426616834.026459) can0 475#AB13184945000000
(1426616834.026771) can0 306#0E00000000000000
(1426616834.027036) can0 294#00009CFFFA000000
(1426616834.077116) can0 477#0700AC7B9B001400
(1426616834.126458) can0 475#A913184945000000
(1426616834.126756) can0 306#0E00000000000000
(1426616834.127008) can0 294#00009CFFFA000000
(1426616834.174131) can0 477#0700AD7B9B001400
(1426616834.226404) can0 475#AF13184945000000
(1426616834.226713) can0 306#0D00000000000000
(1426616834.226990) can0 294#00009CFFFA000000
(1426616834.270998) can0 477#0700AA7B9B001400
(1426616834.326413) can0 475#A413184945000000
(1426616834.326737) can0 306#0D00000000000000
(1426616834.327013) can0 294#00009CFFFA000000
(1426616834.367987) can0 477#0700AC7B9B001400
(1426616834.426393) can0 475#A913184945000000
(1426616834.426793) can0 306#0D00000000000000
(1426616834.427054) can0 294#00009CFFFA000000
(1426616834.464926) can0 477#0700AB7B9B001400
(1426616834.516342) can0 475#B513184945000000
(1426616834.516773) can0 306#0D00000000000000
(1426616834.517044) can0 294#00009CFFFA000000
(1426616834.561909) can0 477#0700AB7B9B001400
(1426616834.616455) can0 475#AD13184945000000
(1426616834.616765) can0 306#0D00000000000000
(1426616834.617027) can0 294#00009CFFFA000000
(1426616834.658881) can0 477#0700AB7B9B001400
(1426616834.716536) can0 475#A413184945000000
(1426616834.716815) can0 306#0D00000000000000
(1426616834.717510) can0 294#00009CFFFA000000
(1426616834.756038) can0 477#0700AB7B9B001400
(1426616834.816454) can0 475#AD13184945000000
(1426616834.816764) can0 306#0D00000000000000
(1426616834.817013) can0 294#00009CFFFA000000
(1426616834.852864) can0 477#0700AC7B9B001400
(1426616834.916228) can0 475#A413184945000000
(1426616834.916692) can0 306#0D00000000000000
(1426616834.916954) can0 294#00009CFFFA000000
(1426616834.949836) can0 477#0700AC7B9B001400
(1426616835.016186) can0 475#AB13184945000000
(1426616835.016604) can0 306#0D00000000000000
(1426616835.016886) can0 294#00009CFFFA000000
(1426616835.046808) can0 477#0700AC7B9B001400
(1426616835.116359) can0 475#A613184945000000
(1426616835.116669) can0 306#0E00000000000000
(1426616835.116923) can0 294#00009CFFFA000000
(1426616835.143744) can0 477#0700AB7B9B001400
(1426616835.216127) can0 475#AF13184945000000
(1426616835.216581) can0 306#0D00000000000000
(1426616835.216834) can0 294#00009CFFFA000000
(1426616835.240750) can0 477#0700AC7B9B001400
(1426616835.316136) can0 475#AD13184945000000
(1426616835.316429) can0 306#0D00000000000000
(1426616835.316819) can0 294#00009CFFFA000000
(1426616835.337729) can0 477#0700AC7B9B001400
(1426616835.416068) can0 475#AD13184945000000
(1426616835.416564) can0 306#0E00000000000000
(1426616835.416821) can0 294#00009CFFFA000000
(1426616835.434644) can0 477#0700AC7B9B001400
(1426616835.516180) can0 475#AF13184945000000
(1426616835.516485) can0 306#0E00000000000000
(1426616835.516748) can0 294#00009CFFFA000000
(1426616835.531623) can0 477#0700AB7B9B001400
(1426616835.616266) can0 475#AD13184945000000
(1426616835.616549) can0 306#0E00000000000000
(1426616835.616794) can0 294#00009CFFFA000000
(1426616835.628587) can0 477#0700AB7B9B001400
(1426616835.716225) can0 475#B313184945000000
(1426616835.716515) can0 306#0F00000000000000
(1426616835.716763) can0 294#00009CFFFA000000
(1426616835.725549) can0 477#0700AB7B9B001400
(1426616835.816156) can0 475#A813184945000000
(1426616835.816451) can0 306#1000000000000000
(1426616835.816702) can0 294#00009CFFFA000000
(1426616835.822804) can0 477#0700AB7B9B001400
(1426616835.916204) can0 475#A813184945000000
(1426616835.916594) can0 306#1000000000000000
(1426616835.916860) can0 294#00009CFFFA000000
(1426616835.919477) can0 477#0700AB7B9B001400
(1426616836.016111) can0 475#B113184945000000
(1426616836.016550) can0 306#1100000000000000
(1426616836.016827) can0 294#00009CFFFA000000
(1426616836.017452) can0 477#0700AC7B9B001400
(1426616836.114329) can0 477#0700AB7B9B001400
(1426616836.116330) can0 475#B113184945000000
(1426616836.116635) can0 306#1100000000000000
(1426616836.116895) can0 294#00009CFFFA000000
(1426616836.210367) can0 477#0700AB7B9B001400
(1426616836.216312) can0 475#AF13184945000000
(1426616836.216603) can0 306#1100000000000000
(1426616836.216867) can0 294#00009CFFFA000000
(1426616836.307361) can0 477#0700AB7B9B001400
(1426616836.316306) can0 475#AF13184945000000
(1426616836.316590) can0 306#1200000000000000
(1426616836.316840) can0 294#00009CFFFA000000
(1426616836.405313) can0 477#0700AB7B9B001400
(1426616836.416248) can0 475#AD13184945000000
(1426616836.416545) can0 306#1200000000000000
(1426616836.416790) can0 294#00009CFFFA000000
(1426616836.502456) can0 477#0700AC7B9B001400
(1426616836.516235) can0 475#A413184945000000
(1426616836.516554) can0 306#1200000000000000
(1426616836.516826) can0 294#00009CFFFA000000
(1426616836.599176) can0 477#0700AB7B9B001400
(1426616836.616230) can0 475#B113184945000000
(1426616836.616548) can0 306#1200000000000000
(1426616836.616798) can0 294#00009CFFFA000000
(1426616836.696091) can0 477#0700AC7B9B001400
(1426616836.716181) can0 475#AD13184945000000
(1426616836.716471) can0 306#1200000000000000
(1426616836.716729) can0 294#00009CFFFA000000
(1426616836.792215) can0 477#0700AB7B9B001400
(1426616836.816371) can0 475#B113184945000000
(1426616836.816657) can0 306#1200000000000000
(1426616836.816928) can0 294#00009CFFFA000000
(1426616836.889185) can0 477#0700AB7B9B001400
(1426616836.916313) can0 475#AF13184945000000
(1426616836.916615) can0 306#1200000000000000
(1426616836.917151) can0 294#00009CFFFA000000
(1426616836.986147) can0 477#0700AB7B9B001400
(1426616837.016269) can0 475#A013184945000000
(1426616837.016574) can0 306#1200000000000000
(1426616837.016839) can0 294#00009CFFFA000000
(1426616837.083164) can0 477#0700AB7B9B001400
(1426616837.116273) can0 475#AF13184945000000
(1426616837.116591) can0 306#1200000000000000
(1426616837.116889) can0 294#00009CFFFA000000
(1426616837.180106) can0 477#0700AB7B9B001400
(1426616837.216245) can0 475#A813184945000000
(1426616837.216539) can0 306#1200000000000000
(1426616837.216810) can0 294#00009CFFFA000000
(1426616837.277052) can0 477#0700AB7B9B001400
(1426616837.316429) can0 475#B913184945000000
(1426616837.316744) can0 306#1200000000000000
(1426616837.316992) can0 294#00009CFFFA000000
(1426616837.374142) can0 477#0700AB7B9B001400
(1426616837.416386) can0 475#B513184945000000
(1426616837.416700) can0 306#1100000000000000
(1426616837.416961) can0 294#00009CFFFA000000
(1426616837.470968) can0 477#0700AB7B9B001400
(1426616837.516358) can0 475#AF13184945000000
(1426616837.516677) can0 306#1100000000000000
(1426616837.516925) can0 294#00009CFFFA000000
(1426616837.567967) can0 477#0700AB7B9B001400
(1426616837.616435) can0 475#AD13184945000000
(1426616837.616737) can0 306#1100000000000000
(1426616837.616986) can0 294#00009CFFFA000000
(1426616837.664916) can0 477#0700AC7B9B001400
(1426616837.716556) can0 475#AD13184945000000
(1426616837.716917) can0 306#1100000000000000
(1426616837.717168) can0 294#00009CFFFA000000
(1426616837.761864) can0 477#0700AA7B9B001400
(1426616837.816358) can0 475#AD13184945000000
(1426616837.816642) can0 306#1100000000000000
(1426616837.817048) can0 294#00009CFFFA000000
(1426616837.858902) can0 477#0700AB7B9B001400
(1426616837.916540) can0 475#AF13184945000000
(1426616837.916833) can0 306#1100000000000000
(1426616837.917087) can0 294#00009CFFFA000000
(1426616837.955843) can0 477#0700AB7B9B001400
(1426616838.016269) can0 475#B313184945000000
(1426616838.016703) can0 306#1200000000000000
(1426616838.016965) can0 294#00009CFFFA000000
(1426616838.052794) can0 477#0700AA7B9B001400
(1426616838.116519) can0 475#A913184945000000
(1426616838.116798) can0 306#1200000000000000
(1426616838.117044) can0 294#00009CFFFA000000
(1426616838.149770) can0 477#0700AA7B9B001400
(1426616838.216208) can0 475#B313184945000000
(1426616838.216632) can0 306#1200000000000000
(1426616838.216909) can0 294#00009CFFFA000000
(1426616838.246733) can0 477#0700AB7B9B001400
(1426616838.316225) can0 475#AD13184945000000
(1426616838.316638) can0 306#1300000000000000
(1426616838.316884) can0 294#00009CFFFA000000
(1426616838.343704) can0 477#0700AB7B9B001400
(1426616838.416328) can0 475#B713184945000000
(1426616838.416658) can0 306#1300000000000000
(1426616838.416932) can0 294#00009CFFFA000000
(1426616838.440664) can0 477#0700AB7B9B001400
(1426616838.516306) can0 475#B113184945000000
(1426616838.516611) can0 306#1200000000000000
(1426616838.516898) can0 294#00009CFFFA000000
(1426616838.537678) can0 477#0700AB7B9B001400
(1426616838.616123) can0 475#B113184945000000
(1426616838.616406) can0 306#1200000000000000
(1426616838.616822) can0 294#00009CFFFA000000
(1426616838.634790) can0 477#0700AB7B9B001400
(1426616838.716290) can0 475#B113184945000000
(1426616838.716589) can0 306#1200000000000000
(1426616838.716837) can0 294#00009CFFFA000000
(1426616838.731557) can0 477#0700AB7B9B001400
(1426616838.816246) can0 475#B113184945000000
(1426616838.816566) can0 306#1200000000000000
(1426616838.816825) can0 294#00009CFFFA000000
(1426616838.828518) can0 477#0700AB7B9B001400
(1426616838.916192) can0 475#AD13184945000000
(1426616838.916499) can0 306#1200000000000000
(1426616838.916769) can0 294#00009CFFFA000000
(1426616838.925521) can0 477#0700AB7B9B001400
(1426616839.016230) can0 475#AD13184945000000
(1426616839.016557) can0 306#1200000000000000
(1426616839.016836) can0 294#00009CFFFA000000
(1426616839.022447) can0 477#0700AB7B9B001400
(1426616839.116435) can0 475#AD13184945000000
(1426616839.116741) can0 306#1300000000000000
(1426616839.117010) can0 294#00009CFFFA000000
(1426616839.119418) can0 477#0700AC7B9B001400
(1426616839.216409) can0 475#B113184945000000
(1426616839.216706) can0 477#0700AB7B9B001400
(1426616839.217098) can0 306#1300000000000000
(1426616839.217353) can0 294#00009CFFFA000000
(1426616839.313430) can0 477#0700AA7B9B001400
(1426616839.316406) can0 475#B313184945000000
(1426616839.316775) can0 306#1300000000000000
(1426616839.317075) can0 294#00009CFFFA000000
(1426616839.410368) can0 477#0700AB7B9B001400
(1426616839.416377) can0 475#AF13184945000000
(1426616839.416747) can0 306#1300000000000000
(1426616839.417031) can0 294#00009CFFFA000000
(1426616839.508374) can0 477#0700AB7B9B001400
(1426616839.516302) can0 475#B313184945000000
(1426616839.516734) can0 306#1300000000000000
(1426616839.517002) can0 294#00009CFFFA000000
(1426616839.604386) can0 477#0700AA7B9B001400
(1426616839.616282) can0 475#AD13184945000000
(1426616839.616739) can0 306#1200000000000000
(1426616839.616993) can0 294#00009CFFFA000000
(1426616839.701504) can0 477#0700AB7B9B001400
(1426616839.716283) can0 475#B713184945000000
(1426616839.716565) can0 306#1100000000000000
(1426616839.716815) can0 294#00009CFFFA000000
(1426616839.798276) can0 477#0700AB7B9B001400
(1426616839.816224) can0 475#B313184945000000
(1426616839.816615) can0 306#1100000000000000
(1426616839.816888) can0 294#00009CFFFA000000
(1426616839.895234) can0 477#0700AB7B9B001400
(1426616839.916273) can0 475#AD13184945000000
(1426616839.916551) can0 306#1100000000000000
(1426616839.916798) can0 294#00009CFFFA000000
(1426616839.992499) can0 477#0700AA7B9B001400
(1426616840.016290) can0 475#B113184945000000
(1426616840.016594) can0 306#1100000000000000
(1426616840.016861) can0 294#00009CFFFA000000
(1426616840.089181) can0 477#0700AB7B9B001400
(1426616840.116579) can0 475#B113184945000000
(1426616840.116870) can0 306#1100000000000000
(1426616840.117116) can0 294#00009CFFFA000000
(1426616840.186134) can0 477#0700AA7B9B001400
(1426616840.216535) can0 475#AF13184945000000
(1426616840.216827) can0 306#1100000000000000
(1426616840.217072) can0 294#00009CFFFA000000
(1426616840.283063) can0 477#0700AB7B9B001400
(1426616840.316324) can0 475#A813184945000000
(1426616840.316622) can0 306#1100000000000000
(1426616840.316868) can0 294#00009CFFFA000000
(1426616840.380065) can0 477#0700AB7B9B001400
(1426616840.416253) can0 475#B113184945000000
(1426616840.416570) can0 306#1300000000000000
(1426616840.416822) can0 294#00009CFFFA000000
(1426616840.477065) can0 477#0700AB7B9B001400
(1426616840.516390) can0 475#B113184945000000
(1426616840.516708) can0 306#1300000000000000
(1426616840.516963) can0 294#00009CFFFA000000
(1426616840.574278) can0 477#0700AB7B9B001400
(1426616840.616406) can0 475#B513184945000000
(1426616840.616715) can0 306#1200000000000000
(1426616840.616968) can0 294#00009CFFFA000000
(1426616840.670942) can0 477#0700AB7B9B001400
(1426616840.716439) can0 475#B313184945000000
(1426616840.716876) can0 306#1200000000000000
(1426616840.717126) can0 294#00009CFFFA000000
(1426616840.767913) can0 477#0700AB7B9B001400
(1426616840.816602) can0 475#AD13184945000000
(1426616840.816898) can0 306#1200000000000000
(1426616840.817156) can0 294#00009CFFFA000000
(1426616840.864899) can0 477#0700AA7B9B001400
(1426616840.916377) can0 475#B113184945000000
(1426616840.916839) can0 306#1200000000000000
(1426616840.917091) can0 294#00009CFFFA000000
(1426616840.961904) can0 477#0700AB7B9B001400
(1426616841.016485) can0 475#AD13184945000000
(1426616841.016782) can0 306#1200000000000000
(1426616841.017044) can0 294#00009CFFFA000000
(1426616841.058862) can0 477#0700AB7B9B001400
(1426616841.116314) can0 475#A813184945000000
(1426616841.116607) can0 306#1200000000000000
(1426616841.116996) can0 294#00009CFFFA000000
(1426616841.155786) can0 477#0700AA7B9B001400
(1426616841.216484) can0 475#AD13184945000000
(1426616841.216838) can0 306#1200000000000000
(1426616841.217091) can0 294#00009CFFFA000000
(1426616841.252790) can0 477#0700AB7B9B001400
(1426616841.316298) can0 475#A813184945000000
(1426616841.316712) can0 306#1200000000000000
(1426616841.316969) can0 294#00009CFFFA000000
(1426616841.349768) can0 477#0700AA7B9B001400
(1426616841.416371) can0 475#B113184945000000
(1426616841.416716) can0 306#1200000000000000
(1426616841.416967) can0 294#00009CFFFA000000
(1426616841.446734) can0 477#0700AA7B9B001400
(1426616841.516162) can0 475#A613184945000000
(1426616841.516619) can0 306#1200000000000000
(1426616841.516874) can0 294#00009CFFFA000000
(1426616841.543663) can0 477#0700AB7B9B001400
(1426616841.616199) can0 475#A813184945000000
(1426616841.616480) can0 306#1100000000000000
(1426616841.616872) can0 294#00009CFFFA000000
(1426616841.640669) can0 477#0700AA7B9B001400
(1426616841.716316) can0 475#A913184945000000
(1426616841.716610) can0 306#1100000000000000
(1426616841.716863) can0 294#00009CFFFA000000
(1426616841.737649) can0 477#0700AA7B9B001400
(1426616841.816308) can0 475#AF13184945000000
(1426616841.816628) can0 306#1100000000000000
(1426616841.816877) can0 294#00009CFFFA000000
(1426616841.834595) can0 477#0700AA7B9B001400
(1426616841.916267) can0 475#AD13184945000000
(1426616841.916597) can0 306#1100000000000000
(1426616841.916848) can0 294#00009CFFFA000000
(1426616841.931579) can0 477#0700AB7B9B001400
(1426616842.016210) can0 475#B113184945000000
(1426616842.016542) can0 306#1200000000000000
(1426616842.016822) can0 294#00009CFFFA000000
(1426616842.028525) can0 477#0700AA7B9B001400
(1426616842.116233) can0 475#B313184945000000
(1426616842.116542) can0 306#1200000000000000
(1426616842.116792) can0 294#00009CFFFA000000
(1426616842.125479) can0 477#0700AA7B9B001400
(1426616842.216419) can0 475#B313184945000000
(1426616842.216723) can0 306#1300000000000000
(1426616842.216977) can0 294#00009CFFFA000000
(1426616842.222467) can0 477#0700AB7B9B001400
(1426616842.316450) can0 475#AD13184945000000
(1426616842.316755) can0 306#1200000000000000
(1426616842.317003) can0 294#00009CFFFA000000
(1426616842.319519) can0 477#0700AA7B9B001400
(1426616842.416445) can0 475#B713184945000000
(1426616842.416781) can0 306#1300000000000000
(1426616842.417036) can0 294#00009CFFFA000000
(1426616842.417283) can0 477#0700AA7B9B001400
(1426616842.513516) can0 477#0700AA7B9B001400
(1426616842.516557) can0 475#A913184945000000
(1426616842.516860) can0 306#1200000000000000
(1426616842.517127) can0 294#00009CFFFA000000
(1426616842.611410) can0 477#0700AB7B9B001400
(1426616842.616347) can0 475#A813184945000000
(1426616842.616798) can0 306#1200000000000000
(1426616842.617086) can0 294#00009CFFFA000000
(1426616842.707283) can0 477#0700AA7B9B001400
(1426616842.716336) can0 475#B113184945000000
(1426616842.716766) can0 306#1200000000000000
(1426616842.716978) can0 294#00009CFFFA000000
(1426616842.804285) can0 477#0700AA7B9B001400
(1426616842.816300) can0 475#B513184945000000
(1426616842.816577) can0 306#1200000000000000
(1426616842.816978) can0 294#00009CFFFA000000
(1426616842.901294) can0 477#0700AB7B9B001400
(1426616842.916232) can0 475#AF13184945000000
(1426616842.916529) can0 306#1200000000000000
(1426616842.916787) can0 294#00009CFFFA000000
(1426616842.998215) can0 477#0700AA7B9B001400
(1426616843.016187) can0 475#A213184945000000
(1426616843.016494) can0 306#1300000000000000
(1426616843.016779) can0 294#00009CFFFA000000
(1426616843.095864) can0 477#0700AA7B9B001400
(1426616843.116638) can0 475#BB13184945000000
(1426616843.116934) can0 306#1300000000000000
(1426616843.117195) can0 294#00009CFFFA000000
(1426616843.192138) can0 477#0700AB7B9B001400
(1426616843.216603) can0 475#A813184945000000
(1426616843.216888) can0 306#1200000000000000
(1426616843.217140) can0 294#00009CFFFA000000
(1426616843.290532) can0 477#0700AB7B9B001400
(1426616843.316347) can0 475#AD13184945000000
(1426616843.316636) can0 306#1200000000000000
(1426616843.316895) can0 294#00009CFFFA000000
(1426616843.386092) can0 477#0700AA7B9B001400
(1426616843.416536) can0 475#AF13184945000000
(1426616843.416847) can0 306#1100000000000000
(1426616843.417095) can0 294#00009CFFFA000000
(1426616843.483052) can0 477#0700AB7B9B001400
(1426616843.516261) can0 475#AB13184945000000
(1426616843.516543) can0 306#1100000000000000
(1426616843.516801) can0 294#00009CFFFA000000
(1426616843.579987) can0 477#0700AA7B9B001400
(1426616843.616241) can0 475#AD13184945000000
(1426616843.616530) can0 306#1000000000000000
(1426616843.616837) can0 294#00009CFFFA000000
(1426616843.676982) can0 477#0700AA7B9B001400
(1426616843.716515) can0 475#B113184945000000
(1426616843.716947) can0 306#1000000000000000
(1426616843.717201) can0 294#00009CFFFA000000
(1426616843.774028) can0 477#0700AA7B9B001400
(1426616843.816387) can0 475#AD13184945000000
(1426616843.816696) can0 306#1000000000000000
(1426616843.816956) can0 294#00009CFFFA000000
(1426616843.870890) can0 477#0700AA7B9B001400
(1426616843.916445) can0 475#AD13184945000000
(1426616843.916906) can0 306#1000000000000000
(1426616843.917158) can0 294#00009CFFFA000000
(1426616843.967901) can0 477#0700AA7B9B001400
(1426616844.016559) can0 475#A913184945000000
(1426616844.016866) can0 306#1000000000000000
(1426616844.017134) can0 294#00009CFFFA000000
(1426616844.064876) can0 477#0700AB7B9B001400
(1426616844.116421) can0 475#AB13184945000000
(1426616844.116788) can0 306#0F00000000000000
(1426616844.117065) can0 294#00009CFFFA000000
(1426616844.161798) can0 477#0700AA7B9B001400
(1426616844.216564) can0 475#AF13184945000000
(1426616844.216852) can0 306#0F00000000000000
(1426616844.217099) can0 294#00009CFFFA000000
(1426616844.258820) can0 477#0700AA7B9B001400
(1426616844.316544) can0 475#AD13184945000000
(1426616844.316856) can0 306#0E00000000000000
(1426616844.317101) can0 294#00009CFFFA000000
(1426616844.355799) can0 477#0700AB7B9B001400
(1426616844.416558) can0 475#AB13184945000000
(1426616844.416851) can0 306#0E00000000000000
(1426616844.417097) can0 294#00009CFFFA000000
(1426616844.452919) can0 477#0700AA7B9B001400
(1426616844.516242) can0 475#A813184945000000
(1426616844.516695) can0 306#0D00000000000000
(1426616844.516947) can0 294#00009CFFFA000000
(1426616844.549700) can0 477#0700AA7B9B001400
(1426616844.616216) can0 475#BB13184945000000
(1426616844.616670) can0 306#0E00000000000000
(1426616844.616921) can0 294#00009CFFFA000000
(1426616844.646709) can0 477#0700AA7B9B001400
(1426616844.716407) can0 475#B313184945000000
(1426616844.716695) can0 306#0E00000000000000
(1426616844.716975) can0 294#00009CFFFA000000
(1426616844.743629) can0 477#0700AA7B9B001400
(1426616844.816429) can0 475#A813184945000000
(1426616844.816712) can0 306#0E00000000000000
(1426616844.816961) can0 294#00009CFFFA000000
(1426616844.840632) can0 477#0700AA7B9B001400
(1426616844.916331) can0 475#AF13184945000000
(1426616844.916655) can0 306#0E00000000000000
(1426616844.916897) can0 294#00009CFFFA000000
(1426616844.937626) can0 477#0700AB7B9B001400
(1426616845.016259) can0 475#AD13184945000000
(1426616845.016588) can0 306#0E00000000000000
(1426616845.016835) can0 294#00009CFFFA000000
(1426616845.034543) can0 477#0700AB7B9B001400
(1426616845.116326) can0 475#A613184945000000
(1426616845.116621) can0 306#0E00000000000000
(1426616845.116870) can0 294#00009CFFFA000000
(1426616845.131527) can0 477#0700AA7B9B001400
(1426616845.216252) can0 475#B113184945000000
(1426616845.216543) can0 306#0F00000000000000
(1426616845.216789) can0 294#00009CFFFA000000
(1426616845.228498) can0 477#0700AA7B9B001400
(1426616845.316316) can0 475#AB13184945000000
(1426616845.316707) can0 306#0F00000000000000
(1426616845.316951) can0 294#00009CFFFA000000
(1426616845.325451) can0 477#0700AA7B9B001400
(1426616845.416360) can0 475#A813184945000000
(1426616845.416673) can0 306#0E00000000000000
(1426616845.416943) can0 294#00009CFFFA000000
(1426616845.422455) can0 477#0700AA7B9B001400
(1426616845.516358) can0 475#B313184945000000
(1426616845.516704) can0 306#0E00000000000000
(1426616845.516960) can0 294#00009CFFFA000000
(1426616845.519350) can0 477#0700AA7B9B001400
(1426616845.616423) can0 475#B513184945000000
(1426616845.616725) can0 306#0E00000000000000
(1426616845.616983) can0 294#00009CFFFA000000
(1426616845.617679) can0 477#0700A97B9B001400
(1426616845.713347) can0 477#0700AA7B9B001400
(1426616845.716362) can0 475#B113184945000000
(1426616845.716641) can0 306#0E00000000000000
(1426616845.716890) can0 294#00009CFFFA000000
(1426616845.810281) can0 477#0700A97B9B001400
(1426616845.816357) can0 475#A913184945000000
(1426616845.816625) can0 306#0E00000000000000
(1426616845.816873) can0 294#00009CFFFA000000
(1426616845.908301) can0 477#0700AA7B9B001400
(1426616845.916293) can0 475#A913184945000000
(1426616845.916579) can0 306#0E00000000000000
(1426616845.916822) can0 294#00009CFFFA000000
(1426616846.004577) can0 477#0700A97B9B001400
(1426616846.016224) can0 475#A413184945000000
(1426616846.016551) can0 306#0E00000000000000
(1426616846.016827) can0 294#00009CFFFA000000
(1426616846.101462) can0 477#0700AA7B9B001400
(1426616846.116267) can0 475#B113184945000000
(1426616846.116557) can0 306#0F00000000000000
(1426616846.116820) can0 294#00009CFFFA000000
(1426616846.198306) can0 477#0700AA7B9B001400
(1426616846.216456) can0 475#A913184945000000
(1426616846.216758) can0 306#0E00000000000000
(1426616846.217009) can0 294#00009CFFFA000000
(1426616846.295681) can0 477#0700AA7B9B001400
(1426616846.316442) can0 475#A813184945000000
(1426616846.316877) can0 306#0D00000000000000
(1426616846.317247) can0 294#00009CFFFA000000
(1426616846.392242) can0 477#0700A97B9B001400
(1426616846.416608) can0 475#B313184945000000
(1426616846.416926) can0 306#0D00000000000000
(1426616846.417179) can0 294#00009CFFFA000000
(1426616846.489120) can0 477#0700A97B9B001400
(1426616846.516541) can0 475#B113184945000000
(1426616846.516861) can0 306#0E00000000000000
(1426616846.517110) can0 294#00009CFFFA000000
(1426616846.586097) can0 477#0700AB7B9B001400
(1426616846.616551) can0 475#B113184945000000
(1426616846.616845) can0 306#0F00000000000000
(1426616846.617093) can0 294#00009CFFFA000000
(1426616846.683014) can0 477#0700AA7B9B001400
(1426616846.716326) can0 475#AD13184945000000
(1426616846.716632) can0 306#0F00000000000000
(1426616846.716880) can0 294#00009CFFFA000000
(1426616846.779982) can0 477#0700AA7B9B001400
(1426616846.816562) can0 475#AF13184945000000
(1426616846.816851) can0 306#0F00000000000000
(1426616846.817103) can0 294#00009CFFFA000000
(1426616846.876948) can0 477#0700A97B9B001400
(1426616846.916500) can0 475#AB13184945000000
(1426616846.916805) can0 306#0F00000000000000
(1426616846.917073) can0 294#00009CFFFA000000
(1426616846.974026) can0 477#0700AA7B9B001400
(1426616847.016609) can0 475#AB13184945000000
(1426616847.016911) can0 306#1000000000000000
(1426616847.017173) can0 294#00009CFFFA000000
(1426616847.070925) can0 477#0700A97B9B001400
(1426616847.116436) can0 475#AB13184945000000
(1426616847.116910) can0 306#1000000000000000
(1426616847.117172) can0 294#00009CFFFA000000
(1426616847.167875) can0 477#0700A97B9B001400
(1426616847.216430) can0 475#A613184945000000
(1426616847.216885) can0 306#1000000000000000
(1426616847.217140) can0 294#00009CFFFA000000
(1426616847.264874) can0 477#0700AA7B9B001400
(1426616847.316654) can0 475#AD13184945000000
(1426616847.316953) can0 306#1000000000000000
(1426616847.317196) can0 294#00009CFFFA000000
(1426616847.361824) can0 477#0700A97B9B001400
(1426616847.416640) can0 475#AB13184945000000
(1426616847.416943) can0 306#1000000000000000
(1426616847.417191) can0 294#00009CFFFA000000
(1426616847.458787) can0 477#0700A97B9B001400
(1426616847.516489) can0 475#AB13184945000000
(1426616847.516815) can0 306#0F00000000000000
(1426616847.517066) can0 294#00009CFFFA000000
(1426616847.555772) can0 477#0700AA7B9B001400
(1426616847.616295) can0 475#AB13184945000000
(1426616847.616738) can0 306#0F00000000000000
(1426616847.616987) can0 294#00009CFFFA000000
(1426616847.652696) can0 477#0700AA7B9B001400
(1426616847.716237) can0 475#B513184945000000
(1426616847.716710) can0 306#0F00000000000000
(1426616847.716970) can0 294#00009CFFFA000000
(1426616847.749705) can0 477#0700AA7B9B001400
(1426616847.816420) can0 475#AB13184945000000
(1426616847.816736) can0 306#0F00000000000000
(1426616847.816993) can0 294#00009CFFFA000000
(1426616847.846732) can0 477#0700A97B9B001400
(1426616847.916464) can0 475#A813184945000000
(1426616847.916753) can0 306#0F00000000000000
(1426616847.917002) can0 294#00009CFFFA000000
(1426616847.943592) can0 477#0700AA7B9B001400
(1426616848.016365) can0 475#A813184945000000
(1426616848.016690) can0 306#1000000000000000
(1426616848.016948) can0 294#00009CFFFA000000
(1426616848.040565) can0 477#0700AA7B9B001400
(1426616848.116388) can0 475#BD13184945000000
(1426616848.116701) can0 306#1000000000000000
(1426616848.116952) can0 294#00009CFFFA000000
(1426616848.137569) can0 477#0700A97B9B001400
(1426616848.216339) can0 475#B313184945000000
(1426616848.216637) can0 306#1000000000000000
(1426616848.216890) can0 294#00009CFFFA000000
(1426616848.234537) can0 477#0700AA7B9B001400
(1426616848.316325) can0 475#AF13184945000000
(1426616848.316648) can0 306#1000000000000000
(1426616848.316897) can0 294#00009CFFFA000000
(1426616848.331660) can0 477#0700A97B9B001400
(1426616848.416349) can0 475#A013184945000000
(1426616848.416789) can0 306#1000000000000000
(1426616848.417043) can0 294#00009CFFFA000000
(1426616848.428448) can0 477#0700A97B9B001400
(1426616848.516247) can0 475#A613184945000000
(1426616848.516715) can0 306#1000000000000000
(1426616848.516965) can0 294#00009CFFFA000000
(1426616848.525421) can0 477#0700A97B9B001400
(1426616848.616481) can0 475#A913184945000000
(1426616848.616774) can0 306#1000000000000000
(1426616848.617028) can0 294#00009CFFFA000000
(1426616848.622399) can0 477#0700A97B9B001400
(1426616848.716451) can0 475#A913184945000000
(1426616848.716763) can0 306#0F00000000000000
(1426616848.717010) can0 294#00009CFFFA000000
(1426616848.719365) can0 477#0700A97B9B001400
(1426616848.816379) can0 477#0700A97B9B001400
(1426616848.816680) can0 475#B313184945000000
(1426616848.816928) can0 306#0E00000000000000
(1426616848.817172) can0 294#00009CFFFA000000
(1426616848.914019) can0 477#0700A97B9B001400
(1426616848.916377) can0 475#AF13184945000000
(1426616848.916660) can0 306#0D00000000000000
(1426616848.916931) can0 294#00009CFFFA000000
(1426616849.010274) can0 477#0700A97B9B001400
(1426616849.016290) can0 475#A613184945000000
(1426616849.016595) can0 306#0D00000000000000
(1426616849.016855) can0 294#00009CFFFA000000
(1426616849.107237) can0 477#0700AA7B9B001400
(1426616849.116373) can0 475#A613184945000000
(1426616849.116672) can0 306#0D00000000000000
(1426616849.116936) can0 294#00009CFFFA000000
(1426616849.204399) can0 477#0700AA7B9B001400
(1426616849.216316) can0 475#B113184945000000
(1426616849.216611) can0 306#0D00000000000000
(1426616849.216875) can0 294#00009CFFFA000000
(1426616849.302201) can0 477#0700A97B9B001400
(1426616849.316502) can0 475#B513184945000000
(1426616849.316803) can0 306#0E00000000000000
(1426616849.317066) can0 294#00009CFFFA000000
(1426616849.398132) can0 477#0700A97B9B001400
(1426616849.416653) can0 475#A813184945000000
(1426616849.416982) can0 306#0E00000000000000
(1426616849.417235) can0 294#00009CFFFA000000
(1426616849.496450) can0 477#0700A97B9B001400
(1426616849.516617) can0 475#A913184945000000
(1426616849.516931) can0 306#0E00000000000000
(1426616849.517183) can0 294#00009CFFFA000000
(1426616849.593252) can0 477#0700AA7B9B001400
(1426616849.616620) can0 475#B713184945000000
(1426616849.616912) can0 306#0F00000000000000
(1426616849.617162) can0 294#00009CFFFA000000
(1426616849.689029) can0 477#0700A97B9B001400
(1426616849.716534) can0 475#A013184945000000
(1426616849.716855) can0 306#0F00000000000000
(1426616849.717133) can0 294#00009CFFFA000000
(1426616849.786017) can0 477#0700AA7B9B001400
(1426616849.816545) can0 475#B113184945000000
(1426616849.816870) can0 306#1000000000000000
(1426616849.817122) can0 294#00009CFFFA000000
(1426616849.883046) can0 477#0700A97B9B001400
(1426616849.916434) can0 475#AF13184945000000
(1426616849.916796) can0 306#1100000000000000
(1426616849.917068) can0 294#00009CFFFA000000
(1426616849.979941) can0 477#0700A97B9B001400
(1426616850.016459) can0 475#AD13184945000000
(1426616850.016798) can0 306#1100000000000000
(1426616850.017050) can0 294#00009CFFFA000000
(1426616850.076995) can0 477#0700A97B9B001400
(1426616850.116579) can0 475#AD13184945000000
(1426616850.116874) can0 306#1100000000000000
(1426616850.117127) can0 294#00009CFFFA000000
(1426616850.173932) can0 477#0700A97B9B001400
(1426616850.216736) can0 475#AF13184945000000
(1426616850.217033) can0 306#1000000000000000
(1426616850.217281) can0 294#00009CFFFA000000
(1426616850.271104) can0 477#0700A97B9B001400
(1426616850.316705) can0 475#A913184945000000
(1426616850.317004) can0 306#1000000000000000
(1426616850.317260) can0 294#00009CFFFA000000
(1426616850.367859) can0 477#0700A97B9B001400
(1426616850.417182) can0 294#00009CFFFA000000
(1426616850.464793) can0 477#0700A97B9B001400
(1426616850.516415) can0 475#B313184945000000
(1426616850.516867) can0 306#1000000000000000
(1426616850.517128) can0 294#00009CFFFA000000
(1426616850.561761) can0 477#0700A97B9B001400
(1426616850.616557) can0 475#AD13184945000000
(1426616850.616852) can0 306#1100000000000000
(1426616850.617100) can0 294#00009CFFFA000000
(1426616850.658742) can0 477#0700AA7B9B001400
(1426616850.716388) can0 475#B113184945000000
(1426616850.716764) can0 306#1000000000000000
(1426616850.717031) can0 294#00009CFFFA000000
(1426616850.755721) can0 477#0700A97B9B001400
(1426616850.816302) can0 475#B313184945000000
(1426616850.816768) can0 306#0F00000000000000
(1426616850.817022) can0 294#00009CFFFA000000
(1426616850.852682) can0 477#0700A97B9B001400
(1426616850.916263) can0 475#AD13184945000000
(1426616850.916727) can0 306#0E00000000000000
(1426616850.916983) can0 294#00009CFFFA000000
(1426616850.949643) can0 477#0700A97B9B001400
(1426616851.016415) can0 475#A813184945000000
(1426616851.016747) can0 306#0E00000000000000
(1426616851.017002) can0 294#00009CFFFA000000
(1426616851.046612) can0 477#0700A97B9B001400
(1426616851.116411) can0 475#AF13184945000000
(1426616851.116745) can0 306#0D00000000000000
(1426616851.116994) can0 294#00009CFFFA000000
(1426616851.143603) can0 477#0700A87B9B001400
(1426616851.216402) can0 475#A613184945000000
(1426616851.216698) can0 306#0D00000000000000
(1426616851.216947) can0 294#00009CFFFA000000
(1426616851.240559) can0 477#0700A87B9B001400
(1426616851.316409) can0 475#B713184945000000
(1426616851.316745) can0 306#0C00000000000000
(1426616851.317005) can0 294#00009CFFFA000000
(1426616851.337519) can0 477#0700A97B9B001400
(1426616851.416171) can0 475#B513184945000000
(1426616851.416558) can0 306#0C00000000000000
(1426616851.416821) can0 294#00009CFFFA000000
(1426616851.434489) can0 477#0700A97B9B001400
(1426616851.516322) can0 475#A413184945000000
(1426616851.516633) can0 306#0C00000000000000
(1426616851.517006) can0 294#00009CFFFA000000
(1426616851.531590) can0 477#0700A87B9B001400
(1426616851.616490) can0 475#AF13184945000000
(1426616851.616803) can0 306#0D00000000000000
(1426616851.617053) can0 294#00009CFFFA000000
(1426616851.628446) can0 477#0700A97B9B001400
(1426616851.716532) can0 475#AB13184945000000
(1426616851.716841) can0 306#0D00000000000000
(1426616851.717102) can0 294#00009CFFFA000000
(1426616851.725431) can0 477#0700A97B9B001400
(1426616851.816466) can0 475#A413184945000000
(1426616851.816763) can0 306#0D00000000000000
(1426616851.817014) can0 294#00009CFFFA000000
(1426616851.822353) can0 477#0700A97B9B001400
(1426616851.916492) can0 475#A813184945000000
(1426616851.916816) can0 306#0E00000000000000
(1426616851.917066) can0 294#00009CFFFA000000
(1426616851.920046) can0 477#0700A97B9B001400
(1426616852.016435) can0 475#A913184945000000
(1426616852.016787) can0 306#0D00000000000000
(1426616852.017045) can0 294#00009CFFFA000000
(1426616852.017432) can0 477#0700A97B9B001400
(1426616852.113257) can0 477#0700A97B9B001400
(1426616852.116423) can0 475#AB13184945000000
(1426616852.116692) can0 306#0D00000000000000
(1426616852.116945) can0 294#00009CFFFA000000
(1426616852.210645) can0 477#0700A87B9B001400
(1426616852.216387) can0 475#AB13184945000000
(1426616852.216683) can0 306#0D00000000000000
(1426616852.216953) can0 294#00009CFFFA000000
(1426616852.307231) can0 477#0700A87B9B001400
(1426616852.316358) can0 475#B113184945000000
(1426616852.316658) can0 306#0D00000000000000
(1426616852.316933) can0 294#00009CFFFA000000
(1426616852.404176) can0 477#0700A97B9B001400
(1426616852.416308) can0 475#B313184945000000
(1426616852.416761) can0 306#0D00000000000000
(1426616852.417398) can0 294#00009CFFFA000000
(1426616852.501158) can0 477#0700A77B9B001400
(1426616852.516735) can0 475#B313184945000000
(1426616852.517035) can0 306#0D00000000000000
(1426616852.517322) can0 294#00009CFFFA000000
(1426616852.598296) can0 477#0700A87B9B001400
(1426616852.616471) can0 475#A913184945000000
(1426616852.616759) can0 306#0D00000000000000
(1426616852.617037) can0 294#00009CFFFA000000
(1426616852.696413) can0 477#0700A97B9B001400
(1426616852.716477) can0 475#A613184945000000
(1426616852.716767) can0 306#0D00000000000000
(1426616852.717016) can0 294#00009CFFFA000000
(1426616852.792690) can0 477#0700A87B9B001400
(1426616852.816647) can0 475#AB13184945000000
(1426616852.816935) can0 306#0D00000000000000
(1426616852.817187) can0 294#00009CFFFA000000
(1426616852.889018) can0 477#0700A97B9B001400
(1426616852.916390) can0 475#B113184945000000
(1426616852.916702) can0 306#0D00000000000000
(1426616852.916954) can0 294#00009CFFFA000000
(1426616852.985968) can0 477#0700A97B9B001400
(1426616853.016528) can0 475#A913184945000000
(1426616853.016861) can0 306#0E00000000000000
(1426616853.017113) can0 294#00009CFFFA000000
(1426616853.083056) can0 477#0700A97B9B001400
(1426616853.116612) can0 475#A613184945000000
(1426616853.116900) can0 306#0E00000000000000
(1426616853.117151) can0 294#00009CFFFA000000
(1426616853.179958) can0 477#0700A87B9B001400
(1426616853.216603) can0 475#A413184945000000
(1426616853.216905) can0 306#0F00000000000000
(1426616853.217304) can0 294#00009CFFFA000000
(1426616853.276918) can0 477#0700A87B9B001400
(1426616853.316736) can0 475#AD13184945000000
(1426616853.317038) can0 306#0F00000000000000
(1426616853.317286) can0 294#00009CFFFA000000
(1426616853.373860) can0 477#0700A87B9B001400
(1426616853.416498) can0 475#A913184945000000
(1426616853.416952) can0 306#1000000000000000
(1426616853.417203) can0 294#00009CFFFA000000
(1426616853.470876) can0 477#0700A87B9B001400
(1426616853.516494) can0 475#AB13184945000000
(1426616853.516880) can0 306#1000000000000000
(1426616853.517159) can0 294#00009CFFFA000000
(1426616853.567817) can0 477#0700A97B9B001400
(1426616853.616670) can0 475#AB13184945000000
(1426616853.616973) can0 306#1100000000000000
(1426616853.617233) can0 294#00009CFFFA000000
(1426616853.664774) can0 477#0700A87B9B001400
(1426616853.716450) can0 475#AF13184945000000
(1426616853.716861) can0 306#1100000000000000
(1426616853.717132) can0 294#00009CFFFA000000
(1426616853.761723) can0 477#0700A87B9B001400
(1426616853.816599) can0 475#A613184945000000
(1426616853.816915) can0 306#1100000000000000
(1426616853.817171) can0 294#00009CFFFA000000
(1426616853.858738) can0 477#0700A97B9B001400
(1426616853.916361) can0 475#AB13184945000000
(1426616853.916826) can0 306#1100000000000000
(1426616853.917083) can0 294#00009CFFFA000000
(1426616853.955670) can0 477#0700A87B9B001400
(1426616854.016294) can0 475#A913184945000000
(1426616854.016760) can0 306#1100000000000000
(1426616854.017015) can0 294#00009CFFFA000000
(1426616854.052684) can0 477#0700A87B9B001400
(1426616854.116571) can0 475#A913184945000000
(1426616854.116853) can0 306#1100000000000000
(1426616854.117101) can0 294#00009CFFFA000000
(1426616854.149814) can0 477#0700A87B9B001400
(1426616854.216269) can0 475#A913184945000000
(1426616854.216729) can0 306#1100000000000000
(1426616854.216983) can0 294#00009CFFFA000000
(1426616854.246618) can0 477#0700A97B9B001400
(1426616854.316272) can0 475#AD13184945000000
(1426616854.316690) can0 306#1100000000000000
(1426616854.316941) can0 294#00009CFFFA000000
(1426616854.343565) can0 477#0700A97B9B001400
(1426616854.416415) can0 475#A613184945000000
(1426616854.416740) can0 306#1000000000000000
(1426616854.416992) can0 294#00009CFFFA000000
(1426616854.440513) can0 477#0700A97B9B001400
(1426616854.516360) can0 475#A213184945000000
(1426616854.516700) can0 306#1000000000000000
(1426616854.516965) can0 294#00009CFFFA000000
(1426616854.537511) can0 477#0700A87B9B001400
(1426616854.616424) can0 475#AF13184945000000
(1426616854.616733) can0 306#0F00000000000000
(1426616854.617011) can0 294#00009CFFFA000000
(1426616854.634445) can0 477#0700A87B9B001400
(1426616854.716388) can0 475#A913184945000000
(1426616854.716731) can0 306#0F00000000000000
(1426616854.717015) can0 294#00009CFFFA000000
(1426616854.731398) can0 477#0700A97B9B001400
(1426616854.816608) can0 475#B513184945000000
(1426616854.816931) can0 306#0E00000000000000
(1426616854.817187) can0 294#00009CFFFA000000
(1426616854.828404) can0 477#0700A87B9B001400
(1426616854.916563) can0 475#AD13184945000000
(1426616854.916964) can0 306#0E00000000000000
(1426616854.917235) can0 294#00009CFFFA000000
(1426616854.925390) can0 477#0700A87B9B001400
(1426616855.016524) can0 475#AD13184945000000
(1426616855.016861) can0 306#0E00000000000000
(1426616855.017112) can0 294#00009CFFFA000000
(1426616855.022297) can0 477#0700A97B9B001400
(1426616855.116501) can0 475#A913184945000000
(1426616855.116922) can0 306#0E00000000000000
(1426616855.117173) can0 294#00009CFFFA000000
(1426616855.119289) can0 477#0700A87B9B001400
(1426616855.216275) can0 477#0700A87B9B001400
(1426616855.216567) can0 475#A013184945000000
(1426616855.216930) can0 306#0E00000000000000
(1426616855.217222) can0 294#00009CFFFA000000
(1426616855.313255) can0 477#0700A87B9B001400
(1426616855.316452) can0 475#AF13184945000000
(1426616855.316734) can0 306#0E00000000000000
(1426616855.316987) can0 294#00009CFFFA000000
(1426616855.410188) can0 477#0700A87B9B001400
(1426616855.416407) can0 475#A613184945000000
(1426616855.416725) can0 306#0E00000000000000
(1426616855.416986) can0 294#00009CFFFA000000
(1426616855.507187) can0 477#0700A87B9B001400
(1426616855.516343) can0 475#AD13184945000000
(1426616855.516778) can0 306#0E00000000000000
(1426616855.517049) can0 294#00009CFFFA000000
(1426616855.604190) can0 477#0700A87B9B001400
(1426616855.616549) can0 475#A013184945000000
(1426616855.616871) can0 306#0F00000000000000
(1426616855.617126) can0 294#00009CFFFA000000
(1426616855.701159) can0 477#0700A87B9B001400
(1426616855.716521) can0 475#9E13184945000000
(1426616855.716831) can0 306#0F00000000000000
(1426616855.717084) can0 294#00009CFFFA000000
(1426616855.799404) can0 477#0700A87B9B001400
(1426616855.816493) can0 475#AB13184945000000
(1426616855.816782) can0 306#0F00000000000000
(1426616855.817096) can0 294#00009CFFFA000000
(1426616855.896172) can0 477#0700A87B9B001400
(1426616855.916463) can0 475#B313184945000000
(1426616855.916758) can0 306#0F00000000000000
(1426616855.917032) can0 294#00009CFFFA000000
(1426616855.992037) can0 477#0700A87B9B001400
(1426616856.016371) can0 475#AB13184945000000
(1426616856.016695) can0 306#1000000000000000
(1426616856.016963) can0 294#00009CFFFA000000
(1426616856.089189) can0 477#0700A97B9B001400
(1426616856.116402) can0 475#AD13184945000000
(1426616856.116722) can0 306#1000000000000000
(1426616856.116975) can0 294#00009CFFFA000000
(1426616856.185952) can0 477#0700A87B9B001400
(1426616856.216527) can0 475#AF13184945000000
(1426616856.216839) can0 306#1000000000000000
(1426616856.217099) can0 294#00009CFFFA000000
(1426616856.282937) can0 477#0700A87B9B001400
(1426616856.316602) can0 475#B713184945000000
(1426616856.316932) can0 306#1100000000000000
(1426616856.317209) can0 294#00009CFFFA000000
(1426616856.379913) can0 477#0700A87B9B001400
(1426616856.416760) can0 475#B313184945000000
(1426616856.417081) can0 306#1100000000000000
(1426616856.417331) can0 294#00009CFFFA000000
(1426616856.476882) can0 477#0700A77B9B001400
(1426616856.516694) can0 475#A813184945000000
(1426616856.517013) can0 306#1100000000000000
(1426616856.517288) can0 294#00009CFFFA000000
(1426616856.573859) can0 477#0700A87B9B001400
(1426616856.616544) can0 475#A813184945000000
(1426616856.617010) can0 306#1000000000000000
(1426616856.617263) can0 294#00009CFFFA000000
(1426616856.670826) can0 477#0700A87B9B001400
(1426616856.716663) can0 475#AF13184945000000
(1426616856.716984) can0 306#1000000000000000
(1426616856.717234) can0 294#00009CFFFA000000
(1426616856.767756) can0 477#0700A87B9B001400
(1426616856.816686) can0 475#A613184945000000
(1426616856.816988) can0 306#1000000000000000
(1426616856.817256) can0 294#00009CFFFA000000
(1426616856.864737) can0 477#0700A87B9B001400
(1426616856.916431) can0 475#A613184945000000
(1426616856.916873) can0 306#1000000000000000
(1426616856.917126) can0 294#00009CFFFA000000
(1426616856.961732) can0 477#0700A97B9B001400
(1426616857.016525) can0 475#A613184945000000
(1426616857.016850) can0 306#1000000000000000
(1426616857.017126) can0 294#00009CFFFA000000
(1426616857.058698) can0 477#0700A87B9B001400
(1426616857.116368) can0 475#B113184945000000
(1426616857.116648) can0 306#0F00000000000000
(1426616857.117049) can0 294#00009CFFFA000000
(1426616857.155675) can0 477#0700A87B9B001400
(1426616857.216557) can0 475#AF13184945000000
(1426616857.216864) can0 306#0F00000000000000
(1426616857.217111) can0 294#00009CFFFA000000
(1426616857.252673) can0 477#0700A77B9B001400
(1426616857.316528) can0 475#A813184945000000
(1426616857.316845) can0 306#0D00000000000000
(1426616857.317093) can0 294#00009CFFFA000000
(1426616857.349590) can0 477#0700A77B9B001400
(1426616857.416484) can0 475#B313184945000000
(1426616857.416809) can0 306#0D00000000000000
(1426616857.417060) can0 294#00009CFFFA000000
(1426616857.446612) can0 477#0700A77B9B001400
(1426616857.516384) can0 475#AD13184945000000
(1426616857.516722) can0 306#0C00000000000000
(1426616857.516977) can0 294#00009CFFFA000000
(1426616857.543615) can0 477#0700A87B9B001400
(1426616857.616433) can0 475#A913184945000000
(1426616857.616739) can0 306#0C00000000000000
(1426616857.616990) can0 294#00009CFFFA000000
(1426616857.640512) can0 477#0700A87B9B001400
(1426616857.716385) can0 475#B113184945000000
(1426616857.716707) can0 306#0C00000000000000
(1426616857.716963) can0 294#00009CFFFA000000
(1426616857.737471) can0 477#0700A87B9B001400
(1426616857.816423) can0 475#B313184945000000
(1426616857.816737) can0 306#0D00000000000000
(1426616857.817011) can0 294#00009CFFFA000000
(1426616857.834406) can0 477#0700A77B9B001400
(1426616857.916605) can0 475#A213184945000000
(1426616857.916902) can0 306#0D00000000000000
(1426616857.917157) can0 294#00009CFFFA000000
(1426616857.931410) can0 477#0700A87B9B001400
(1426616858.016519) can0 475#A913184945000000
(1426616858.016884) can0 306#0E00000000000000
(1426616858.017136) can0 294#00009CFFFA000000
(1426616858.028505) can0 477#0700A87B9B001400
(1426616858.116587) can0 475#A413184945000000
(1426616858.116923) can0 306#0E00000000000000
(1426616858.117173) can0 294#00009CFFFA000000
(1426616858.125666) can0 477#0700A87B9B001400
(1426616858.216528) can0 475#A813184945000000
(1426616858.216816) can0 306#0E00000000000000
(1426616858.217063) can0 294#00009CFFFA000000
(1426616858.222295) can0 477#0700A87B9B001400
(1426616858.316535) can0 475#AD13184945000000
(1426616858.316851) can0 306#0E00000000000000
(1426616858.317100) can0 294#00009CFFFA000000
(1426616858.319273) can0 477#0700A87B9B001400
(1426616858.416489) can0 475#AF13184945000000
(1426616858.416798) can0 477#0700A77B9B001400
(1426616858.417056) can0 306#0E00000000000000
(1426616858.417301) can0 294#00009CFFFA000000
(1426616858.513194) can0 477#0700A77B9B001400
(1426616858.516418) can0 475#AF13184945000000
(1426616858.516816) can0 306#0E00000000000000
(1426616858.517073) can0 294#00009CFFFA000000
(1426616858.611220) can0 477#0700A87B9B001400
(1426616858.616404) can0 475#A213184945000000
(1426616858.616846) can0 306#0E00000000000000
(1426616858.617101) can0 294#00009CFFFA000000
(1426616858.707159) can0 477#0700A77B9B001400
(1426616858.716597) can0 475#AD13184945000000
(1426616858.716893) can0 306#0E00000000000000
(1426616858.717151) can0 294#00009CFFFA000000
(1426616858.804213) can0 477#0700A87B9B001400
(1426616858.816554) can0 475#B113184945000000
(1426616858.816889) can0 306#0E00000000000000
(1426616858.817145) can0 294#00009CFFFA000000
(1426616858.901107) can0 477#0700A77B9B001400
(1426616858.916524) can0 475#B313184945000000
(1426616858.916846) can0 306#0D00000000000000
(1426616858.917095) can0 294#00009CFFFA000000
(1426616858.998132) can0 477#0700A87B9B001400
(1426616859.016467) can0 475#B513184945000000
(1426616859.016760) can0 306#0E00000000000000
(1426616859.017037) can0 294#00009CFFFA000000
(1426616859.094999) can0 477#0700A87B9B001400
(1426616859.116516) can0 475#B113184945000000
(1426616859.116803) can0 306#0E00000000000000
(1426616859.117054) can0 294#00009CFFFA000000
(1426616859.193319) can0 477#0700A77B9B001400
(1426616859.216477) can0 475#A813184945000000
(1426616859.216766) can0 306#0F00000000000000
(1426616859.217016) can0 294#00009CFFFA000000
(1426616859.288987) can0 477#0700A87B9B001400
(1426616859.316614) can0 475#B113184945000000
(1426616859.316927) can0 306#0F00000000000000
(1426616859.317178) can0 294#00009CFFFA000000
(1426616859.385949) can0 477#0700A87B9B001400
(1426616859.416533) can0 475#B113184945000000
(1426616859.416921) can0 306#0F00000000000000
(1426616859.417184) can0 294#00009CFFFA000000
(1426616859.482947) can0 477#0700A87B9B001400
(1426616859.516757) can0 475#A913184945000000
(1426616859.517088) can0 306#1000000000000000
(1426616859.517343) can0 294#00009CFFFA000000
(1426616859.579873) can0 477#0700A87B9B001400
(1426616859.616802) can0 475#AF13184945000000
(1426616859.617092) can0 306#0F00000000000000
(1426616859.617335) can0 294#00009CFFFA000000
(1426616859.676857) can0 477#0700A87B9B001400
(1426616859.716770) can0 475#A813184945000000
(1426616859.717050) can0 306#1000000000000000
(1426616859.717302) can0 294#00009CFFFA000000
(1426616859.773797) can0 477#0700A87B9B001400
(1426616859.816562) can0 475#AB13184945000000
(1426616859.816951) can0 306#1000000000000000
(1426616859.817213) can0 294#00009CFFFA000000
(1426616859.870808) can0 477#0700A87B9B001400
(1426616859.916503) can0 475#AF13184945000000
(1426616859.916965) can0 306#1000000000000000
(1426616859.917217) can0 294#00009CFFFA000000
(1426616859.967953) can0 477#0700A77B9B001400
(1426616860.016622) can0 475#B513184945000000
(1426616860.016969) can0 306#1000000000000000
(1426616860.017226) can0 294#00009CFFFA000000
(1426616860.064770) can0 477#0700A87B9B001400
(1426616860.116478) can0 475#B513184945000000
(1426616860.116851) can0 306#1100000000000000
(1426616860.117119) can0 294#00009CFFFA000000
(1426616860.161707) can0 477#0700A87B9B001400
(1426616860.216407) can0 475#B713184945000000
(1426616860.216823) can0 306#1200000000000000
(1426616860.217096) can0 294#00009CFFFA000000
(1426616860.258667) can0 477#0700A87B9B001400
(1426616860.316610) can0 475#AD13184945000000
(1426616860.316907) can0 306#1100000000000000
(1426616860.317158) can0 294#00009CFFFA000000
(1426616860.355620) can0 477#0700A77B9B001400
(1426616860.416562) can0 475#AB13184945000000
(1426616860.416882) can0 306#1100000000000000
(1426616860.417134) can0 294#00009CFFFA000000
(1426616860.452632) can0 477#0700A77B9B001400
(1426616860.516517) can0 475#AB13184945000000
(1426616860.516816) can0 306#1000000000000000
(1426616860.517060) can0 294#00009CFFFA000000
(1426616860.549556) can0 477#0700A87B9B001400
(1426616860.616308) can0 475#AB13184945000000
(1426616860.616720) can0 306#1000000000000000
(1426616860.616995) can0 294#00009CFFFA000000
(1426616860.646569) can0 477#0700A77B9B001400
(1426616860.716510) can0 475#A213184945000000
(1426616860.716816) can0 306#1000000000000000
(1426616860.717085) can0 294#00009CFFFA000000
(1426616860.743475) can0 477#0700A87B9B001400
(1426616860.816266) can0 475#AD13184945000000
(1426616860.816645) can0 306#1000000000000000
(1426616860.816903) can0 294#00009CFFFA000000
(1426616860.840474) can0 477#0700A87B9B001400
(1426616860.916468) can0 475#A413184945000000
(1426616860.916852) can0 306#0F00000000000000
(1426616860.917114) can0 294#00009CFFFA000000
(1426616860.937468) can0 477#0700A87B9B001400
(1426616861.016563) can0 475#B513184945000000
(1426616861.016909) can0 306#0F00000000000000
(1426616861.017161) can0 294#00009CFFFA000000
(1426616861.034422) can0 477#0700A87B9B001400
(1426616861.116565) can0 475#B313184945000000
(1426616861.116916) can0 306#0F00000000000000
(1426616861.117162) can0 294#00009CFFFA000000
(1426616861.131351) can0 477#0700A77B9B001400
(1426616861.216576) can0 475#AF13184945000000
(1426616861.216896) can0 306#0F00000000000000
(1426616861.217167) can0 294#00009CFFFA000000
(1426616861.228330) can0 477#0700A87B9B001400
(1426616861.316568) can0 475#B113184945000000
(1426616861.317012) can0 306#0F00000000000000
(1426616861.317282) can0 294#00009CFFFA000000
(1426616861.325328) can0 477#0700A87B9B001400
(1426616861.416454) can0 475#AF13184945000000
(1426616861.416774) can0 306#1000000000000000
(1426616861.417038) can0 294#00009CFFFA000000
(1426616861.422309) can0 477#0700A77B9B001400
(1426616861.516492) can0 475#A913184945000000
(1426616861.516844) can0 306#1000000000000000
(1426616861.517098) can0 294#00009CFFFA000000
(1426616861.519202) can0 477#0700A77B9B001400
(1426616861.616220) can0 477#0700A77B9B001400
(1426616861.616506) can0 475#AF13184945000000
(1426616861.616892) can0 306#1000000000000000
(1426616861.617303) can0 294#00009CFFFA000000
(1426616861.713224) can0 477#0700A67B9B001400
(1426616861.716469) can0 475#B113184945000000
(1426616861.716864) can0 306#1000000000000000
(1426616861.717127) can0 294#00009CFFFA000000
(1426616861.810148) can0 477#0700A77B9B001400
(1426616861.819086) can0 475#AB13184945000000
(1426616861.908363) can0 477#0700A87B9B001400
(1426616861.916876) can0 475#AF13184945000000
(1426616861.917194) can0 306#0E00000000000000
(1426616861.917474) can0 294#00009CFFFA000000
(1426616862.004499) can0 477#0700A87B9B001400
(1426616862.016525) can0 475#B313184945000000
(1426616862.016817) can0 306#0E00000000000000
(1426616862.017079) can0 294#00009CFFFA000000
(1426616862.101099) can0 477#0700A77B9B001400
(1426616862.116574) can0 475#B113184945000000
(1426616862.116860) can0 306#0E00000000000000
(1426616862.117103) can0 294#00009CFFFA000000
(1426616862.198016) can0 477#0700A87B9B001400
(1426616862.216524) can0 475#AF13184945000000
(1426616862.216822) can0 306#0E00000000000000
(1426616862.217087) can0 294#00009CFFFA000000
(1426616862.295923) can0 477#0700A77B9B001400
(1426616862.316662) can0 475#AD13184945000000
(1426616862.316978) can0 306#0E00000000000000
(1426616862.317230) can0 294#00009CFFFA000000
(1426616862.391966) can0 477#0700A87B9B001400
(1426616862.416433) can0 475#AF13184945000000
(1426616862.416779) can0 306#0F00000000000000
(1426616862.417035) can0 294#00009CFFFA000000
(1426616862.488985) can0 477#0700A87B9B001400
(1426616862.516625) can0 475#A913184945000000
(1426616862.516944) can0 306#0F00000000000000
(1426616862.517190) can0 294#00009CFFFA000000
(1426616862.585963) can0 477#0700A77B9B001400
(1426616862.616669) can0 475#AD13184945000000
(1426616862.617257) can0 306#1000000000000000
(1426616862.617474) can0 294#00009CFFFA000000
(1426616862.682887) can0 477#0700A77B9B001400
(1426616862.716648) can0 475#A913184945000000
(1426616862.716922) can0 306#1000000000000000
(1426616862.717318) can0 294#00009CFFFA000000
(1426616862.779844) can0 477#0700A77B9B001400
(1426616862.816613) can0 475#A913184945000000
(1426616862.817036) can0 306#1000000000000000
(1426616862.817333) can0 294#00009CFFFA000000
(1426616862.876841) can0 477#0700A77B9B001400
(1426616862.916582) can0 475#AF13184945000000
(1426616862.917037) can0 306#1000000000000000
(1426616862.917289) can0 294#00009CFFFA000000
(1426616862.973785) can0 477#0700A77B9B001400
(1426616863.016511) can0 475#AD13184945000000
(1426616863.016959) can0 306#1000000000000000
(1426616863.017219) can0 294#00009CFFFA000000
(1426616863.070807) can0 477#0700A77B9B001400
(1426616863.116540) can0 475#B313184945000000
(1426616863.116916) can0 306#1000000000000000
(1426616863.117195) can0 294#00009CFFFA000000
(1426616863.167717) can0 477#0700A77B9B001400
(1426616863.216500) can0 475#AB13184945000000
(1426616863.216774) can0 306#1000000000000000
(1426616863.217165) can0 294#00009CFFFA000000
(1426616863.264659) can0 477#0700A77B9B001400
(1426616863.316596) can0 475#B313184945000000
(1426616863.316902) can0 306#1100000000000000
(1426616863.317148) can0 294#00009CFFFA000000
(1426616863.361634) can0 477#0700A77B9B001400
(1426616863.416452) can0 475#A613184945000000
(1426616863.416844) can0 306#1000000000000000
(1426616863.417113) can0 294#00009CFFFA000000
(1426616863.458631) can0 477#0700A77B9B001400
(1426616863.516413) can0 475#AB13184945000000
(1426616863.516798) can0 306#1000000000000000
(1426616863.517339) can0 294#00009CFFFA000000
(1426616863.555613) can0 477#0700A77B9B001400
(1426616863.616572) can0 475#A813184945000000
(1426616863.616846) can0 306#1100000000000000
(1426616863.617092) can0 294#00009CFFFA000000
(1426616863.652573) can0 477#0700A77B9B001400
(1426616863.716355) can0 475#AD13184945000000
(1426616863.716732) can0 306#1100000000000000
(1426616863.717013) can0 294#00009CFFFA000000
(1426616863.749527) can0 477#0700A77B9B001400
(1426616863.816547) can0 475#AD13184945000000
(1426616863.816829) can0 306#1100000000000000
(1426616863.817073) can0 294#00009CFFFA000000
(1426616863.846683) can0 477#0700A77B9B001400
(1426616863.916300) can0 475#B513184945000000
(1426616863.916591) can0 306#1100000000000000
(1426616863.916978) can0 294#00009CFFFA000000
(1426616863.943482) can0 477#0700A87B9B001400
(1426616864.016482) can0 475#AF13184945000000
(1426616864.016820) can0 306#1100000000000000
(1426616864.017073) can0 294#00009CFFFA000000
(1426616864.040416) can0 477#0700A77B9B001400
(1426616864.116438) can0 475#B313184945000000
(1426616864.116905) can0 306#1100000000000000
(1426616864.117193) can0 294#00009CFFFA000000
(1426616864.137403) can0 477#0700A87B9B001400
(1426616864.216652) can0 475#B513184945000000
(1426616864.216953) can0 306#1000000000000000
(1426616864.217197) can0 294#00009CFFFA000000
(1426616864.234391) can0 477#0700A77B9B001400
(1426616864.316674) can0 475#AF13184945000000
(1426616864.316992) can0 306#1100000000000000
(1426616864.317240) can0 294#00009CFFFA000000
(1426616864.331314) can0 477#0700A77B9B001400
(1426616864.416595) can0 475#AF13184945000000
(1426616864.416893) can0 306#1100000000000000
(1426616864.417138) can0 294#00009CFFFA000000
(1426616864.428324) can0 477#0700A77B9B001400
(1426616864.516476) can0 475#B313184945000000
(1426616864.516789) can0 306#0F00000000000000
(1426616864.517049) can0 294#00009CFFFA000000
(1426616864.525266) can0 477#0700A87B9B001400
(1426616864.616606) can0 475#AF13184945000000
(1426616864.616884) can0 306#0F00000000000000
(1426616864.617134) can0 294#00009CFFFA000000
(1426616864.622244) can0 477#0700A97B9B001400
(1426616864.716480) can0 475#AD13184945000000
(1426616864.716799) can0 306#0F00000000000000
(1426616864.717048) can0 294#00009CFFFA000000
(1426616864.719886) can0 477#0700A67B9B001400
(1426616864.816244) can0 477#0700A77B9B001400
(1426616864.816885) can0 475#B713184945000000
(1426616864.817190) can0 306#0F00000000000000
(1426616864.817457) can0 294#00009CFFFA000000
(1426616864.913137) can0 477#0700A77B9B001400
(1426616864.916946) can0 475#A913184945000000
(1426616864.917239) can0 306#0F00000000000000
(1426616864.917501) can0 294#00009CFFFA000000
(1426616865.010116) can0 477#0700A67B9B001400
(1426616865.016894) can0 475#A613184945000000
(1426616865.017198) can0 306#1000000000000000
(1426616865.017461) can0 294#00009CFFFA000000
(1426616865.107097) can0 477#0700A77B9B001400
(1426616865.116911) can0 475#A913184945000000
(1426616865.117196) can0 306#1000000000000000
(1426616865.117454) can0 294#00009CFFFA000000
(1426616865.204155) can0 477#0700A87B9B001400
(1426616865.216863) can0 475#B113184945000000
(1426616865.217153) can0 306#0F00000000000000
(1426616865.217411) can0 294#00009CFFFA000000
(1426616865.301864) can0 477#0700A87B9B001400
(1426616865.316811) can0 475#AB13184945000000
(1426616865.317111) can0 306#0F00000000000000
(1426616865.317362) can0 294#00009CFFFA000000
(1426616865.397981) can0 477#0700A67B9B001400
(1426616865.416802) can0 475#A913184945000000
(1426616865.417114) can0 306#0F00000000000000
(1426616865.417387) can0 294#00009CFFFA000000
(1426616865.494988) can0 477#0700A77B9B001400
(1426616865.516727) can0 475#B113184945000000
(1426616865.517067) can0 306#0F00000000000000
(1426616865.517316) can0 294#00009CFFFA000000
(1426616865.592644) can0 477#0700A87B9B001400
(1426616865.616742) can0 475#B313184945000000
(1426616865.617022) can0 306#0F00000000000000
(1426616865.617416) can0 294#00009CFFFA000000
(1426616865.688934) can0 477#0700A77B9B001400
(1426616865.706709) can0 475#A813184945000000
(1426616865.707166) can0 306#0E00000000000000
(1426616865.707453) can0 294#00009CFFFA000000
(1426616865.786036) can0 477#0700A77B9B001400
(1426616865.806885) can0 475#A813184945000000
(1426616865.807179) can0 306#0E00000000000000
(1426616865.807427) can0 294#00009CFFFA000000
(1426616865.882863) can0 477#0700A67B9B001400
(1426616865.906675) can0 475#A913184945000000
(1426616865.907056) can0 306#0E00000000000000
(1426616865.907333) can0 294#00009CFFFA000000
(1426616865.979804) can0 477#0700A77B9B001400
(1426616866.006610) can0 475#A813184945000000
(1426616866.007078) can0 306#0E00000000000000
(1426616866.007337) can0 294#00009CFFFA000000
(1426616866.076831) can0 477#0700A77B9B001400
(1426616866.106568) can0 475#A913184945000000
(1426616866.106995) can0 306#0E00000000000000
(1426616866.107448) can0 294#00009CFFFA000000
(1426616866.173763) can0 477#0700A67B9B001400
(1426616866.206620) can0 475#A913184945000000
(1426616866.206998) can0 306#0D00000000000000
(1426616866.207267) can0 294#00009CFFFA000000
(1426616866.270738) can0 477#0700A77B9B001400
(1426616866.306564) can0 475#B313184945000000
(1426616866.306873) can0 306#0E00000000000000
(1426616866.307127) can0 294#00009CFFFA000000
(1426616866.367713) can0 477#0700A77B9B001400
(1426616866.406475) can0 475#AD13184945000000
(1426616866.406939) can0 306#0D00000000000000
(1426616866.407195) can0 294#00009CFFFA000000
(1426616866.464669) can0 477#0700A67B9B001400
(1426616866.506691) can0 475#AF13184945000000
(1426616866.506992) can0 306#0E00000000000000
(1426616866.507240) can0 294#00009CFFFA000000
(1426616866.561623) can0 477#0700A87B9B001400
(1426616866.606425) can0 475#AD13184945000000
(1426616866.606875) can0 306#0E00000000000000
(1426616866.607159) can0 294#00009CFFFA000000
(1426616866.658587) can0 477#0700A77B9B001400
(1426616866.706600) can0 475#A913184945000000
(1426616866.706903) can0 306#0F00000000000000
(1426616866.707145) can0 294#00009CFFFA000000
(1426616866.755557) can0 477#0700A67B9B001400
(1426616866.806439) can0 475#AF13184945000000
(1426616866.806829) can0 306#0F00000000000000
(1426616866.807089) can0 294#00009CFFFA000000
(1426616866.852546) can0 477#0700A67B9B001400
(1426616866.906547) can0 475#AD13184945000000
(1426616866.906874) can0 306#0F00000000000000
(1426616866.907121) can0 294#00009CFFFA000000
(1426616866.949520) can0 477#0700A77B9B001400
(1426616867.006307) can0 475#AD13184945000000
(1426616867.006756) can0 306#0F00000000000000
(1426616867.007019) can0 294#00009CFFFA000000
(1426616867.046509) can0 477#0700A77B9B001400
(1426616867.106459) can0 475#AB13184945000000
(1426616867.106821) can0 306#0F00000000000000
(1426616867.107072) can0 294#00009CFFFA000000
(1426616867.143450) can0 477#0700A77B9B001400
(1426616867.206488) can0 475#A813184945000000
(1426616867.206793) can0 306#1000000000000000
(1426616867.207058) can0 294#00009CFFFA000000
(1426616867.240520) can0 477#0700A67B9B001400
(1426616867.306641) can0 475#AD13184945000000
(1426616867.306967) can0 306#1000000000000000
(1426616867.307217) can0 294#00009CFFFA000000
(1426616867.337402) can0 477#0700A77B9B001400
(1426616867.406660) can0 475#AB13184945000000
(1426616867.406955) can0 306#1000000000000000
(1426616867.407201) can0 294#00009CFFFA000000
(1426616867.434367) can0 477#0700A67B9B001400
(1426616867.506568) can0 475#AD13184945000000
(1426616867.506959) can0 306#0F00000000000000
(1426616867.507215) can0 294#00009CFFFA000000
(1426616867.531344) can0 477#0700A77B9B001400
(1426616867.606635) can0 475#AF13184945000000
(1426616867.606912) can0 306#1000000000000000
(1426616867.607158) can0 294#00009CFFFA000000
(1426616867.628276) can0 477#0700A77B9B001400
(1426616867.706574) can0 475#A913184945000000
(1426616867.706873) can0 306#0F00000000000000
(1426616867.707120) can0 294#00009CFFFA000000
(1426616867.725934) can0 477#0700A67B9B001400
(1426616867.806522) can0 475#A613184945000000
(1426616867.806819) can0 306#0F00000000000000
(1426616867.807066) can0 294#00009CFFFA000000
(1426616867.822215) can0 477#0700A77B9B001400
(1426616867.906512) can0 475#A813184945000000
(1426616867.906828) can0 306#0E00000000000000
(1426616867.907076) can0 294#00009CFFFA000000
(1426616867.919206) can0 477#0700A77B9B001400
(1426616868.006488) can0 475#A813184945000000
(1426616868.006803) can0 306#0E00000000000000
(1426616868.007084) can0 294#00009CFFFA000000
(1426616868.016273) can0 477#0700A77B9B001400
(1426616868.106668) can0 475#B113184945000000
(1426616868.106979) can0 306#0E00000000000000
(1426616868.107253) can0 294#00009CFFFA000000
(1426616868.113124) can0 477#0700A77B9B001400
(1426616868.206669) can0 475#AD13184945000000
(1426616868.206977) can0 306#0D00000000000000
(1426616868.207225) can0 294#00009CFFFA000000
(1426616868.210105) can0 477#0700A77B9B001400
(1426616868.306594) can0 475#AD13184945000000
(1426616868.306909) can0 306#0E00000000000000
(1426616868.307162) can0 294#00009CFFFA000000
(1426616868.307803) can0 477#0700A67B9B001400
(1426616868.404159) can0 477#0700A77B9B001400
(1426616868.406795) can0 475#AB13184945000000
(1426616868.407084) can0 306#0D00000000000000
(1426616868.407343) can0 294#00009CFFFA000000
(1426616868.501015) can0 477#0700A77B9B001400
(1426616868.506579) can0 475#AD13184945000000
(1426616868.506894) can0 306#0D00000000000000
(1426616868.507181) can0 294#00009CFFFA000000
(1426616868.598351) can0 477#0700A87B9B001400
(1426616868.606523) can0 475#A813184945000000
(1426616868.606828) can0 306#0E00000000000000
(1426616868.607089) can0 294#00009CFFFA000000
(1426616868.696492) can0 477#0700A77B9B001400
(1426616868.706723) can0 475#AD13184945000000
(1426616868.707031) can0 306#0D00000000000000
(1426616868.707290) can0 294#00009CFFFA000000
(1426616868.791887) can0 477#0700A77B9B001400
(1426616868.806734) can0 475#A913184945000000
(1426616868.807021) can0 306#0E00000000000000
