(1426617793.873698) can0 477#6700557A99001400
(1426617793.877286) can0 475#75131F0000021100
(1426617793.877588) can0 306#1200CF0088020000
(1426617793.877819) can0 294#92029CFFFA00B300
(1426617793.878029) can0 270#911324010000F907
(1426617793.970489) can0 477#5A00587A99001400
(1426617793.977218) can0 475#7B131F0000021100
(1426617793.977610) can0 306#1300CF0088020000
(1426617793.977780) can0 294#D7029CFFFA00A700
(1426617793.977991) can0 270#9213420100000108
(1426617794.068382) can0 477#54005C7A99001400
(1426617794.077225) can0 475#7D131F0000021100
(1426617794.077409) can0 306#1300CF0088020000
(1426617794.077616) can0 294#6C029CFFFA009B00
(1426617794.077928) can0 270#941313010000E907
(1426617794.165556) can0 477#4800647A99001400
(1426617794.177235) can0 475#6E131F0000020D00
(1426617794.177590) can0 306#1300CF0088020000
(1426617794.177836) can0 294#E4019CFFFA008E00
(1426617794.178068) can0 270#9413D7000000E707
(1426617794.261365) can0 477#45006A7A99001400
(1426617794.277103) can0 475#81131F0000020C00
(1426617794.277513) can0 306#1200CF0089020000
(1426617794.277765) can0 294#01029CFFFA007C00
(1426617794.278043) can0 270#9513E4000000FE07
(1426617794.359641) can0 477#3F006D7A99001400
(1426617794.377138) can0 475#87131F0000020B00
(1426617794.377451) can0 306#1100CE0086020000
(1426617794.377894) can0 294#8F019CFFFA007200
(1426617794.378249) can0 270#9613B1000000C607
(1426617794.455318) can0 477#3E006F7A99001400
(1426617794.477100) can0 475#7B131F0000020C00
(1426617794.477378) can0 306#1100CD0083020000
(1426617794.477766) can0 294#01029CFFFA006C00
(1426617794.478015) can0 270#9613E4000000AF07
(1426617794.552301) can0 477#3C00727A99001400
(1426617794.577287) can0 475#85131F0000020C00
(1426617794.577637) can0 306#1200CD0080020000
(1426617794.577898) can0 294#B2019CFFFA006700
(1426617794.578093) can0 270#9713C0000000B207
(1426617794.649309) can0 477#3F00737A99001400
(1426617794.677053) can0 475#7B131F0000020C00
(1426617794.677457) can0 306#1200CB007C020000
(1426617794.677707) can0 294#C3019CFFFA006700
(1426617794.677952) can0 270#9713C8000000B107
(1426617794.746278) can0 477#4300727A99001400
(1426617794.777191) can0 475#77131F0000020E00
(1426617794.777549) can0 306#1200CC007F020000
(1426617794.777812) can0 270#971305010000AD07
(1426617794.778005) can0 294#4D029CFFFA006F00
(1426617794.843206) can0 477#4900707A99001400
(1426617794.877177) can0 475#7B131F0000020F00
(1426617794.877474) can0 306#1200D1008F020000
(1426617794.877726) can0 294#46029CFFFA007600
(1426617794.877970) can0 270#9613020100001008
(1426617794.940319) can0 477#4D006D7A99001400
(1426617794.977134) can0 475#87131F0000021000
(1426617794.977502) can0 306#1300D6009F020000
(1426617794.977813) can0 294#AE029CFFFA007F00
(1426617794.978064) can0 270#9613300100006408
(1426617795.037125) can0 477#5C006A7A99001400
(1426617795.077167) can0 475#7B131F0000021000
(1426617795.077464) can0 306#1300DC00B0020000
(1426617795.077826) can0 294#2C029CFFFA008C00
(1426617795.078108) can0 270#9613F70000007008
(1426617795.134090) can0 477#6800637A99001400
(1426617795.177319) can0 475#74131F0000021800
(1426617795.177687) can0 306#1300DE00B8020000
(1426617795.177942) can0 270#9513C90100006F08
(1426617795.178141) can0 294#83039CFFFA00A300
(1426617795.231090) can0 477#C500547A99001400
(1426617795.277112) can0 475#77131F0000022600
(1426617795.277532) can0 306#1300DA00AB020000
(1426617795.277786) can0 294#94059CFFFA000301
(1426617795.278028) can0 270#9213430200007008
(1426617795.328089) can0 477#D300257A99001400
(1426617795.377096) can0 475#77131F0000022A00
(1426617795.377510) can0 306#1300DD00B2020000
(1426617795.377804) can0 294#3F069CFFFA004101
(1426617795.378049) can0 270#9213CE020000A808
(1426617795.425000) can0 477#FB00127A99001400
(1426617795.477040) can0 475#64131F0000023200
(1426617795.477313) can0 306#1300DE00B7020000
(1426617795.477701) can0 294#00079CFFFA008001
(1426617795.477953) can0 270#89134E030000A508
(1426617795.521969) can0 477#2401FD7999001400
(1426617795.577009) can0 475#62131E0000023800
(1426617795.577384) can0 306#1200DF00BA020000
(1426617795.577736) can0 294#C4079CFFFA00CA01
(1426617795.578089) can0 270#8213BA030000F108
(1426617795.618954) can0 477#4001D57999001400
(1426617795.677237) can0 475#64131E0000023D00
(1426617795.677537) can0 306#1200E200C4020000
(1426617795.677788) can0 294#88089CFFFA000902
(1426617795.677990) can0 270#8213CA0300001709
(1426617795.715924) can0 477#6F01C47999001400
(1426617795.777208) can0 475#5E131E0000024200
(1426617795.777658) can0 306#1200E500CD020000
(1426617795.777916) can0 294#75099CFFFA004E02
(1426617795.778163) can0 270#7D13450400005F09
(1426617795.812910) can0 477#9501AD7999001400
(1426617795.877143) can0 475#55131E0000024900
(1426617795.877612) can0 306#1200E800D6020000
(1426617795.877869) can0 294#330A9CFFFA009002
(1426617795.878114) can0 270#7613BC0400003709
(1426617795.909845) can0 477#C0018D7999001400
(1426617795.977543) can0 475#59131E0000025000
(1426617795.977880) can0 306#1200EC00E1020000
(1426617795.978121) can0 294#200B9CFFFA00D202
(1426617795.978372) can0 270#7613260500007209
(1426617796.006835) can0 477#DE01777999001400
(1426617796.077527) can0 475#53131E0000025400
(1426617796.077852) can0 306#1200F000EE020000
(1426617796.078100) can0 294#500C9CFFFA001403
(1426617796.078349) can0 270#70134E050000D009
(1426617796.103786) can0 477#04025B7999001400
(1426617796.177494) can0 475#55131F0000025A00
(1426617796.177890) can0 306#1200F300F9020000
(1426617796.178102) can0 294#EC0C9CFFFA005C03
(1426617796.178344) can0 270#69139B050000090A
(1426617796.200778) can0 477#3402437999001400
(1426617796.277460) can0 475#45131F0000026100
(1426617796.277763) can0 306#1200F70005030000
(1426617796.278010) can0 294#820D9CFFFA00A703
(1426617796.278256) can0 270#691311060000040A
(1426617796.297788) can0 477#6302277999001400
(1426617796.377436) can0 475#3A131F0000026600
(1426617796.377837) can0 306#1200FB0012030000
(1426617796.378049) can0 294#700E9CFFFA00F103
(1426617796.378301) can0 270#6213500600005F0A
(1426617796.394695) can0 477#8A02047999001400
(1426617796.477391) can0 475#32131F0000026700
(1426617796.477718) can0 306#1200010124030000
(1426617796.477968) can0 294#D40E9CFFFA003604
(1426617796.478219) can0 270#5A1396060000950A
(1426617796.491653) can0 477#A402E77899001400
(1426617796.577437) can0 475#2C131F0000026D00
(1426617796.577845) can0 306#1200060135030000
(1426617796.578101) can0 294#620F9CFFFA007904
(1426617796.578350) can0 270#5A13D5060000E00A
(1426617796.588632) can0 477#D802D57899001400
(1426617796.677833) can0 475#34131F0000027300
(1426617796.678305) can0 294#02109CFFFA00C104
(1426617796.678516) can0 270#55131C0700001A0B
(1426617796.685653) can0 477#F002B07899001400
(1426617796.777403) can0 475#2C131F0000027400
(1426617796.777777) can0 306#120012015A030000
(1426617796.778181) can0 294#66109CFFFA000605
(1426617796.778390) can0 270#4D13490700003B0B
(1426617796.782568) can0 477#0E03957899001400
(1426617796.877359) can0 475#27131F0000027600
(1426617796.877757) can0 306#120019016F030000
(1426617796.878009) can0 294#BC109CFFFA004505
(1426617796.878255) can0 270#4D136F070000F90B
(1426617796.880115) can0 477#3103797899001400
(1426617796.976512) can0 477#5403657899001400
(1426617796.977285) can0 475#27131F0000027900
(1426617796.977775) can0 306#1200200185030000
(1426617796.978036) can0 294#26119CFFFA008205
(1426617796.978280) can0 270#46139E070000CE0B
(1426617797.073539) can0 477#7F034B7899001400
(1426617797.077302) can0 475#27131F0000027B00
(1426617797.077574) can0 306#120027019C030000
(1426617797.077933) can0 294#97119CFFFA00BD05
(1426617797.078180) can0 270#3F13D0070000B70C
(1426617797.170479) can0 477#A203327899001400
(1426617797.177281) can0 475#19131F0000027C00
(1426617797.177774) can0 306#12002E01B0030000
(1426617797.178043) can0 294#FB119CFFFA000006
(1426617797.178289) can0 270#3F13FD070000BF0C
(1426617797.268513) can0 477#C903157899001400
(1426617797.277241) can0 475#1F131F0000027E00
(1426617797.277697) can0 306#12003501C7030000
(1426617797.277954) can0 294#20129CFFFA004006
(1426617797.278227) can0 270#3B130D0800000C0D
(1426617797.365370) can0 477#EA03ED7799001400
(1426617797.377205) can0 475#0D131F0000028400
(1426617797.377478) can0 306#12003D01DE030000
(1426617797.377908) can0 294#56129CFFFA007E06
(1426617797.378566) can0 270#311325080000BD0C
(1426617797.461376) can0 477#1C04D37799001400
(1426617797.477359) can0 475#0C131F0000028500
(1426617797.477654) can0 306#12004401F6030000
(1426617797.477946) can0 294#70129CFFFA00BB06
(1426617797.478200) can0 270#3113300800003E0D
(1426617797.558666) can0 477#3A04BC7799001400
(1426617797.577171) can0 475#04131F0000028400
(1426617797.577588) can0 306#12004A0109040000
(1426617797.577936) can0 294#35139CFFFA00FD06
(1426617797.578142) can0 270#2C1388080000CF0D
(1426617797.655290) can0 477#74048C7799001400
(1426617797.677104) can0 475#FA121F0000028900
(1426617797.677556) can0 306#120051011D040000
(1426617797.677809) can0 294#8F139CFFFA004907
(1426617797.678052) can0 270#2413B0080000C80D
(1426617797.752283) can0 477#A004757799001400
(1426617797.777276) can0 475#EB121F0000028D00
(1426617797.777607) can0 306#1200570131040000
(1426617797.777952) can0 270#2413D90800001E0E
(1426617797.778160) can0 294#EC139CFFFA009607
(1426617797.849269) can0 477#AE04577799001400
(1426617797.877085) can0 475#F3121F0000028800
(1426617797.877464) can0 306#110060014D040000
(1426617797.877735) can0 294#AC139CFFFA00D007
(1426617797.877989) can0 270#1C13BD080000A80E
(1426617797.946208) can0 477#E104457799001400
(1426617797.977000) can0 475#ED121F0000029000
(1426617797.977441) can0 306#1000690169040000
(1426617797.977729) can0 294#76139CFFFA000508
(1426617797.978133) can0 270#1513A50800007A0E
(1426617798.043178) can0 477#0405387799001400
(1426617798.077215) can0 475#E312200000028D00
(1426617798.077515) can0 306#100070017F040000
(1426617798.077877) can0 294#28149CFFFA003608
(1426617798.078122) can0 270#1513F4080000B80F
(1426617798.140174) can0 477#2F05097799001400
(1426617798.177243) can0 475#ED12200000028F00
(1426617798.177553) can0 306#1000780196040000
(1426617798.177890) can0 294#45149CFFFA007D08
(1426617798.178149) can0 270#101301090000840F
(1426617798.237086) can0 477#4205F37699001400
(1426617798.277192) can0 475#DF12200000028C00
(1426617798.277584) can0 306#10008001B1040000
(1426617798.277834) can0 294#82149CFFFA00A708
(1426617798.278075) can0 270#08131C090000ED0F
(1426617798.334110) can0 477#6C05DF7699001400
(1426617798.377345) can0 475#D912200000029100
(1426617798.377640) can0 306#10008801C9040000
(1426617798.377980) can0 294#4A149CFFFA00E408
(1426617798.378231) can0 270#0813030900008110
(1426617798.431070) can0 477#A105BC7699001400
(1426617798.477143) can0 475#D612200000028E00
(1426617798.477557) can0 306#0F008F01DE040000
(1426617798.477813) can0 294#66149CFFFA002C09
(1426617798.478060) can0 270#02130F090000C110
(1426617798.527962) can0 477#B905A57699001400
(1426617798.577118) can0 475#D412200000029000
(1426617798.577504) can0 306#0F009801FB040000
(1426617798.577789) can0 294#22149CFFFA005E09
(1426617798.578101) can0 270#FB12F10800001D11
(1426617798.624982) can0 477#BC058F7699001400
(1426617798.677267) can0 475#CC12200000028E00
(1426617798.677558) can0 306#0F00A00115050000
(1426617798.677805) can0 294#66149CFFFA008409
(1426617798.678047) can0 270#FB120F09EBFFA411
(1426617798.722016) can0 477#BF057E7699001400
(1426617798.777253) can0 475#D912200000028900
(1426617798.777534) can0 306#0F00A50125050000
(1426617798.777813) can0 294#BD129CFFFA007709
(1426617798.778210) can0 270#F812530800002611
(1426617798.819057) can0 477#C704B37699001400
(1426617798.877272) can0 475#EF12200000026700
(1426617798.877594) can0 306#0E00A7012A050000
(1426617798.877847) can0 294#350E9CFFFA007608
(1426617798.878092) can0 270#FD124F0600001311
(1426617798.915933) can0 477#7B03357799001400
(1426617798.977178) can0 475#1D13200000064800
(1426617798.977616) can0 306#0E00AB0137050000
(1426617798.977939) can0 294#F6089CFFFA00AF06
(1426617798.978299) can0 270#FD12FB030000AC0F
(1426617799.012890) can0 477#D3012F7899001400
(1426617799.077435) can0 475#4F13200000061700
(1426617799.077743) can0 306#0E00AA0133050000
(1426617799.077994) can0 294#E9029CFFFA003F04
(1426617799.078241) can0 270#2C134B010000C30F
(1426617799.109840) can0 477#2200367999001400
(1426617799.177181) can0 475#6C13200000060000
(1426617799.177481) can0 306#0E00A00114050000
(1426617799.178228) can0 294#00009CFFFA00C501
(1426617799.206826) can0 477#FEFFE07999001400
(1426617799.277081) can0 475#7013200000060000
(1426617799.277554) can0 306#0E008D01D8040000
(1426617799.277812) can0 294#00009CFFFA00A500
(1426617799.278054) can0 270#6413000000000B0E
(1426617799.303762) can0 477#F1FFFA7999001400
(1426617799.377129) can0 475#8713210000061E00
(1426617799.377512) can0 306#0E00AD013C050000
(1426617799.377753) can0 294#BEFB9CFFFA00ACFF
(1426617799.378090) can0 270#82131CFE0000030F
(1426617799.400714) can0 477#7EFF937A99001400
(1426617799.477094) can0 475#7413210000060000
(1426617799.477491) can0 306#0E00A00115050000
(1426617799.477735) can0 294#00009CFFFA0091FF
(1426617799.477980) can0 270#9C1300000000800E
(1426617799.497717) can0 477#F6FF1D7A99001400
(1426617799.577262) can0 475#7413200000060400
(1426617799.577555) can0 306#0E009D010C050000
(1426617799.577807) can0 294#5DFF9CFFFA00BBFF
(1426617799.578159) can0 270#9C13B7FF0000220E
(1426617799.594695) can0 477#D0FF2D7A99001400
(1426617799.677489) can0 475#7713210000060000
(1426617799.677791) can0 306#0D009A0100050000
(1426617799.678044) can0 294#71FF9CFFFA00C5FF
(1426617799.678291) can0 270#8813C0FF0000360E
(1426617799.691627) can0 477#D2FF2F7A99001400
(1426617799.767373) can0 475#7913200000060800
(1426617799.767678) can0 306#0D009701F7040000
(1426617799.767937) can0 294#33FF9CFFFA00BBFF
(1426617799.768179) can0 270#8C13A5FF00004C0E
(1426617799.788611) can0 477#BBFF3A7A99001400
(1426617799.867623) can0 475#7513200000060900
(1426617799.867917) can0 306#0C009301EC040000
(1426617799.868159) can0 294#E7FE9CFFFA00A9FF
(1426617799.868397) can0 270#8C1383FF0000520E
(1426617799.885615) can0 477#A4FF487A99001400
(1426617799.967405) can0 475#7B13200000060C00
(1426617799.967707) can0 306#0C009201E7040000
(1426617799.967977) can0 294#65FE9CFFFA007FFF
(1426617799.968233) can0 270#901349FF0000DD0D
(1426617799.982543) can0 477#82FF647A99001400
(1426617800.067379) can0 475#8113200000061100
(1426617800.067687) can0 306#0B009101E4040000
(1426617800.068081) can0 294#9BFD9CFFFA0049FF
(1426617800.068331) can0 270#9513F0FE0000C50D
(1426617800.080019) can0 477#5FFF7A7A99001400
(1426617800.167292) can0 475#8D13200000061100
(1426617800.167745) can0 306#0B008E01DB040000
(1426617800.168004) can0 294#3FFD9CFFFA001DFF
(1426617800.168253) can0 270#9513C6FE00009B0D
(1426617800.176539) can0 477#50FF8B7A99001400
(1426617800.267348) can0 475#8713200000061800
(1426617800.267645) can0 306#0C008A01D1040000
(1426617800.267890) can0 294#EBFC9CFFFA00FDFE
(1426617800.268136) can0 270#9B13A1FE0000B80D
(1426617800.273480) can0 477#3EFF9E7A99001400
(1426617800.367287) can0 475#8B13200000061500
(1426617800.367602) can0 306#0C008601C4040000
(1426617800.367851) can0 294#E1FC9CFFFA00E3FE
(1426617800.368099) can0 270#9F139DFE0000490D
(1426617800.370420) can0 477#2BFFA87A99001400
(1426617800.467426) can0 475#9813200000061800
(1426617800.467755) can0 306#0C008201B8040000
(1426617800.468005) can0 294#6CFC9CFFFA00CBFE
(1426617800.468290) can0 270#9F1369FE0000150D
(1426617800.468538) can0 477#22FFB87A99001400
(1426617800.564508) can0 477#0CFFC77A99001400
(1426617800.567393) can0 475#9213200000061A00
(1426617800.567698) can0 306#0B007F01AD040000
(1426617800.567944) can0 294#40FC9CFFFA00B2FE
(1426617800.568182) can0 270#A21355FE0000FC0C
(1426617800.661606) can0 477#0BFFD27A99001400
(1426617800.667437) can0 475#8B13200000061D00
(1426617800.667723) can0 306#0B007A019E040000
(1426617800.667967) can0 294#21FC9CFFFA00A2FE
(1426617800.668208) can0 270#A51347FE0000FA0C
(1426617800.758669) can0 477#FBFEDA7A99001400
(1426617800.767447) can0 475#9213200000061F00
(1426617800.767826) can0 306#0C00760192040000
(1426617800.768086) can0 294#82FB9CFFFA0094FE
(1426617800.768337) can0 270#A51301FE0000C50C
(1426617800.855255) can0 477#02FFE27A99001400
(1426617800.867350) can0 475#8E13200000061F00
(1426617800.867640) can0 306#0D00710182040000
(1426617800.867925) can0 294#9BFB9CFFFA0089FE
(1426617800.868176) can0 270#A8130CFE0000990C
(1426617800.952246) can0 477#F7FEEE7A99001400
(1426617800.967366) can0 475#9413200000062000
(1426617800.967904) can0 306#0D006D0174040000
(1426617800.968129) can0 294#41FB9CFFFA007DFE
(1426617801.049240) can0 477#F5FEED7A99001400
(1426617801.067297) can0 475#9613200000062100
(1426617801.067604) can0 306#0D00670163040000
(1426617801.067860) can0 294#CFFB9CFFFA007AFE
(1426617801.068104) can0 270#AB1323FE00002B0C
(1426617801.146235) can0 477#E7FEF27A99001400
(1426617801.167342) can0 475#9013200000062400
(1426617801.167626) can0 306#0E00630156040000
(1426617801.167872) can0 294#14FB9CFFFA0072FE
(1426617801.168120) can0 270#AB13D0FD0000250C
(1426617801.243189) can0 477#EAFEFC7A99001400
(1426617801.267251) can0 475#9A13200000062200
(1426617801.267561) can0 306#0E005F0148040000
(1426617801.267832) can0 294#B8FA9CFFFA0068FE
(1426617801.268079) can0 270#AD13A7FD0000B40B
(1426617801.340140) can0 477#E7FE027B99001400
(1426617801.367423) can0 475#9C13200000062500
(1426617801.367704) can0 306#0F005A013A040000
(1426617801.367957) can0 294#75FA9CFFFA0061FE
(1426617801.368201) can0 270#AE1389FD0000BA0B
(1426617801.437112) can0 477#DEFE097B99001400
(1426617801.467448) can0 475#8E13200000062600
(1426617801.467723) can0 306#100055012A040000
(1426617801.467970) can0 294#8AFA9CFFFA0059FE
(1426617801.468213) can0 270#AE1393FD00007B0B
(1426617801.534071) can0 477#D7FE0D7B99001400
(1426617801.567398) can0 475#A213200000062800
(1426617801.567672) can0 306#100050011C040000
(1426617801.568048) can0 294#8AFA9CFFFA0052FE
(1426617801.568295) can0 270#B01393FD00005B0B
(1426617801.631023) can0 477#E0FE157B99001400
(1426617801.667339) can0 475#8E13200000062700
(1426617801.667667) can0 306#10004C010D040000
(1426617801.667911) can0 294#24FA9CFFFA004DFE
(1426617801.668159) can0 270#B11365FD0000020B
(1426617801.728017) can0 477#D5FE187B99001400
(1426617801.767363) can0 475#A213200000062B00
(1426617801.767676) can0 306#10004701FD030000
(1426617801.767923) can0 294#26FA9CFFFA004AFE
(1426617801.768178) can0 270#B11366FD0000330B
(1426617801.824974) can0 477#E1FE1D7B99001400
(1426617801.867304) can0 475#A413200000062900
(1426617801.867765) can0 306#10004101EB030000
(1426617801.868017) can0 294#21FA9CFFFA004EFE
(1426617801.868257) can0 270#B21364FD0000E70A
(1426617801.921944) can0 477#EBFE197B99001400
(1426617801.967285) can0 475#9E13200000062800
(1426617801.967561) can0 306#10003B01D8030000
(1426617801.967812) can0 294#37FA9CFFFA005BFE
(1426617801.968060) can0 270#B1136EFD00006B0A
(1426617802.018907) can0 477#F3FE1C7B99001400
(1426617802.067312) can0 475#9C13200000062500
(1426617802.067638) can0 306#11003401C2030000
(1426617802.067896) can0 294#97FA9CFFFA006BFE
(1426617802.068179) can0 270#B11398FD0000420A
(1426617802.115881) can0 477#06FF0D7B99001400
(1426617802.167263) can0 475#9C13200000062500
(1426617802.167650) can0 306#11002E01AF030000
(1426617802.167896) can0 294#7FFA9CFFFA007FFE
(1426617802.168137) can0 270#B1138EFD0000050A
(1426617802.212854) can0 477#13FF0C7B99001400
(1426617802.267205) can0 475#9613200000062400
(1426617802.267491) can0 306#1100270199030000
(1426617802.267843) can0 294#FCFA9CFFFA0095FE
(1426617802.268099) can0 270#AF13C5FD0000DE09
(1426617802.309806) can0 477#2FFFFF7A99001400
(1426617802.367169) can0 475#8913200000062000
(1426617802.367607) can0 306#11001F0180030000
(1426617802.367860) can0 294#8BFB9CFFFA00B5FE
(1426617802.368114) can0 270#AF1305FE00007509
(1426617802.406773) can0 477#40FFF57A99001400
(1426617802.467189) can0 475#A013200000061F00
(1426617802.467586) can0 306#1100170169030000
(1426617802.467852) can0 294#C5FB9CFFFA00D4FE
(1426617802.468102) can0 270#AC131FFE00005809
(1426617802.503760) can0 477#4BFFEB7A99001400
(1426617802.567304) can0 475#9A13200000061D00
(1426617802.567616) can0 306#1100110156030000
(1426617802.567863) can0 294#E3FB9CFFFA00EBFE
(1426617802.568107) can0 270#AA132CFE00000709
(1426617802.600736) can0 477#5CFFE87A99001400
(1426617802.667250) can0 475#9E13200000061D00
(1426617802.667589) can0 306#11000A0141030000
(1426617802.667838) can0 294#4CFC9CFFFA0000FF
(1426617802.668079) can0 270#AA135BFE0000F708
(1426617802.697843) can0 477#64FFE27A99001400
(1426617802.767368) can0 475#8B13200000061900
(1426617802.767983) can0 306#100004012D030000
(1426617802.768209) can0 294#50FC9CFFFA0015FF
(1426617802.768463) can0 270#A9135DFE00009108
(1426617802.794683) can0 477#78FFDC7A99001400
(1426617802.867374) can0 475#8913200000061800
(1426617802.867714) can0 306#1000FD0017030000
(1426617802.867962) can0 294#DFFC9CFFFA002CFF
(1426617802.868216) can0 270#A7139CFE00006308
(1426617802.891610) can0 477#90FFCF7A99001400
(1426617802.967480) can0 475#8913200000061400
(1426617802.967759) can0 306#0F00F500FF020000
(1426617802.968149) can0 294#07FD9CFFFA0046FF
(1426617802.968404) can0 270#A713AEFE00001608
(1426617802.989845) can0 477#99FFC87A99001400
(1426617803.067462) can0 475#8E13200000061200
(1426617803.067771) can0 306#1000EE00EA020000
(1426617803.068183) can0 294#C9FD9CFFFA005FFF
(1426617803.068541) can0 270#A51304FF0000F307
(1426617803.085567) can0 477#ADFFBF7A99001400
(1426617803.167424) can0 475#8E13200000061000
(1426617803.167775) can0 306#1100E800D5020000
(1426617803.168038) can0 294#11FE9CFFFA0078FF
(1426617803.168318) can0 270#A21324FF0000B907
(1426617803.182537) can0 477#BAFFB17A99001400
(1426617803.267393) can0 475#8B13200000060C00
(1426617803.267694) can0 306#1000E100C0020000
(1426617803.267962) can0 294#60FE9CFFFA008EFF
(1426617803.268213) can0 270#A21347FF00005207
(1426617803.279480) can0 477#CBFFAA7A99001400
(1426617803.367354) can0 475#8713200000060800
(1426617803.367739) can0 306#1000DA00A9020000
(1426617803.368010) can0 294#A7FE9CFFFA00A7FF
(1426617803.368257) can0 270#A01367FF00002B07
(1426617803.376496) can0 477#E3FFA07A99001400
(1426617803.467327) can0 475#8713200000060400
(1426617803.467636) can0 306#1000D20092020000
(1426617803.467910) can0 294#95FF9CFFFA00C0FF
(1426617803.468159) can0 270#9E13D0FF0000F006
(1426617803.473489) can0 477#EBFF967A99001400
(1426617803.567337) can0 475#81131F0000060000
(1426617803.567715) can0 306#1000CC007E020000
(1426617803.568106) can0 294#00009CFFFA00D5FF
(1426617803.568458) can0 270#9E1300000000F006
(1426617803.570722) can0 477#00008E7A99001400
(1426617803.667287) can0 475#8D131F0000060000
(1426617803.667595) can0 306#0F00C6006C020000
(1426617803.667986) can0 294#00009CFFFA00EEFF
(1426617803.668237) can0 270#9B1300000000B506
(1426617803.668666) can0 477#0300817A99001400
(1426617803.764353) can0 477#0200807A99001400
(1426617803.767225) can0 475#85131F0000060000
(1426617803.767668) can0 306#0F00BE0052020000
(1426617803.767944) can0 294#00009CFFFA00F7FF
(1426617803.768190) can0 270#9913000000007C06
(1426617803.861307) can0 477#0200807A99001400
(1426617803.867485) can0 475#75131F0000060000
(1426617803.867768) can0 306#0F00B80040020000
(1426617803.868014) can0 294#00009CFFFA00FBFF
(1426617803.868264) can0 270#9913000000006306
(1426617803.959596) can0 477#0300807A99001400
(1426617803.967437) can0 475#81131F0000060000
(1426617803.967772) can0 306#0E00B30031020000
(1426617803.968027) can0 294#00009CFFFA00FCFF
(1426617803.968276) can0 270#9913000000002C06
(1426617804.055258) can0 477#0300817A99001400
(1426617804.067360) can0 475#7D131F0000060000
(1426617804.067663) can0 306#0E00AB0018020000
(1426617804.067917) can0 294#00009CFFFA00FDFF
(1426617804.068160) can0 270#991300000000DD05
(1426617804.152267) can0 477#0400817A99001400
(1426617804.167153) can0 475#81131F0000060000
(1426617804.167523) can0 306#0E00A7000A020000
(1426617804.167785) can0 294#00009CFFFA00FDFF
(1426617804.168045) can0 270#991300000000B605
(1426617804.249177) can0 477#0600807A99001400
(1426617804.267330) can0 475#87131F0000060000
(1426617804.267616) can0 306#0E00A100F8010000
(1426617804.267864) can0 294#00009CFFFA00FDFF
(1426617804.268104) can0 270#9913000000009105
(1426617804.346152) can0 477#0400807A99001400
(1426617804.367285) can0 475#8D131F0000060000
(1426617804.367644) can0 306#0F009900E0010000
(1426617804.367902) can0 294#00009CFFFA00FDFF
(1426617804.368147) can0 270#9913000000005805
(1426617804.443128) can0 477#0600807A99001400
(1426617804.467289) can0 475#89131F0000060000
(1426617804.467565) can0 306#0F009400D1010000
(1426617804.467915) can0 294#00009CFFFA00FDFF
(1426617804.468185) can0 270#9913000000001C05
(1426617804.540092) can0 477#0500817A99001400
(1426617804.567498) can0 475#87131F0000060000
(1426617804.567820) can0 306#10008E00BE010000
(1426617804.568073) can0 294#00009CFFFA00FEFF
(1426617804.568316) can0 270#991300000000E204
(1426617804.637206) can0 477#0500817A99001400
(1426617804.667427) can0 475#83131F0000060000
(1426617804.667728) can0 306#11008800A9010000
(1426617804.667966) can0 294#00009CFFFA00FDFF
(1426617804.668214) can0 270#991300000000A604
(1426617804.734056) can0 477#0700807A99001400
(1426617804.767431) can0 475#87131F0000060000
(1426617804.767711) can0 306#1100820097010000
(1426617804.767954) can0 294#00009CFFFA00FEFF
(1426617804.768243) can0 270#9913000000008004
(1426617804.830995) can0 477#0600807A99001400
(1426617804.867374) can0 475#81131F0000060000
(1426617804.867670) can0 306#11007B0082010000
(1426617804.867922) can0 294#00009CFFFA00FEFF
(1426617804.868168) can0 270#9913000000000904
(1426617804.927955) can0 477#0700817A99001400
(1426617804.967373) can0 475#81131F0000060000
(1426617804.967691) can0 306#1100760071010000
(1426617804.967939) can0 270#991300000000F503
(1426617804.968145) can0 294#00009CFFFA00FEFF
(1426617805.024955) can0 477#0700807A99001400
(1426617805.067343) can0 475#8D131F0000060000
(1426617805.067637) can0 306#10006F005D010000
(1426617805.067898) can0 294#00009CFFFA00FEFF
(1426617805.068280) can0 270#991300000000D103
(1426617805.121909) can0 477#0600817A99001400
(1426617805.167347) can0 475#8B131F0000060000
(1426617805.167644) can0 306#10006A004D010000
(1426617805.167898) can0 294#00009CFFFA00FEFF
(1426617805.168141) can0 270#9913000000009503
(1426617805.218874) can0 477#0700817A99001400
(1426617805.267285) can0 475#7D131F0000060000
(1426617805.267670) can0 306#1000630038010000
(1426617805.267944) can0 294#00009CFFFA00FEFF
(1426617805.268191) can0 270#9913000000006C03
(1426617805.315821) can0 477#0600817A99001400
(1426617805.367499) can0 475#7F131F0000060000
(1426617805.367796) can0 306#11005E0028010000
(1426617805.368044) can0 294#00009CFFFA00FEFF
(1426617805.368290) can0 270#9913000000001F03
(1426617805.412830) can0 477#0900817A99001400
(1426617805.467455) can0 475#8E131F0000060000
(1426617805.467765) can0 306#1000580014010000
(1426617805.468009) can0 294#00009CFFFA00FEFF
(1426617805.468253) can0 270#991300000000E702
(1426617805.509798) can0 477#0700827A99001400
(1426617805.567426) can0 475#7F131F0000060000
(1426617805.567723) can0 306#1000530006010000
(1426617805.567982) can0 294#00009CFFFA00FEFF
(1426617805.568235) can0 270#991300000000BD02
(1426617805.606758) can0 477#0700827A99001400
(1426617805.667207) can0 475#81131F0000060000
(1426617805.667607) can0 306#10004B00EC000000
(1426617805.667861) can0 294#00009CFFFA00FEFF
(1426617805.668112) can0 270#9913000000007002
(1426617805.703821) can0 477#0900837A99001400
(1426617805.767352) can0 475#79131F0000060000
(1426617805.767664) can0 306#11004800E2000000
(1426617805.767911) can0 294#00009CFFFA00FEFF
(1426617805.768149) can0 270#9A13000000008202
(1426617805.800712) can0 477#0700837A99001400
(1426617805.867346) can0 475#83131F0000060000
(1426617805.867654) can0 306#11004100CD000000
(1426617805.867912) can0 294#00009CFFFA00FFFF
(1426617805.868157) can0 270#9A13000000000F02
(1426617805.897651) can0 477#0800837A99001400
(1426617805.967488) can0 475#81131F0000060000
(1426617805.967787) can0 306#12003900B2000000
(1426617805.968041) can0 294#00009CFFFA00FFFF
(1426617805.968285) can0 270#9A1300000000AD01
(1426617805.994679) can0 477#0900827A99001400
(1426617806.067550) can0 475#89131F0000060000
(1426617806.067872) can0 306#12003600AB000000
(1426617806.068125) can0 294#00009CFFFA00FFFF
(1426617806.068373) can0 270#991300000000C001
(1426617806.091609) can0 477#0A00847A99001400
(1426617806.167511) can0 475#7D131F0000060000
(1426617806.167815) can0 306#1300300098000000
(1426617806.168081) can0 294#00009CFFFA00FFFF
(1426617806.168324) can0 270#9A13000000008501
(1426617806.188536) can0 477#0900857A99001400
(1426617806.267447) can0 475#79131F0000060000
(1426617806.267800) can0 306#1200260077000000
(1426617806.268060) can0 294#00009CFFFA00FFFF
(1426617806.268680) can0 270#9A1300000000FD00
(1426617806.285537) can0 477#0900847A99001400
(1426617806.367468) can0 475#85131F0000060000
(1426617806.367781) can0 306#1200200066000000
(1426617806.368030) can0 294#00009CFFFA00FFFF
(1426617806.368269) can0 270#9A13000000002401
(1426617806.382511) can0 477#0900857A99001400
(1426617806.467409) can0 475#7D131F0000060000
(1426617806.467721) can0 306#1200200065000000
(1426617806.467995) can0 294#00009CFFFA00FFFF
(1426617806.468242) can0 270#9A1300000000FD00
(1426617806.479481) can0 477#0900857A99001400
(1426617806.567418) can0 475#87131F0000060000
(1426617806.567714) can0 306#11001A0052000000
(1426617806.567961) can0 294#00009CFFFA00FFFF
(1426617806.568212) can0 270#9A13000000009C00
(1426617806.576687) can0 477#0A00857A99001400
(1426617806.667334) can0 475#79131F0000060000
(1426617806.667625) can0 306#1100120039000000
(1426617806.667991) can0 294#00009CFFFA00FFFF
(1426617806.668234) can0 270#9A13000000007400
(1426617806.674428) can0 477#0A00857A99001400
(1426617806.767317) can0 475#81131F0000060000
(1426617806.767624) can0 306#11000B0023000000
(1426617806.767937) can0 294#00009CFFFA000000
(1426617806.768192) can0 270#9A13000000001300
(1426617806.770373) can0 477#0900867A99001400
(1426617806.867316) can0 475#79131F0000060000
(1426617806.867621) can0 477#0A00867A99001400
(1426617806.868011) can0 306#110004000D000000
(1426617806.868260) can0 294#00009CFFFA000000
(1426617806.868504) can0 270#9A13000000001300
(1426617806.965131) can0 477#0900877A99001400
(1426617806.967449) can0 475#81131F0000060000
(1426617806.967728) can0 306#1100000002000000
(1426617806.967974) can0 294#00009CFFFA000000
(1426617806.968214) can0 270#9A13000000001300
(1426617807.061704) can0 477#0800897A99001400
(1426617807.068772) can0 475#7F131F0000000000
(1426617807.069063) can0 306#1100000000000000
(1426617807.069326) can0 294#00009CFFFA000000
(1426617807.069570) can0 270#9A13000000000000
(1426617807.158626) can0 477#0800897A99001400
(1426617807.167464) can0 475#77131F0000000000
(1426617807.167751) can0 306#1100000000000000
(1426617807.168015) can0 294#00009CFFFA000000
(1426617807.168283) can0 270#9A13000000000000
(1426617807.255511) can0 477#0800897A99001400
(1426617807.267391) can0 475#81131E0000000000
(1426617807.267690) can0 306#1100000000000000
(1426617807.267939) can0 294#00009CFFFA000000
(1426617807.268191) can0 270#9B13000000000000
(1426617807.352168) can0 477#08008A7A99001400
(1426617807.367383) can0 475#85131E0000000000
(1426617807.367676) can0 306#1100000000000000
(1426617807.367933) can0 294#00009CFFFA000000
(1426617807.368178) can0 270#9B13000000000000
(1426617807.449164) can0 477#08008A7A99001400
(1426617807.467366) can0 475#7F131E0000000000
(1426617807.467662) can0 306#1100000000000000
(1426617807.467934) can0 294#00009CFFFA000000
(1426617807.468190) can0 270#9B13000000000000
(1426617807.546124) can0 477#07008B7A99001400
(1426617807.567552) can0 475#87131E0000000000
(1426617807.567826) can0 306#1100000000000000
(1426617807.568070) can0 294#00009CFFFA000000
(1426617807.568309) can0 270#9B13000000000000
(1426617807.643078) can0 477#07008B7A99001400
(1426617807.667582) can0 475#7F131E0000000000
(1426617807.667885) can0 306#1100000000000000
(1426617807.668144) can0 294#00009CFFFA000000
(1426617807.668429) can0 270#9B13000000000000
(1426617807.740058) can0 477#07008B7A99001400
(1426617807.767507) can0 475#79131E0000000000
(1426617807.767972) can0 306#1000000000000000
(1426617807.768225) can0 294#00009CFFFA000000
(1426617807.768471) can0 270#9B13000000000000
(1426617807.837085) can0 477#08008B7A99001400
(1426617807.867455) can0 475#7D131E0000000000
(1426617807.867753) can0 306#1000000000000000
(1426617807.868002) can0 294#00009CFFFA000000
(1426617807.868248) can0 270#9B13000000000000
(1426617807.934011) can0 477#07008C7A99001400
(1426617807.967394) can0 475#7B131E0000000000
(1426617807.967713) can0 306#1000000000000000
(1426617807.967975) can0 294#00009CFFFA000000
(1426617807.968232) can0 270#9B13000000000000
(1426617808.030999) can0 477#08008D7A99001400
(1426617808.067325) can0 475#77131E0000000000
(1426617808.067955) can0 306#1000000000000000
(1426617808.068180) can0 294#00009CFFFA000000
(1426617808.127936) can0 477#08008D7A99001400
(1426617808.167414) can0 475#81131E0000000000
(1426617808.167693) can0 306#1000000000000000
(1426617808.167938) can0 294#00009CFFFA000000
(1426617808.168181) can0 270#9B13000000000000
(1426617808.224884) can0 477#07008D7A99001400
(1426617808.267362) can0 475#79131E0000000000
(1426617808.267688) can0 306#1000000000000000
(1426617808.267980) can0 294#00009CFFFA000000
(1426617808.268234) can0 270#9B13000000000000
(1426617808.321906) can0 477#08008E7A99001400
(1426617808.369511) can0 475#7F131E0000000000
(1426617808.369815) can0 306#1000000000000000
(1426617808.370088) can0 294#00009CFFFA000000
(1426617808.370365) can0 270#9B13000000000000
(1426617808.418910) can0 477#07008E7A99001400
(1426617808.469562) can0 475#81131E0000000000
(1426617808.469874) can0 306#1000000000000000
(1426617808.470121) can0 294#00009CFFFA000000
(1426617808.470366) can0 270#9B13000000000000
(1426617808.515965) can0 477#08008F7A99001400
(1426617808.567794) can0 475#7F131E0000000000
(1426617808.568202) can0 306#1000000000000000
(1426617808.568455) can0 294#00009CFFFA000000
(1426617808.568696) can0 270#9C13000000000000
(1426617808.612768) can0 477#07008F7A99001400
(1426617808.667684) can0 475#75131E0000000000
(1426617808.668005) can0 306#1000000000000000
(1426617808.668258) can0 294#00009CFFFA000000
(1426617808.668504) can0 270#9C13000000000000
(1426617808.709765) can0 477#0700907A99001400
(1426617808.767440) can0 475#79131E0000000000
(1426617808.767755) can0 306#1000000000000000
(1426617808.768005) can0 294#00009CFFFA000000
(1426617808.768283) can0 270#9C13000000000000
(1426617808.806756) can0 477#0800907A99001400
(1426617808.867373) can0 475#79131E0000000000
(1426617808.867736) can0 306#1000000000000000
(1426617808.867987) can0 294#00009CFFFA000000
(1426617808.868231) can0 270#9C13000000000000
(1426617808.903713) can0 477#08008F7A99001400
(1426617808.967538) can0 475#83131E0000000000
(1426617808.967873) can0 306#1000000000000000
(1426617808.968134) can0 294#00009CFFFA000000
(1426617808.968383) can0 270#9C13000000000000
(1426617809.000651) can0 477#0700907A99001400
(1426617809.067539) can0 475#81131E0000000000
(1426617809.067867) can0 306#1000000000000000
(1426617809.068114) can0 294#00009CFFFA000000
(1426617809.068359) can0 270#9C13000000000000
(1426617809.097649) can0 477#0700917A99001400
(1426617809.167611) can0 475#77131E0000000000
(1426617809.167931) can0 306#1000000000000000
(1426617809.168180) can0 294#00009CFFFA000000
(1426617809.168429) can0 270#9C13000000000000
(1426617809.194641) can0 477#0700917A99001400
(1426617809.267765) can0 475#89131E0000000000
(1426617809.268066) can0 306#1000000000000000
(1426617809.268312) can0 294#00009CFFFA000000
(1426617809.268557) can0 270#9C13000000000000
(1426617809.291598) can0 477#0800917A99001400
(1426617809.367724) can0 475#87131E0000000000
(1426617809.368021) can0 306#1000000000000000
(1426617809.368265) can0 294#00009CFFFA000000
(1426617809.368512) can0 270#9C13000000000000
(1426617809.388528) can0 477#0700927A99001400
(1426617809.467541) can0 475#81131E0000000000
(1426617809.467955) can0 306#1000000000000000
(1426617809.468201) can0 294#00009CFFFA000000
(1426617809.468458) can0 270#9C13000000000000
(1426617809.485530) can0 477#0700937A99001400
(1426617809.567708) can0 475#77131E0000000000
(1426617809.568014) can0 306#1000000000000000
(1426617809.568287) can0 294#00009CFFFA000000
(1426617809.568542) can0 270#9C13000000000000
(1426617809.582480) can0 477#0700927A99001400
(1426617809.669490) can0 475#79131E0000000000
(1426617809.669891) can0 306#0F00000000000000
(1426617809.670132) can0 294#00009CFFFA000000
(1426617809.670391) can0 270#9C13000000000000
(1426617809.679446) can0 477#0700937A99001400
(1426617809.767452) can0 475#7B131E0000000000
(1426617809.767874) can0 306#0F00000000000000
(1426617809.768129) can0 294#00009CFFFA000000
(1426617809.768373) can0 270#9C13000000000000
(1426617809.776419) can0 477#0700937A99001400
(1426617809.867396) can0 475#77131E0000000000
(1426617809.868070) can0 306#0F00000000000000
(1426617809.868505) can0 270#9C13000000000000
(1426617809.873882) can0 477#0700937A99001400
(1426617809.969372) can0 475#7F131E0000000000
(1426617809.969650) can0 306#0E00000000000000
(1426617809.970050) can0 294#00009CFFFA000000
(1426617809.970305) can0 270#9C13000000000000
(1426617809.970547) can0 477#0800947A99001400
(1426617810.067349) can0 477#0700947A99001400
(1426617810.067662) can0 475#8E131E0000000000
(1426617810.068054) can0 306#0E00000000000000
(1426617810.068315) can0 294#00009CFFFA000000
(1426617810.068559) can0 270#9C13000000000000
(1426617810.164679) can0 477#0700957A99001400
(1426617810.169657) can0 475#87131E0000000000
(1426617810.170006) can0 306#0E00000000000000
(1426617810.170260) can0 294#00009CFFFA000000
(1426617810.170507) can0 270#9C13000000000000
(1426617810.261253) can0 477#0700957A99001400
(1426617810.267481) can0 475#85131E0000000000
(1426617810.267763) can0 306#0E00000000000000
(1426617810.268007) can0 294#00009CFFFA000000
(1426617810.268265) can0 270#9C13000000000000
(1426617810.358545) can0 477#0800977A99001400
(1426617810.369443) can0 475#83131E0000000000
(1426617810.369754) can0 306#0E00000000000000
(1426617810.370005) can0 294#00009CFFFA000000
(1426617810.370248) can0 270#9C13000000000000
(1426617810.455375) can0 477#0700957A99001400
(1426617810.469426) can0 475#7B131E0000000000
(1426617810.469720) can0 306#0E00000000000000
(1426617810.469973) can0 294#00009CFFFA000000
(1426617810.470218) can0 270#9C13000000000000
(1426617810.552151) can0 477#0700977A99001400
(1426617810.567380) can0 475#87131E0000000000
(1426617810.567667) can0 306#0E00000000000000
(1426617810.567908) can0 294#00009CFFFA000000
(1426617810.568156) can0 270#9C13000000000000
(1426617810.649159) can0 477#0700977A99001400
(1426617810.667359) can0 475#7B131E0000000000
(1426617810.667649) can0 306#0F00000000000000
(1426617810.667899) can0 294#00009CFFFA000000
(1426617810.668177) can0 270#9D13000000000000
(1426617810.746092) can0 477#0700977A99001400
(1426617810.767352) can0 475#89131E0000000000
(1426617810.767816) can0 306#0F00000000000000
(1426617810.768072) can0 294#00009CFFFA000000
(1426617810.768347) can0 270#9D13000000000000
(1426617810.843102) can0 477#0800987A99001400
(1426617810.869571) can0 475#7B131E0000000000
(1426617810.869867) can0 306#0F00000000000000
(1426617810.870127) can0 294#00009CFFFA000000
(1426617810.870392) can0 270#9D13000000000000
(1426617810.940049) can0 477#0800987A99001400
(1426617810.969562) can0 475#85131E0000000000
(1426617810.969871) can0 306#1000000000000000
(1426617810.970117) can0 294#00009CFFFA000000
(1426617810.970375) can0 270#9D13000000000000
(1426617811.037052) can0 477#0700997A99001400
(1426617811.069527) can0 475#7F131E0000000000
(1426617811.069864) can0 306#0F00000000000000
(1426617811.070128) can0 294#00009CFFFA000000
(1426617811.070376) can0 270#9D13000000000000
(1426617811.133969) can0 477#0800987A99001400
(1426617811.169517) can0 475#83131E0000000000
(1426617811.169825) can0 306#0F00000000000000
(1426617811.170073) can0 294#00009CFFFA000000
(1426617811.170316) can0 270#9D13000000000000
(1426617811.230952) can0 477#0700997A99001400
(1426617811.269458) can0 475#81131E0000000000
(1426617811.269766) can0 306#1000000000000000
(1426617811.270072) can0 294#00009CFFFA000000
(1426617811.270322) can0 270#9D13000000000000
(1426617811.327968) can0 477#0700987A99001400
(1426617811.369418) can0 475#7D131E0000000000
(1426617811.369804) can0 306#1000000000000000
(1426617811.370068) can0 294#00009CFFFA000000
(1426617811.370342) can0 270#9D13000000000000
(1426617811.424904) can0 477#07009A7A99001400
(1426617811.467457) can0 475#8B131E0000000000
(1426617811.467780) can0 306#1000000000000000
(1426617811.468028) can0 294#00009CFFFA000000
(1426617811.468274) can0 270#9D13000000000000
(1426617811.521859) can0 477#0700997A99001400
(1426617811.567735) can0 475#87131E0000000000
(1426617811.568051) can0 306#1100000000000000
(1426617811.568313) can0 294#00009CFFFA000000
(1426617811.568567) can0 270#9D13000000000000
(1426617811.618806) can0 477#08009A7A99001400
(1426617811.667698) can0 475#89131E0000000000
(1426617811.668047) can0 306#1100000000000000
(1426617811.668300) can0 294#00009CFFFA000000
(1426617811.668545) can0 270#9D13000000000000
(1426617811.715826) can0 477#07009B7A99001400
(1426617811.767709) can0 475#87131E0000000000
(1426617811.768045) can0 306#1100000000000000
(1426617811.768300) can0 294#00009CFFFA000000
(1426617811.768546) can0 270#9D13000000000000
(1426617811.812770) can0 477#08009B7A99001400
(1426617811.867676) can0 475#7F131E0000000000
(1426617811.867999) can0 306#1100000000000000
(1426617811.868244) can0 294#00009CFFFA000000
(1426617811.868488) can0 270#9D13000000000000
(1426617811.909784) can0 477#08009C7A99001400
(1426617811.967671) can0 475#81131E0000000000
(1426617811.967967) can0 306#1100000000000000
(1426617811.968216) can0 294#00009CFFFA000000
(1426617811.968459) can0 270#9E13000000000000
(1426617812.006722) can0 477#08009B7A99001400
(1426617812.067585) can0 475#8B131E0000000000
(1426617812.067926) can0 306#1100000000000000
(1426617812.068184) can0 294#00009CFFFA000000
(1426617812.068426) can0 270#9E13000000000000
(1426617812.103658) can0 477#08009C7A99001400
(1426617812.167594) can0 475#7B131E0000000000
(1426617812.167893) can0 306#1100000000000000
(1426617812.168137) can0 294#00009CFFFA000000
(1426617812.168383) can0 270#9E13000000000000
(1426617812.200625) can0 477#07009C7A99001400
(1426617812.267663) can0 475#81131E0000000000
(1426617812.267980) can0 306#1000000000000000
(1426617812.268228) can0 294#00009CFFFA000000
(1426617812.268472) can0 270#9E13000000000000
(1426617812.297614) can0 477#07009D7A99001400
(1426617812.367639) can0 475#85131E0000000000
(1426617812.367957) can0 306#1100000000000000
(1426617812.368205) can0 294#00009CFFFA000000
(1426617812.368455) can0 270#9E13000000000000
(1426617812.394752) can0 477#07009D7A99001400
(1426617812.467615) can0 475#83131D0000000000
(1426617812.467910) can0 306#1000000000000000
(1426617812.468307) can0 294#00009CFFFA000000
(1426617812.468570) can0 270#9E13000000000000
(1426617812.491530) can0 477#07009E7A99001400
(1426617812.567748) can0 475#83131D0000000000
(1426617812.568055) can0 306#1100000000000000
(1426617812.568305) can0 294#00009CFFFA000000
(1426617812.568552) can0 270#9E13000000000000
(1426617812.588520) can0 477#08009E7A99001400
(1426617812.667560) can0 475#85131D0000000000
(1426617812.667995) can0 306#1100000000000000
(1426617812.668251) can0 294#00009CFFFA000000
(1426617812.668494) can0 270#9E13000000000000
(1426617812.685768) can0 477#07009F7A99001400
(1426617812.767631) can0 475#7F131D0000000000
(1426617812.767961) can0 306#1100000000000000
(1426617812.768211) can0 294#00009CFFFA000000
(1426617812.768458) can0 270#9E13000000000000
(1426617812.782476) can0 477#08009F7A99001400
(1426617812.867645) can0 475#87131D0000000000
(1426617812.867950) can0 306#1100000000000000
(1426617812.868210) can0 294#00009CFFFA000000
(1426617812.868457) can0 270#9E13000000000000
(1426617812.879421) can0 477#07009F7A99001400
(1426617812.967389) can0 475#8B131D0000000000
(1426617812.967861) can0 306#1100000000000000
(1426617812.968114) can0 294#00009CFFFA000000
(1426617812.968362) can0 270#9E13000000000000
(1426617812.976729) can0 477#07009E7A99001400
(1426617813.067546) can0 475#87131D0000000000
(1426617813.067864) can0 306#1100000000000000
(1426617813.068115) can0 294#00009CFFFA000000
(1426617813.068361) can0 270#9E13000000000000
(1426617813.073355) can0 477#08009F7A99001400
(1426617813.167570) can0 475#7F131D0000000000
(1426617813.167887) can0 306#1200000000000000
(1426617813.168147) can0 294#00009CFFFA000000
(1426617813.168390) can0 270#9E13000000000000
(1426617813.170317) can0 477#0700A07A99001400
(1426617813.267583) can0 475#81131D0000000000
(1426617813.267876) can0 306#1100000000000000
(1426617813.268127) can0 294#00009CFFFA000000
(1426617813.268367) can0 270#9E13000000000000
(1426617813.268795) can0 477#0700A07A99001400
(1426617813.365161) can0 477#0700A07A99001400
(1426617813.367497) can0 475#7D131D0000000000
(1426617813.367795) can0 306#1100000000000000
(1426617813.368066) can0 294#00009CFFFA000000
(1426617813.369174) can0 270#9E13000000000000
(1426617813.461228) can0 477#0800A07A99001400
(1426617813.467433) can0 475#7F131D0000000000
(1426617813.467855) can0 306#1000000000000000
(1426617813.468108) can0 294#00009CFFFA000000
(1426617813.468355) can0 270#9E13000000000000
(1426617813.558179) can0 477#0700A17A99001400
(1426617813.567472) can0 475#7D131D0000000000
(1426617813.567768) can0 306#1000000000000000
(1426617813.568014) can0 294#00009CFFFA000000
(1426617813.568261) can0 270#9E13000000000000
(1426617813.655201) can0 477#0700A07A99001400
(1426617813.667663) can0 475#7B131D0000000000
(1426617813.667933) can0 306#1000000000000000
(1426617813.668180) can0 294#00009CFFFA000000
(1426617813.668423) can0 270#9E13000000000000
(1426617813.752122) can0 477#0700A17A99001400
(1426617813.767698) can0 475#85131D0000000000
(1426617813.767991) can0 306#0F00000000000000
(1426617813.768262) can0 294#00009CFFFA000000
(1426617813.768509) can0 270#9E13000000000000
(1426617813.849094) can0 477#0700A17A99001400
(1426617813.867466) can0 475#89131D0000000000
(1426617813.867852) can0 306#0F00000000000000
(1426617813.868128) can0 294#00009CFFFA000000
(1426617813.868383) can0 270#9E13000000000000
(1426617813.946061) can0 477#0700A27A99001400
(1426617813.967645) can0 475#87131D0000000000
(1426617813.967923) can0 306#0F00000000000000
(1426617813.968212) can0 294#00009CFFFA000000
(1426617813.968462) can0 270#9F13000000000000
(1426617814.043023) can0 477#0700A27A99001400
(1426617814.067785) can0 475#87131D0000000000
(1426617814.068106) can0 306#0E00000000000000
(1426617814.068372) can0 294#00009CFFFA000000
(1426617814.068619) can0 270#9F13000000000000
(1426617814.140047) can0 477#0700A37A99001400
(1426617814.167526) can0 475#85131D0000020000
(1426617814.167813) can0 306#0E00000000000000
(1426617814.168060) can0 294#00009CFFFA000000
(1426617814.168311) can0 270#9F13000000000000
(1426617814.236970) can0 477#0700A27A99001400
(1426617814.267525) can0 475#81131D0000020000
(1426617814.267805) can0 306#0E00FBFFEEFFFFFF
(1426617814.268051) can0 294#00009CFFFA000000
(1426617814.268292) can0 270#9F13000000000000
(1426617814.334115) can0 477#0900A37A99001400
(1426617814.367474) can0 475#87131D0000020000
(1426617814.367775) can0 306#0E00FAFFEBFFFFFF
(1426617814.368024) can0 294#32009CFFFA000100
(1426617814.368274) can0 270#9F13190000001300
(1426617814.430918) can0 477#0A00A27A99001400
(1426617814.467313) can0 475#89131D0000020400
(1426617814.467751) can0 306#0F00FAFFEBFFFFFF
(1426617814.468011) can0 294#99009CFFFA000000
(1426617814.468256) can0 270#9F13430000001300
(1426617814.527933) can0 477#0A00A37A99001400
(1426617814.567433) can0 475#8B131D0000020500
(1426617814.567721) can0 306#0E00FAFFEBFFFFFF
(1426617814.567990) can0 294#D8009CFFFA000100
(1426617814.568258) can0 270#9F13620000002700
(1426617814.624887) can0 477#0B00A27A99001400
(1426617814.667639) can0 475#89131D0000020800
(1426617814.667935) can0 306#0E00FBFFEEFFFFFF
(1426617814.668191) can0 294#31019CFFFA000200
(1426617814.668437) can0 270#9F138B0000001300
(1426617814.721822) can0 477#0C00A17A99001400
(1426617814.767400) can0 475#8E131D0000020900
(1426617814.767696) can0 306#0E00FBFFEFFFFFFF
(1426617814.768087) can0 294#83019CFFFA000400
(1426617814.768337) can0 270#9F13AE0000002700
(1426617814.818833) can0 477#0C00A17A99001400
(1426617814.867551) can0 475#8B131D0000020C00
(1426617814.867829) can0 306#0E00FBFFEFFFFFFF
(1426617814.868077) can0 294#D0019CFFFA000600
(1426617814.868318) can0 270#9F13D00000003A00
(1426617814.915757) can0 477#1300A27A99001400
(1426617814.967334) can0 475#7D131D0000022F00
(1426617814.967755) can0 306#0E000000FDFFFFFF
(1426617814.968010) can0 294#1E079CFFFA001600
(1426617814.968262) can0 270#9F134D030000D600
(1426617815.012729) can0 477#3600987A99001400
(1426617815.067354) can0 475#7D131D0000025C00
(1426617815.067765) can0 306#0E00080019000000
(1426617815.068014) can0 294#5A0D9CFFFA005600
(1426617815.068271) can0 270#9F13110600008501
(1426617815.109692) can0 477#66007E7A99001400
(1426617815.167464) can0 475#7D131D0000028A00
(1426617815.167757) can0 306#0D000D002B000000
(1426617815.168294) can0 270#9B13BC0800007201
(1426617815.168523) can0 294#A9139CFFFA009800
(1426617815.206688) can0 477#8D00677A99001400
(1426617815.267383) can0 475#7B131D0000029300
(1426617815.267787) can0 306#0D000F002F000000
(1426617815.268032) can0 294#C6149CFFFA00D000
(1426617815.268274) can0 270#93133A0900004A01
(1426617815.303633) can0 477#8C005A7A99001400
(1426617815.367335) can0 475#70131D0000029000
(1426617815.367798) can0 306#0D0013003E000000
(1426617815.368050) can0 294#77149CFFFA00F400
(1426617815.368289) can0 270#931317090000F901
(1426617815.400611) can0 477#BF00487A99001400
(1426617815.467317) can0 475#79131D0000029300
(1426617815.467641) can0 306#0D001D005B000000
(1426617815.468031) can0 294#B8149CFFFA002801
(1426617815.468279) can0 270#921334090000FA01
(1426617815.497601) can0 477#C200337A99001400
(1426617815.567283) can0 475#74131D0000028F00
(1426617815.567732) can0 306#0D00240071000000
(1426617815.567990) can0 294#76149CFFFA004D01
(1426617815.568234) can0 270#8C13160900008102
(1426617815.594536) can0 477#0201247A99001400
(1426617815.667297) can0 475#70131D0000029200
(1426617815.667730) can0 306#0E002F0094000000
(1426617815.667984) can0 294#AD149CFFFA00AC01
(1426617815.668228) can0 270#8C13320900000A03
(1426617815.691521) can0 477#0A01047A99001400
(1426617815.767298) can0 475#6C131D0000029200
(1426617815.767695) can0 306#0E003500A6000000
(1426617815.767955) can0 294#AD149CFFFA00ED01
(1426617815.768239) can0 270#851332090000B703
(1426617815.788508) can0 477#3301F57999001400
(1426617815.867570) can0 475#6C131D0000029200
(1426617815.867892) can0 306#0F003F00C7000000
(1426617815.868192) can0 294#AF149CFFFA002902
(1426617815.868445) can0 270#811330090000A403
(1426617815.885471) can0 477#4501DF7999001400
(1426617815.967687) can0 475#62131D0000029300
(1426617815.967962) can0 306#0F004800E1000000
(1426617815.968209) can0 294#E9149CFFFA005F02
(1426617815.968444) can0 270#81134A0900002904
(1426617815.982719) can0 477#7B01D07999001400
(1426617816.067874) can0 475#59131D000002A900
(1426617816.068180) can0 306#1000530005010000
(1426617816.068381) can0 294#8B189CFFFA00C202
(1426617816.068628) can0 270#7D13E70A0000D504
(1426617816.079374) can0 477#0202B17999001400
(1426617816.167584) can0 475#3C131E000002D600
(1426617816.168093) can0 306#1000630037010000
(1426617816.168344) can0 294#D81E9CFFFA00BB03
(1426617816.168582) can0 270#6D13B30D0000CA05
(1426617816.176353) can0 477#EB022E7999001400
(1426617816.267652) can0 475#1D131E0000020201
(1426617816.267953) can0 306#10006F005D010000
(1426617816.268199) can0 294#F3249CFFFA001605
(1426617816.268443) can0 270#6D136A1000008006
(1426617816.273497) can0 477#AA03A77899001400
(1426617816.367590) can0 475#1D131E0000020501
(1426617816.367897) can0 306#0F007B0083010000
(1426617816.368144) can0 294#ED249CFFFA004106
(1426617816.368387) can0 270#4D1367100000F006
(1426617816.370286) can0 477#E403367899001400
(1426617816.467293) can0 477#35030D7899001400
(1426617816.467784) can0 475#36131E000002DC00
(1426617816.468207) can0 294#B51F9CFFFA005F06
(1426617816.468413) can0 306#0F00830099010000
(1426617816.468661) can0 270#3913150E00006D07
(1426617816.564660) can0 477#50034C7899001400
(1426617816.567715) can0 475#1D131E000002C100
(1426617816.567994) can0 306#0F009500D3010000
(1426617816.568239) can0 294#8C1B9CFFFA003606
(1426617816.568481) can0 270#39133C0C0000B908
(1426617816.661244) can0 477#8703617899001400
(1426617816.667505) can0 475#28131E000002C500
(1426617816.667798) can0 306#0F00A100F8010000
(1426617816.668046) can0 294#CB1B9CFFFA002306
(1426617816.668292) can0 270#3F13580C00004B08
(1426617816.758432) can0 477#8203437899001400
(1426617816.767461) can0 475#21131E000002B900
(1426617816.767832) can0 306#0F00B00026020000
(1426617816.768134) can0 294#641A9CFFFA002D06
(1426617816.768389) can0 270#3E13B90B00003009
(1426617816.855137) can0 477#8703387899001400
(1426617816.867703) can0 475#21131F000002B300
(1426617816.867991) can0 294#23199CFFFA003A06
(1426617816.868189) can0 306#0F00BC004D020000
(1426617816.868434) can0 270#3E132A0B00004409
(1426617816.952162) can0 477#8E03337899001400
(1426617816.967648) can0 475#19131F000002AD00
(1426617816.967932) can0 306#0F00C7006E020000
(1426617816.968177) can0 294#B6189CFFFA004106
(1426617816.968520) can0 270#3C13FA0A00007A09
(1426617817.049091) can0 477#9903237899001400
(1426617817.067670) can0 475#17131F000002A700
(1426617817.067969) can0 294#6D179CFFFA004A06
(1426617817.068175) can0 306#0F00D1008D020000
(1426617817.068417) can0 270#3913670A00008C09
(1426617817.146032) can0 477#9C031F7899001400
(1426617817.167544) can0 475#13131F000002A300
(1426617817.167821) can0 306#0F00DA00AA020000
(1426617817.168063) can0 294#17179CFFFA005006
(1426617817.168302) can0 270#3913420A0000E809
(1426617817.243071) can0 477#A003147899001400
(1426617817.267603) can0 475#15131F0000029C00
(1426617817.267883) can0 294#3A169CFFFA004F06
(1426617817.268080) can0 306#1000E400CA020000
(1426617817.268321) can0 270#3813DF0900005C0A
(1426617817.339954) can0 477#A303157899001400
(1426617817.367471) can0 475#1513200000029700
(1426617817.367771) can0 306#1000EE00E8020000
(1426617817.368027) can0 294#40159CFFFA004906
(1426617817.368269) can0 270#3613700900001B0B
(1426617817.436929) can0 477#9F030E7899001400
(1426617817.467571) can0 475#1713200000029400
(1426617817.467870) can0 306#1000F60002030000
(1426617817.468120) can0 294#EA149CFFFA004506
(1426617817.468556) can0 270#36134A090000540B
(1426617817.533942) can0 477#9403057899001400
(1426617817.567616) can0 475#1513200000028F00
(1426617817.567917) can0 306#0F00FF001E030000
(1426617817.568169) can0 294#BA139CFFFA003C06
(1426617817.568414) can0 270#3413C30800002E0B
(1426617817.630905) can0 477#F502097899001400
(1426617817.667731) can0 475#2A13200000027100
(1426617817.668011) can0 294#820F9CFFFA00B605
(1426617817.668211) can0 306#0F00000121030000
(1426617817.668454) can0 270#3413E30600003E0A
(1426617817.727884) can0 477#2E02A97899001400
(1426617817.767615) can0 475#4013200000024D00
(1426617817.767913) can0 306#0F00020127030000
(1426617817.768304) can0 294#9A0A9CFFFA009404
(1426617817.768608) can0 270#3413B5040000870A
(1426617817.824819) can0 477#6701107999001400
(1426617817.867793) can0 475#4713200000023200
(1426617817.868071) can0 306#0F00070136030000
(1426617817.868319) can0 294#4F079CFFFA004D03
(1426617817.868578) can0 270#4E133F0300003F0A
(1426617817.921791) can0 477#5A016B7999001400
(1426617817.967575) can0 475#4D13200000023500
(1426617817.967850) can0 306#0E000F0151030000
(1426617817.968094) can0 294#BF079CFFFA00A802
(1426617817.968333) can0 270#6D1371030000050B
(1426617818.018807) can0 477#76015D7999001400
(1426617818.067535) can0 475#5713200000023E00
(1426617818.067877) can0 306#0F0012015A030000
(1426617818.068269) can0 294#98089CFFFA008D02
(1426617818.068615) can0 270#6D13D10300002F0A
(1426617818.115750) can0 477#8C01517999001400
(1426617818.167522) can0 475#4F13200000023B00
(1426617818.167912) can0 306#0E00120159030000
(1426617818.168161) can0 294#95089CFFFA009802
(1426617818.168404) can0 270#6913D0030000000B
(1426617818.212850) can0 477#9501497999001400
(1426617818.267545) can0 475#4D13200000023E00
(1426617818.267975) can0 306#0F00140160030000
(1426617818.268219) can0 294#A7089CFFFA00A602
(1426617818.268419) can0 270#6713D7030000B30A
(1426617818.309711) can0 477#9501477999001400
(1426617818.367640) can0 475#4913200000023A00
(1426617818.367962) can0 306#0F00160166030000
(1426617818.368207) can0 294#75089CFFFA00AB02
(1426617818.368450) can0 270#6713C1030000380B
(1426617818.406673) can0 477#9201477999001400
(1426617818.467409) can0 475#5313200000023C00
(1426617818.467778) can0 306#0F001B0175030000
(1426617818.468175) can0 294#52089CFFFA00AB02
(1426617818.468534) can0 270#6713B2030000E00A
(1426617818.503689) can0 477#9A014A7999001400
(1426617818.567408) can0 475#5113200000023A00
(1426617818.567683) can0 306#0F001D017A030000
(1426617818.568033) can0 294#51089CFFFA00AA02
(1426617818.568284) can0 270#6813B10300002B0B
(1426617818.600615) can0 477#8B014A7999001400
(1426617818.667560) can0 475#4B13200000023700
(1426617818.667929) can0 306#10001D017B030000
(1426617818.668179) can0 294#D9079CFFFA00A002
(1426617818.668425) can0 270#68137C030000150B
(1426617818.697551) can0 477#6301547999001400
(1426617818.767356) can0 475#4F13200000023000
(1426617818.767655) can0 306#0F001E017F030000
(1426617818.768042) can0 294#5A069CFFFA006902
(1426617818.768289) can0 270#6813D2020000EF0A
(1426617818.794503) can0 477#2C01717999001400
(1426617818.867321) can0 475#5713200000022400
(1426617818.867692) can0 306#0F00200186030000
(1426617818.868067) can0 294#0F059CFFFA001302
(1426617818.868263) can0 270#6E133F0200001C0B
(1426617818.891498) can0 477#E5008F7999001400
(1426617818.967739) can0 475#5A13200000021D00
(1426617818.968027) can0 306#0F0023018D030000
(1426617818.968278) can0 294#BA039CFFFA00A801
(1426617818.968522) can0 270#6E13A8010000E20A
(1426617818.988468) can0 477#A700B57999001400
(1426617819.067775) can0 475#6013200000021400
(1426617819.068078) can0 294#E9029CFFFA004601
(1426617819.068280) can0 306#0F0023018F030000
(1426617819.068531) can0 270#79134B010000F90A
(1426617819.085439) can0 477#7E00E37999001400
(1426617819.167717) can0 475#7713200000020C00
(1426617819.168006) can0 306#0F0022018C030000
(1426617819.168393) can0 294#F4019CFFFA00EF00
(1426617819.168640) can0 270#8013DE000000F50A
(1426617819.182411) can0 477#5000FD7999001400
(1426617819.267773) can0 475#7013200000020B00
(1426617819.268064) can0 306#0F001F0180030000
(1426617819.268309) can0 294#81019CFFFA00A900
(1426617819.268549) can0 270#8013AB000000690A
(1426617819.279358) can0 477#3D00187A99001400
(1426617819.367634) can0 475#7913200000020900
(1426617819.367919) can0 306#0F0019016E030000
(1426617819.368304) can0 294#13019CFFFA008200
(1426617819.368556) can0 270#88137A000000450A
(1426617819.376841) can0 477#34001E7A99001400
(1426617819.467644) can0 475#6E13200000020400
(1426617819.467985) can0 306#0F0014015E030000
(1426617819.468388) can0 294#2B009CFFFA006600
(1426617819.468737) can0 270#8A1313000000160A
(1426617819.473301) can0 477#09002C7A99001400
(1426617819.567559) can0 475#8713200000021500
(1426617819.567916) can0 306#0F001D017C030000
(1426617819.568176) can0 294#F9FC9CFFFA00DDFF
(1426617819.568465) can0 270#8A13A8FE0000AE09
(1426617819.570259) can0 477#6FFF6A7A99001400
(1426617819.667579) can0 475#7F13200000021600
(1426617819.667988) can0 477#62FFA27A99001400
(1426617819.668386) can0 294#EEFB9CFFFA0069FF
(1426617819.668760) can0 270#961331FE00007209
(1426617819.764216) can0 477#36FFBF7A99001400
(1426617819.767529) can0 475#9213200000062200
(1426617819.767795) can0 306#10001A0173030000
(1426617819.768186) can0 294#8FFB9CFFFA001DFF
(1426617819.768436) can0 270#9F1307FE00007809
(1426617819.861155) can0 477#18FFD37A99001400
(1426617819.867501) can0 475#9413200000062500
(1426617819.867874) can0 306#1100160164030000
(1426617819.868276) can0 294#ADFA9CFFFA00E0FE
(1426617819.868627) can0 270#9F13A2FD00002E09
(1426617819.958177) can0 477#F7FEF17A99001400
(1426617819.967664) can0 475#9413200000062E00
(1426617819.967952) can0 306#1100120158030000
(1426617819.968200) can0 294#AAF99CFFFA00A9FE
(1426617819.968452) can0 270#A6132FFD00002E09
(1426617820.056388) can0 477#E3FE0B7B99001400
(1426617820.067704) can0 475#A613200000063200
(1426617820.068039) can0 294#F1F89CFFFA007BFE
(1426617820.068247) can0 306#12000C0147030000
(1426617820.068541) can0 270#AD13DDFC0000D308
(1426617820.152282) can0 477#D4FE167B99001400
(1426617820.167446) can0 475#9A13200000063500
(1426617820.167825) can0 306#1400060133030000
(1426617820.168089) can0 294#7AF89CFFFA005CFE
(1426617820.168345) can0 270#AD13A8FC00008008
(1426617820.249087) can0 477#CEFE207B99001400
(1426617820.267401) can0 475#9E13200000063C00
(1426617820.267849) can0 306#1400FF001F030000
(1426617820.268108) can0 294#B5F79CFFFA0049FE
(1426617820.268352) can0 270#B11350FC00006C08
(1426617820.346030) can0 477#CBFE2B7B99001400
(1426617820.367565) can0 475#A213200000063B00
(1426617820.367846) can0 306#1400F9000A030000
(1426617820.368094) can0 294#9DF79CFFFA003BFE
(1426617820.368338) can0 270#B41346FC0000FB07
(1426617820.443009) can0 477#CEFE2F7B99001400
(1426617820.467550) can0 475#9E13200000063E00
(1426617820.467943) can0 306#1500F300F7020000
(1426617820.468204) can0 270#B413E4FB0000F707
(1426617820.469145) can0 294#C1F69CFFFA0039FE
(1426617820.540013) can0 477#CAFE337B99001400
(1426617820.567532) can0 475#9C13200000063F00
(1426617820.567829) can0 306#1400EC00E2020000
(1426617820.568104) can0 294#ABF69CFFFA0037FE
(1426617820.568350) can0 270#B513DAFB00008407
(1426617820.636949) can0 477#D9FE317B99001400
(1426617820.667530) can0 475#A013200000063E00
(1426617820.667995) can0 306#1400E400CA020000
(1426617820.668246) can0 294#AFF69CFFFA0042FE
(1426617820.668490) can0 270#B613DCFB00003507
(1426617820.733920) can0 477#E8FE2B7B99001400
(1426617820.767719) can0 475#9413200000063E00
(1426617820.768017) can0 306#1300DB00AE020000
(1426617820.768269) can0 294#4DF79CFFFA0055FE
(1426617820.768512) can0 270#B61322FC0000E306
(1426617820.830846) can0 477#F3FE297B99001400
(1426617820.867693) can0 475#A013200000063E00
(1426617820.868054) can0 306#1200D40098020000
(1426617820.868261) can0 294#38F79CFFFA0065FE
(1426617820.868506) can0 270#B41319FC0000BD06
(1426617820.927819) can0 477#F9FE277B99001400
(1426617820.967658) can0 475#9A13200000063D00
(1426617820.967937) can0 306#1100CD0080020000
(1426617820.968185) can0 294#58F79CFFFA0075FE
(1426617820.968429) can0 270#B41327FC00005A06
(1426617821.024823) can0 477#05FF227B99001400
(1426617821.067558) can0 475#9A13200000063C00
(1426617821.067988) can0 306#1100C50068020000
(1426617821.068248) can0 270#B31338FC00000B06
(1426617821.068450) can0 294#7DF79CFFFA0087FE
(1426617821.121832) can0 477#19FF227B99001400
(1426617821.167569) can0 475#9C13200000063B00
(1426617821.167864) can0 306#1000BD0051020000
(1426617821.168118) can0 294#61F79CFFFA009CFE
(1426617821.168363) can0 270#B3132BFC0000D105
(1426617821.218767) can0 477#21FF187B99001400
(1426617821.267575) can0 475#9413200000063C00
(1426617821.267923) can0 294#CDF79CFFFA00ACFE
(1426617821.268147) can0 306#1000B6003B020000
(1426617821.268396) can0 270#B1135BFC0000A805
(1426617821.315777) can0 477#29FF127B99001400
(1426617821.367535) can0 475#9613200000063D00
(1426617821.367834) can0 306#1000B00026020000
(1426617821.368095) can0 294#68F79CFFFA00BEFE
(1426617821.368361) can0 270#B0132EFC00008305
(1426617821.412688) can0 477#36FF0D7B99001400
(1426617821.467546) can0 475#9413200000023800
(1426617821.468015) can0 306#1000A8000D020000
(1426617821.468268) can0 294#74F89CFFFA00D4FE
(1426617821.468464) can0 270#B013A6FC00001F05
(1426617821.509684) can0 477#55FF0B7B99001400
(1426617821.567685) can0 475#A013200000023100
(1426617821.567996) can0 306#1000A300FE010000
(1426617821.568281) can0 294#6BF99CFFFA00F5FE
(1426617821.568535) can0 270#AF1313FD00000F05
(1426617821.606649) can0 477#7CFFF97A99001400
(1426617821.667653) can0 475#9813200000022600
(1426617821.668049) can0 306#10009E00EF010000
(1426617821.668307) can0 270#AC13B8FD0000D004
(1426617821.668506) can0 294#DDFA9CFFFA0020FF
(1426617821.703688) can0 477#9FFFE67A99001400
(1426617821.767445) can0 475#9213200000021B00
(1426617821.767842) can0 306#10009900DE010000
(1426617821.768087) can0 294#6EFC9CFFFA0053FF
(1426617821.768331) can0 270#AC136AFE0000E504
(1426617821.800606) can0 477#BFFFCF7A99001400
(1426617821.867584) can0 475#9613200000021000
(1426617821.868012) can0 306#0F009400CF010000
(1426617821.868272) can0 270#A61328FF0000E404
(1426617821.868474) can0 294#1AFE9CFFFA0086FF
(1426617821.897557) can0 477#DCFFB67A99001400
(1426617821.967352) can0 475#8513200000020600
(1426617821.967808) can0 306#0F009100C5010000
(1426617821.968065) can0 294#72FF9CFFFA00B3FF
(1426617821.968311) can0 270#A113C1FF0000B904
(1426617821.994532) can0 477#0000A87A99001400
(1426617822.067598) can0 475#8313200000020000
(1426617822.067996) can0 306#10008F00BF010000
(1426617822.068263) can0 294#01009CFFFA00DFFF
(1426617822.068518) can0 270#A113000000004205
(1426617822.091648) can0 477#1600957A99001400
(1426617822.167669) can0 475#8D13200000020900
(1426617822.167991) can0 306#10008E00BC010000
(1426617822.168251) can0 294#A0019CFFFA000D00
(1426617822.168499) can0 270#9C13B90000007E05
(1426617822.188446) can0 477#2D00827A99001400
(1426617822.267741) can0 475#7F13200000020C00
(1426617822.268143) can0 306#10009000C3010000
(1426617822.268686) can0 270#9913F8000000B705
(1426617822.268914) can0 294#2F029CFFFA003100
(1426617822.285459) can0 477#3400797A99001400
(1426617822.367743) can0 475#7F13200000020C00
(1426617822.368056) can0 306#11009500D4010000
(1426617822.368308) can0 294#41029CFFFA004500
(1426617822.368556) can0 270#991300010000F005
(1426617822.382386) can0 477#3700737A99001400
(1426617822.467698) can0 475#8113200000020E00
(1426617822.468081) can0 306#11009A00E3010000
(1426617822.468483) can0 294#FF029CFFFA005200
(1426617822.468701) can0 270#9713540100000606
(1426617822.479346) can0 477#56006E7A99001400
(1426617822.567654) can0 475#6213200000022E00
(1426617822.568003) can0 306#11008D00B9010000
(1426617822.568264) can0 294#59069CFFFA00AF00
(1426617822.568508) can0 270#9113D1020000C105
(1426617822.576500) can0 477#B3004E7A99001400
(1426617822.667640) can0 475#6813200000023300
(1426617822.668042) can0 306#10008D00BA010000
(1426617822.668307) can0 270#911356030000D805
(1426617822.668509) can0 294#84079CFFFA00FF00
(1426617822.673257) can0 477#BA00287A99001400
(1426617822.767600) can0 475#7213200000023A00
(1426617822.767926) can0 306#10008E00BC010000
(1426617822.768191) can0 294#BB089CFFFA003C01
(1426617822.768437) can0 270#8B13E10300001306
(1426617822.770455) can0 477#E100167A99001400
(1426617822.867235) can0 477#FA00027A99001400
(1426617822.867558) can0 475#68131F0000024000
(1426617822.867991) can0 306#10009100C7010000
(1426617822.868420) can0 294#60099CFFFA007101
(1426617822.868619) can0 270#86132A040000FE05
(1426617822.964293) can0 477#1001E77999001400
(1426617822.967545) can0 475#6C131F0000024600
(1426617822.967994) can0 306#10009400D1010000
(1426617822.968247) can0 294#AA099CFFFA00A701
(1426617822.968488) can0 270#86134B0400004C06
(1426617823.061192) can0 477#3001D87999001400
(1426617823.067762) can0 475#66131F0000024D00
(1426617823.068140) can0 294#8E0A9CFFFA00DD01
(1426617823.068357) can0 306#10009800DB010000
(1426617823.068609) can0 270#8113B00400008106
(1426617823.158152) can0 477#5101C87999001400
(1426617823.167771) can0 475#57131F0000025300
(1426617823.168148) can0 306#11009B00E6010000
(1426617823.168436) can0 294#BC0B9CFFFA001002
(1426617823.168688) can0 270#7C1336050000B906
(1426617823.255131) can0 477#6B01AA7999001400
(1426617823.267467) can0 475#59131F0000025800
(1426617823.267732) can0 306#10009F00F3010000
(1426617823.268175) can0 294#E30C9CFFFA004602
(1426617823.268426) can0 270#7C13B9050000E206
(1426617823.352084) can0 477#30019E7999001400
(1426617823.367472) can0 475#57131F0000024800
(1426617823.367849) can0 306#1000A300FD010000
(1426617823.368093) can0 294#F7099CFFFA005702
(1426617823.368336) can0 270#77136D040000A606
(1426617823.449010) can0 477#A600D97999001400
(1426617823.467620) can0 475#64131F0000022600
(1426617823.467908) can0 306#10009E00EF010000
(1426617823.468256) can0 294#1E059CFFFA00C701
(1426617823.468463) can0 270#7E13460200003606
(1426617823.545989) can0 477#2700387A99001400
(1426617823.567581) can0 475#75131F0000060500
(1426617823.567872) can0 306#1000A100F8010000
(1426617823.568120) can0 294#94009CFFFA00FE00
(1426617823.568361) can0 270#7E13410000000206
(1426617823.643000) can0 477#0700707A99001400
(1426617823.667581) can0 475#83131F0000060000
(1426617823.667871) can0 306#0F009800DB010000
(1426617823.668263) can0 294#00009CFFFA006000
(1426617823.668624) can0 270#8E13000000000705
(1426617823.739936) can0 477#0700767A99001400
(1426617823.767565) can0 475#7D13200000060000
(1426617823.767892) can0 306#0F008A00B0010000
(1426617823.768142) can0 294#00009CFFFA002300
(1426617823.768387) can0 270#981300000000E104
(1426617823.836898) can0 477#CBFF797A99001400
(1426617823.867699) can0 475#7D13200000061600
(1426617823.868031) can0 306#0E00A90011020000
(1426617823.868330) can0 270#98137EFE0000F305
(1426617823.868535) can0 294#9BFC9CFFFA00F2FF
(1426617823.933870) can0 477#0400967A99001400
(1426617823.967721) can0 475#8713200000060000
(1426617823.967996) can0 306#0E00A200FA010000
(1426617823.968240) can0 294#00009CFFFA00E0FF
(1426617823.968486) can0 270#9913000000005505
(1426617824.031028) can0 477#0400807A99001400
(1426617824.067653) can0 475#7D13200000060000
(1426617824.067970) can0 306#0D009D00ED010000
(1426617824.068339) can0 270#9913AEFF00005505
(1426617824.068555) can0 294#47FF9CFFFA00F1FF
(1426617824.127809) can0 477#F4FF897A99001400
(1426617824.167604) can0 475#89131F0000060400
(1426617824.168016) can0 306#0D009D00EB010000
(1426617824.168286) can0 270#9913DEFF00004305
(1426617824.168481) can0 294#B3FF9CFFFA00E7FF
(1426617824.224753) can0 477#FCFF897A99001400
(1426617824.267446) can0 475#8E131F0000060400
(1426617824.267821) can0 306#0E009900E0010000
(1426617824.268122) can0 294#7FFF9CFFFA00ECFF
(1426617824.268416) can0 270#9C13C6FF00001E05
(1426617824.321733) can0 477#EFFF8B7A99001400
(1426617824.367541) can0 475#8D131F0000060800
(1426617824.367853) can0 306#0F009700D9010000
(1426617824.368107) can0 294#0EFF9CFFFA00E3FF
(1426617824.368356) can0 270#9B1394FF0000F504
(1426617824.418717) can0 477#E9FF927A99001400
(1426617824.467636) can0 475#87131F0000060C00
(1426617824.467944) can0 306#0F009500D3010000
(1426617824.468289) can0 294#69FE9CFFFA00D9FF
(1426617824.468544) can0 270#9B134BFF0000E204
(1426617824.515693) can0 477#E8FF987A99001400
(1426617824.567508) can0 475#83131F0000060D00
(1426617824.567963) can0 306#0F009300CD010000
(1426617824.568213) can0 294#D0FD9CFFFA00D3FF
(1426617824.568456) can0 270#9C1307FF0000CE04
(1426617824.612653) can0 477#E4FF9D7A99001400
(1426617824.667531) can0 475#8D131F0000060A00
(1426617824.667820) can0 306#0F009000C3010000
(1426617824.668264) can0 294#52FE9CFFFA00CFFF
(1426617824.668518) can0 270#9E1340FF0000A804
(1426617824.709637) can0 477#E0FF9C7A99001400
(1426617824.767531) can0 475#83131F0000060D00
(1426617824.767927) can0 306#0E008D00BB010000
(1426617824.768191) can0 294#65FE9CFFFA00C8FF
(1426617824.768447) can0 270#9E1349FF0000A704
(1426617824.806638) can0 477#DBFFA07A99001400
(1426617824.867478) can0 475#90131F0000061000
(1426617824.867858) can0 306#0E008C00B6010000
(1426617824.868177) can0 294#83FD9CFFFA00C3FF
(1426617824.868471) can0 270#9E13E5FE00006F04
(1426617824.903610) can0 477#E3FFA37A99001400
(1426617824.967656) can0 475#8D131F0000060D00
(1426617824.967961) can0 306#0E008800AA010000
(1426617824.968212) can0 294#05FE9CFFFA00C3FF
(1426617824.968456) can0 270#9F131EFF00004704
(1426617825.000519) can0 477#DBFFA17A99001400
(1426617825.067430) can0 475#96131F0000061000
(1426617825.067862) can0 306#0E0084009F010000
(1426617825.068366) can0 294#8FFD9CFFFA00C4FF
(1426617825.068601) can0 270#9F13EAFE00004704
(1426617825.097498) can0 477#D9FFA37A99001400
(1426617825.167615) can0 475#85131F0000060F00
(1426617825.167932) can0 306#0E00810095010000
(1426617825.168180) can0 294#07FE9CFFFA00C0FF
(1426617825.168425) can0 270#9F131FFF00000A04
(1426617825.194452) can0 477#E5FFAA7A99001400
(1426617825.267769) can0 475#89131F0000061000
(1426617825.268075) can0 306#0D007F008D010000
(1426617825.268467) can0 270#9F13ECFE0000F703
(1426617825.268682) can0 294#92FD9CFFFA00C3FF
(1426617825.291451) can0 477#DFFFA67A99001400
(1426617825.367791) can0 475#85131F0000061000
(1426617825.368088) can0 306#0E007B0080010000
(1426617825.368339) can0 294#48FD9CFFFA00C5FF
(1426617825.368592) can0 270#9F13CBFE0000E303
(1426617825.388418) can0 477#DDFFA47A99001400
(1426617825.467835) can0 475#92131F0000061200
(1426617825.468187) can0 306#0D00780077010000
(1426617825.468491) can0 270#9F13C6FE0000AB03
(1426617825.468691) can0 294#3FFD9CFFFA00C3FF
(1426617825.485393) can0 477#E3FFA97A99001400
(1426617825.567764) can0 475#8D131F0000061400
(1426617825.568058) can0 306#0E0074006D010000
(1426617825.568328) can0 294#04FD9CFFFA00C7FF
(1426617825.568577) can0 270#9F13ACFE0000AA03
(1426617825.582347) can0 477#DEFFA87A99001400
(1426617825.667742) can0 475#90131F0000061200
(1426617825.668047) can0 306#0D00710061010000
(1426617825.668392) can0 294#51FD9CFFFA00C7FF
(1426617825.668643) can0 270#9F13CEFE00008303
(1426617825.679329) can0 477#E4FFA87A99001400
(1426617825.767688) can0 475#89131F0000061400
(1426617825.767994) can0 306#0D006F005B010000
(1426617825.768391) can0 294#EAFC9CFFFA00C6FF
(1426617825.768649) can0 270#A013A1FE00004703
(1426617825.776314) can0 477#E1FFA87A99001400
(1426617825.867697) can0 475#87131F0000061000
(1426617825.868004) can0 306#0D006A004B010000
(1426617825.868332) can0 294#9FFD9CFFFA00C9FF
(1426617825.868589) can0 270#A013F1FE00003403
(1426617825.873256) can0 477#DFFFA87A99001400
(1426617825.967660) can0 475#7D131F0000061300
(1426617825.968045) can0 306#0D00670044010000
(1426617825.968326) can0 294#9BFD9CFFFA00C8FF
(1426617825.968580) can0 270#A013EFFE00001E03
(1426617825.970381) can0 477#E4FFAC7A99001400
(1426617826.067578) can0 475#85131F0000061400
(1426617826.067903) can0 477#E1FFA87A99001400
(1426617826.068340) can0 306#0C00630038010000
(1426617826.068600) can0 270#A0139AFE00000D03
(1426617826.068803) can0 294#DBFC9CFFFA00CCFF
(1426617826.165280) can0 477#E8FFAB7A99001400
(1426617826.167724) can0 475#8D131F0000061300
(1426617826.168002) can0 306#0C0060002D010000
(1426617826.168273) can0 294#7FFD9CFFFA00CBFF
(1426617826.168523) can0 270#A013E3FE0000FA02
(1426617826.262301) can0 477#E8FFA67A99001400
(1426617826.267732) can0 475#87131F0000061100
(1426617826.268024) can0 306#0C005D0023010000
(1426617826.268349) can0 294#6AFD9CFFFA00D1FF
(1426617826.268606) can0 270#A013DAFE0000D202
(1426617826.359208) can0 477#F0FFA87A99001400
(1426617826.367729) can0 475#87131F0000060E00
(1426617826.368027) can0 306#0C00590017010000
(1426617826.368274) can0 294#25FE9CFFFA00D5FF
(1426617826.368518) can0 270#9F132DFF00008402
(1426617826.455101) can0 477#F4FFA37A99001400
(1426617826.467499) can0 475#8B131F0000060C00
(1426617826.467869) can0 306#0D0055000B010000
(1426617826.468172) can0 294#46FE9CFFFA00DDFF
(1426617826.468521) can0 270#9F133BFF00009802
(1426617826.552035) can0 477#F5FFA47A99001400
(1426617826.567680) can0 475#90131F0000060C00
(1426617826.567986) can0 306#0D00530004010000
(1426617826.568252) can0 294#6EFE9CFFFA00E0FF
(1426617826.568557) can0 270#9F134DFF00007202
(1426617826.649012) can0 477#FCFFA17A99001400
(1426617826.667631) can0 475#87131F0000060800
(1426617826.667905) can0 306#0D004F00F7000000
(1426617826.668163) can0 294#CCFE9CFFFA00E6FF
(1426617826.668590) can0 270#9F1377FF00005D02
(1426617826.745991) can0 477#FCFF9E7A99001400
(1426617826.767644) can0 475#83131F0000060800
(1426617826.767968) can0 306#0D004C00F0000000
(1426617826.768221) can0 294#B6FE9CFFFA00EAFF
(1426617826.768466) can0 270#9E136DFF00004902
(1426617826.842961) can0 477#01009C7A99001400
(1426617826.867614) can0 475#83131F0000060400
(1426617826.868080) can0 306#0C004800E3000000
(1426617826.868408) can0 294#59FF9CFFFA00EFFF
(1426617826.868665) can0 270#9E13B6FF00002202
(1426617826.939918) can0 477#01009A7A99001400
(1426617826.967791) can0 475#87131F0000060000
(1426617826.968081) can0 306#0D004500D9000000
(1426617826.968332) can0 294#A9FF9CFFFA00F4FF
(1426617826.968577) can0 270#9E13D9FF00002102
(1426617827.036889) can0 477#03009A7A99001400
(1426617827.067552) can0 475#85131F0000060400
(1426617827.067973) can0 306#0E004300D4000000
(1426617827.068291) can0 294#82FF9CFFFA00F7FF
(1426617827.068710) can0 270#9D13C8FF00000F02
(1426617827.133897) can0 477#08009A7A99001400
(1426617827.167732) can0 475#8D131F0000060000
(1426617827.168030) can0 306#0E004000C8000000
(1426617827.168279) can0 294#00009CFFFA00FAFF
(1426617827.168532) can0 270#9D13000000002302
(1426617827.230801) can0 477#0800977A99001400
(1426617827.267504) can0 475#89131F0000060000
(1426617827.267786) can0 306#0E003D00BF000000
(1426617827.268186) can0 294#00009CFFFA00FDFF
(1426617827.268536) can0 270#9D13000000002202
(1426617827.327822) can0 477#0800977A99001400
(1426617827.367461) can0 475#89131F0000060000
(1426617827.367927) can0 306#0F003C00BC000000
(1426617827.368180) can0 294#00009CFFFA00FEFF
(1426617827.368426) can0 270#9D1300000000FB01
(1426617827.424793) can0 477#0900977A99001400
(1426617827.467620) can0 475#85131F0000060000
(1426617827.467940) can0 306#0F003700AE000000
(1426617827.468188) can0 294#00009CFFFA00FEFF
(1426617827.468522) can0 270#9D1300000000D401
(1426617827.521718) can0 477#0900967A99001400
(1426617827.567662) can0 475#7F131F0000060000
(1426617827.567976) can0 306#10003300A2000000
(1426617827.569128) can0 270#9D1300000000AD01
(1426617827.569395) can0 294#00009CFFFA00FFFF
(1426617827.618860) can0 477#0900987A99001400
(1426617827.667598) can0 475#81131F0000060000
(1426617827.667898) can0 306#10003300A1000000
(1426617827.668162) can0 294#00009CFFFA00FFFF
(1426617827.668504) can0 270#9D1300000000C001
(1426617827.715695) can0 477#0900977A99001400
(1426617827.768101) can0 475#87131F0000060000
(1426617827.768418) can0 306#10002E0092000000
(1426617827.768675) can0 294#00009CFFFA00FFFF
(1426617827.768921) can0 270#9D13000000007301
(1426617827.812683) can0 477#0A00977A99001400
(1426617827.867982) can0 475#81131F0000060000
(1426617827.868317) can0 306#100028007D000000
(1426617827.868658) can0 270#9D13000000002401
(1426617827.868868) can0 294#00009CFFFA00FFFF
(1426617827.909756) can0 477#0A00977A99001400
(1426617827.967892) can0 475#85131F0000060000
(1426617827.968206) can0 306#1000240073000000
(1426617827.968470) can0 294#00009CFFFA00FFFF
(1426617827.968723) can0 270#9D13000000002401
(1426617828.006585) can0 477#0A00977A99001400
(1426617828.067866) can0 475#8D131F0000060000
(1426617828.068225) can0 306#100022006C000000
(1426617828.068570) can0 294#00009CFFFA00FFFF
(1426617828.068928) can0 270#9D1300000000FE00
(1426617828.103653) can0 477#0A00987A99001400
(1426617828.167829) can0 475#89131F0000060000
(1426617828.168132) can0 306#11001D005D000000
(1426617828.168408) can0 294#00009CFFFA00FFFF
(1426617828.168656) can0 270#9D1300000000D600
(1426617828.200485) can0 477#0A00987A99001400
(1426617828.267856) can0 475#7F131F0000060000
(1426617828.268159) can0 306#110018004C000000
(1426617828.268444) can0 294#00009CFFFA00FFFF
(1426617828.268789) can0 270#9D13000000009C00
(1426617828.297485) can0 477#0A00987A99001400
(1426617828.367910) can0 475#83131F0000060000
(1426617828.368228) can0 306#1000150042000000
(1426617828.368482) can0 294#00009CFFFA00FFFF
(1426617828.368737) can0 270#9D1300000000AF00
(1426617828.394423) can0 477#0A00997A99001400
(1426617828.467878) can0 475#89131F0000060000
(1426617828.468177) can0 306#1100100033000000
(1426617828.468611) can0 294#00009CFFFA00FFFF
(1426617828.468971) can0 270#9D13000000006100
(1426617828.491381) can0 477#0A009A7A99001400
(1426617828.567997) can0 475#7F131E0000060000
(1426617828.568305) can0 306#11000C0026000000
(1426617828.568552) can0 294#00009CFFFA000000
(1426617828.568798) can0 270#9D13000000003A00
(1426617828.588437) can0 477#0A009B7A99001400
(1426617828.667995) can0 475#8E131E0000060000
(1426617828.668297) can0 306#120009001F000000
(1426617828.668640) can0 294#00009CFFFA000000
(1426617828.668894) can0 270#9D13000000003A00
(1426617828.685358) can0 477#0B009A7A99001400
(1426617828.768009) can0 475#8D131E0000060000
(1426617828.768289) can0 306#1200070016000000
(1426617828.769565) can0 270#9D13000000001300
(1426617828.770130) can0 294#00009CFFFA000000
(1426617828.783708) can0 477#0B009A7A99001400
(1426617828.867953) can0 475#7F131E0000060000
(1426617828.868267) can0 306#1200050011000000
(1426617828.868592) can0 294#00009CFFFA000000
(1426617828.868849) can0 270#9D13000000000000
(1426617828.879296) can0 477#0A009B7A99001400
(1426617828.967895) can0 475#8D131E0000060000
(1426617828.968191) can0 306#120003000B000000
(1426617828.968436) can0 294#00009CFFFA000000
(1426617828.968716) can0 270#9D13000000000000
(1426617828.976263) can0 477#0A009A7A99001400
(1426617829.067874) can0 475#7F131E0000060000
(1426617829.068196) can0 306#1200010004000000
(1426617829.068493) can0 294#00009CFFFA000000
(1426617829.068791) can0 270#9D13000000000000
(1426617829.073235) can0 477#0A009B7A99001400
(1426617829.168117) can0 475#83131E0000060000
(1426617829.168424) can0 306#1200000000000000
(1426617829.168671) can0 294#00009CFFFA000000
(1426617829.168954) can0 270#9E13000000000000
(1426617829.170336) can0 477#09009B7A99001400
(1426617829.259115) can0 475#7F131E0000020000
(1426617829.259434) can0 306#1200000000000000
(1426617829.259703) can0 294#00009CFFFA000000
(1426617829.259967) can0 270#9E13000000000000
(1426617829.267234) can0 477#09009C7A99001400
(1426617829.358777) can0 475#87131E0000020000
(1426617829.359393) can0 306#1200000000000000
(1426617829.359628) can0 294#00009CFFFA000000
(1426617829.365386) can0 477#08009D7A99001400
(1426617829.462127) can0 477#0A009C7A99001400
(1426617829.467584) can0 475#81131E0000020000
(1426617829.468035) can0 306#1200000000000000
(1426617829.468287) can0 294#E9FF9CFFFA000000
(1426617829.468573) can0 270#9E13F5FF00001300
(1426617829.558025) can0 477#0A009C7A99001400
(1426617829.567557) can0 475#85131E0000020000
(1426617829.567931) can0 306#1200000000000000
(1426617829.568195) can0 294#99FF9CFFFA000000
(1426617829.568451) can0 270#9E13D2FF00002700
(1426617829.655062) can0 477#0B009D7A99001400
(1426617829.667534) can0 475#87131E0000020400
(1426617829.667906) can0 306#1200000000000000
(1426617829.668166) can0 294#49FF9CFFFA000100
(1426617829.668426) can0 270#9E13AEFF00003A00
(1426617829.752019) can0 477#0B009D7A99001400
(1426617829.767475) can0 475#90131E0000020600
(1426617829.767750) can0 306#1100FEFFF8FFFFFF
(1426617829.768110) can0 294#01FF9CFFFA000300
(1426617829.768378) can0 270#9E138FFF00007500
(1426617829.849209) can0 477#0D009D7A99001400
(1426617829.867683) can0 475#7F131E0000020800
(1426617829.867961) can0 306#1100F8FFE6FFFFFF
(1426617829.868210) can0 294#BBFE9CFFFA000600
(1426617829.868462) can0 270#9E136FFF0000C200
(1426617829.945984) can0 477#10009B7A99001400
(1426617829.958429) can0 475#98131E0000020A00
(1426617829.958733) can0 306#1000F1FFCAFFFFFF
(1426617829.958980) can0 294#79FE9CFFFA000B00
(1426617829.959232) can0 270#9E1352FF00003801
(1426617830.042892) can0 477#1800987A99001400
(1426617830.058385) can0 475#7F131E0000021500
(1426617830.058681) can0 306#1000E7FFA6FFFFFF
(1426617830.059072) can0 294#6EFC9CFFFA001500
(1426617830.059323) can0 270#9D136AFE0000FA01
(1426617830.139885) can0 477#2200907A99001400
(1426617830.158326) can0 475#7D131E0000023700
(1426617830.158800) can0 306#1000E6FFBBFFFFFF
(1426617830.159058) can0 294#A8F79CFFFA002C00
(1426617830.159336) can0 270#9D134BFC00001101
(1426617830.236865) can0 477#38008E7A99001400
(1426617830.258332) can0 475#85131E0000023400
(1426617830.258704) can0 306#1000EEFFC0FFFFFF
(1426617830.258983) can0 294#A2F89CFFFA005300
(1426617830.259231) can0 270#9C13BAFC00009A01
(1426617830.333861) can0 477#3D00837A99001400
(1426617830.358268) can0 475#83131E0000023F00
(1426617830.358713) can0 306#1000EBFFBCFFFFFF
(1426617830.358960) can0 294#14F79CFFFA006A00
(1426617830.359212) can0 270#9A1309FC00009901
(1426617830.430808) can0 477#46007C7A99001400
(1426617830.458353) can0 475#7D131E0000024100
(1426617830.458779) can0 306#1100E6FFAAFFFFFF
(1426617830.459034) can0 270#9A13E6FB0000C001
(1426617830.459234) can0 294#C6F69CFFFA007F00
(1426617830.527763) can0 477#5800727A99001400
(1426617830.558231) can0 475#75131E0000024100
(1426617830.558671) can0 306#1000E2FF9AFFFFFF
(1426617830.558923) can0 294#ACF69CFFFA009600
(1426617830.559178) can0 270#9813DBFB00000D02
(1426617830.624757) can0 477#63006D7A99001400
(1426617830.658414) can0 475#7B131E0000024700
(1426617830.658721) can0 306#0F00DDFF8BFFFFFF
(1426617830.658975) can0 294#30F69CFFFA00AC00
(1426617830.659259) can0 270#9613A4FB00002102
(1426617830.721720) can0 477#6F00667A99001400
(1426617830.758389) can0 475#74131E0000024900
(1426617830.758696) can0 306#0F00D7FF7AFFFFFF
(1426617830.758966) can0 294#92F59CFFFA00C300
(1426617830.759216) can0 270#96135EFB00006E02
(1426617830.818736) can0 477#7E005E7A99001400
(1426617830.858545) can0 475#77131E0000024E00
(1426617830.858848) can0 306#0F00D1FF6BFFFFFF
(1426617830.859097) can0 294#E6F49CFFFA00DB00
(1426617830.859338) can0 270#941311FB0000A902
(1426617830.915651) can0 477#8600527A99001400
(1426617830.958605) can0 475#74131E0000025200
(1426617830.958929) can0 306#0E00CCFF5AFFFFFF
(1426617830.959179) can0 294#69F49CFFFA00F600
(1426617830.959423) can0 270#9213DAFA00000B03
(1426617831.012594) can0 477#9C004A7A99001400
(1426617831.058597) can0 475#74131E0000025200
(1426617831.058902) can0 294#2DF49CFFFA001001
(1426617831.059101) can0 306#0F00C6FF44FFFFFF
(1426617831.059354) can0 270#9213BFFA00001D03
(1426617831.109597) can0 477#A8003C7A99001400
(1426617831.158468) can0 475#79131E0000025400
(1426617831.158804) can0 306#1000C0FF32FFFFFF
(1426617831.159048) can0 294#21F49CFFFA002D01
(1426617831.159293) can0 270#9013BAFA00005903
(1426617831.206558) can0 477#BB00337A99001400
(1426617831.258510) can0 475#77131E0000025900
(1426617831.258799) can0 306#1000BAFF20FFFFFF
(1426617831.259047) can0 294#02F49CFFFA004B01
(1426617831.259291) can0 270#8E13ACFA00009303
(1426617831.303603) can0 477#D000237A99001400
(1426617831.358392) can0 475#6C131E0000025900
(1426617831.358714) can0 306#1000B3FF0AFFFFFF
(1426617831.358987) can0 294#74F39CFFFA006801
(1426617831.359236) can0 270#8E136DFA0000DF03
(1426617831.400503) can0 477#DE001A7A99001400
(1426617831.458417) can0 475#72131E0000025A00
(1426617831.458724) can0 306#1000ADFFF6FEFFFF
(1426617831.458980) can0 294#07F39CFFFA008601
(1426617831.459381) can0 270#8A133CFA00001904
(1426617831.497443) can0 477#F100107A99001400
(1426617831.558414) can0 475#6E131E0000025D00
(1426617831.558696) can0 306#1000A6FFE0FEFFFF
(1426617831.559082) can0 294#A9F29CFFFA00A601
(1426617831.559337) can0 270#871313FA0000A104
(1426617831.594416) can0 477#0101027A99001400
(1426617831.658379) can0 475#62131E0000025E00
(1426617831.658678) can0 306#11009FFFCBFEFFFF
(1426617831.659071) can0 294#9DF29CFFFA00C601
(1426617831.659321) can0 270#87130DFA00009D04
(1426617831.691398) can0 477#1501F77999001400
(1426617831.758550) can0 475#62131F0000026000
(1426617831.758842) can0 306#110097FFB2FEFFFF
(1426617831.759098) can0 294#B3F29CFFFA00E601
(1426617831.759366) can0 270#841317FA0000ED04
(1426617831.788539) can0 477#2901E97999001400
(1426617831.858475) can0 475#6E131F0000026300
(1426617831.858813) can0 306#100091FF9EFEFFFF
(1426617831.859087) can0 294#65F29CFFFA000602
(1426617831.859335) can0 270#8113F4F900002705
(1426617831.885312) can0 477#4201DA7999001400
(1426617831.958312) can0 475#68131F0000026200
(1426617831.958696) can0 306#100089FF87FEFFFF
(1426617831.958976) can0 294#3FF29CFFFA002602
(1426617831.959242) can0 270#7E13E3F900007505
(1426617831.982298) can0 477#5301CD7999001400
(1426617832.058304) can0 475#5C131F0000026500
(1426617832.058717) can0 306#110084FF75FEFFFF
(1426617832.059002) can0 294#EBF19CFFFA004C02
(1426617832.059360) can0 270#7E13BEF90000D305
(1426617832.079814) can0 477#6401C17999001400
(1426617832.158408) can0 475#62131F0000026800
(1426617832.158721) can0 306#11007CFF5FFEFFFF
(1426617832.158997) can0 294#ABF19CFFFA006D02
(1426617832.159249) can0 270#7B13A2F90000F705
(1426617832.176219) can0 477#7B01AF7999001400
(1426617832.258200) can0 475#51131F0000026600
(1426617832.258488) can0 306#110074FF48FEFFFF
(1426617832.258879) can0 294#32F19CFFFA008E02
(1426617832.259131) can0 270#76136CF90000A706
(1426617832.273212) can0 477#8C01A07999001400
(1426617832.358662) can0 475#53131F0000026900
(1426617832.358942) can0 306#11006FFF34FEFFFF
(1426617832.359301) can0 294#5BF19CFFFA00B502
(1426617832.359559) can0 270#76137EF90000A606
(1426617832.371302) can0 477#A3018C7999001400
(1426617832.458434) can0 475#4F131F0000026A00
(1426617832.458761) can0 306#100068FF20FEFFFF
(1426617832.459031) can0 294#0BF19CFFFA00DA02
(1426617832.459279) can0 270#72135BF900000407
(1426617832.468230) can0 477#BB01817999001400
(1426617832.558341) can0 475#53131F0000026D00
(1426617832.558637) can0 306#0F0061FF0BFEFFFF
(1426617832.558892) can0 294#55F09CFFFA000103
(1426617832.559136) can0 270#6F130AF900000307
(1426617832.564120) can0 477#D601707999001400
(1426617832.658295) can0 475#49131F0000026F00
(1426617832.658642) can0 306#0F005AFFF5FDFFFF
(1426617832.658895) can0 294#61F09CFFFA002503
(1426617832.659140) can0 270#6F130FF900006807
(1426617832.661109) can0 477#EE01627999001400
(1426617832.758401) can0 475#49131F0000026F00
(1426617832.758716) can0 306#0E0053FFDFFDFFFF
(1426617832.758978) can0 294#24F09CFFFA004D03
(1426617832.759239) can0 270#6B13F4F800009D07
(1426617832.759484) can0 477#FF014A7999001400
(1426617832.855016) can0 477#0E02407999001400
(1426617832.858420) can0 475#4D131F0000026D00
(1426617832.858751) can0 306#0E004CFFC7FDFFFF
(1426617832.859004) can0 294#78F09CFFFA007103
(1426617832.860107) can0 270#67131AF900003708
(1426617832.952013) can0 477#2B02317999001400
(1426617832.958507) can0 475#3E131F0000026F00
(1426617832.958784) can0 306#0D0044FFB0FDFFFF
(1426617832.959031) can0 294#6EF09CFFFA009603
(1426617832.959272) can0 270#671315F900004508
(1426617833.048970) can0 477#3C021A7999001400
(1426617833.058503) can0 475#49131F0000026E00
(1426617833.058896) can0 306#0D003DFF9AFDFFFF
(1426617833.059143) can0 294#35F09CFFFA00BA03
(1426617833.059389) can0 270#6213FCF80000BF08
(1426617833.145927) can0 477#5B020B7999001400
(1426617833.158423) can0 475#45131F0000027300
(1426617833.158890) can0 306#0D0036FF85FDFFFF
(1426617833.159145) can0 294#63EF9CFFFA00E103
(1426617833.159401) can0 270#5F139FF80000AB08
(1426617833.242948) can0 477#6102FC7899001400
(1426617833.258623) can0 475#41131F0000027100
(1426617833.258899) can0 306#0C002FFF6EFDFFFF
(1426617833.259137) can0 294#C9EF9CFFFA000804
(1426617833.259384) can0 270#5F13CCF800003E09
(1426617833.339850) can0 477#8102E87899001400
(1426617833.358540) can0 475#45131F0000027400
(1426617833.358853) can0 306#0D0028FF58FDFFFF
(1426617833.359105) can0 294#9EEF9CFFFA002F04
(1426617833.359350) can0 270#5A13B9F800003E09
(1426617833.436878) can0 477#9F02DA7899001400
(1426617833.458371) can0 475#36131F0000027700
(1426617833.458744) can0 306#0D0022FF43FDFFFF
(1426617833.459011) can0 294#2BEF9CFFFA005904
(1426617833.459275) can0 270#561386F800007609
(1426617833.533835) can0 477#A802C97899001400
(1426617833.558487) can0 475#2E13200000027600
(1426617833.558780) can0 306#0D001AFF2AFDFFFF
(1426617833.559025) can0 294#45EF9CFFFA007C04
(1426617833.559269) can0 270#561391F80000C309
(1426617833.630754) can0 477#BF02BD7899001400
(1426617833.658508) can0 475#3013200000027600
(1426617833.658789) can0 306#0D0012FF12FDFFFF
(1426617833.659038) can0 294#D6EF9CFFFA009F04
(1426617833.659281) can0 270#5213D1F80000100A
(1426617833.727931) can0 477#DD02A87899001400
(1426617833.758463) can0 475#3013200000027700
(1426617833.758765) can0 306#0E000AFFFBFCFFFF
(1426617833.759015) can0 294#67EF9CFFFA00C004
(1426617833.759261) can0 270#4E13A0F800002F0A
(1426617833.824702) can0 477#ED029B7899001400
(1426617833.858465) can0 475#3413200000027400
(1426617833.858899) can0 306#0E0002FFE3FCFFFF
(1426617833.859150) can0 294#C8EF9CFFFA00E104
(1426617833.859394) can0 270#4E13CBF80000DD0A
(1426617833.921658) can0 477#EB028B7899001400
(1426617833.958648) can0 475#2C13200000027400
(1426617833.958937) can0 306#0E00FBFECAFCFFFF
(1426617833.959192) can0 294#19F09CFFFA000205
(1426617833.959439) can0 270#4A13EFF80000C60A
(1426617834.018667) can0 477#F702807899001400
(1426617834.058663) can0 475#2C13200000027800
(1426617834.059013) can0 306#0D00F4FEB6FCFFFF
(1426617834.059270) can0 294#B2EF9CFFFA002005
(1426617834.059517) can0 270#4713C2F80000FE0A
(1426617834.115647) can0 477#0E036A7899001400
(1426617834.158662) can0 475#2513200000027200
(1426617834.158959) can0 306#0E00ECFE9FFCFFFF
(1426617834.159210) can0 294#ADEF9CFFFA004505
(1426617834.159491) can0 270#4713BFF800000A0C
(1426617834.212564) can0 477#1C035E7899001400
(1426617834.258558) can0 475#2113200000046B00
(1426617834.258913) can0 306#0E00E5FE87FCFFFF
(1426617834.259173) can0 294#5AF19CFFFA005205
(1426617834.259420) can0 270#42137EF90000690B
(1426617834.309541) can0 477#6B026F7899001400
(1426617834.358476) can0 475#4313200000044900
(1426617834.358798) can0 306#0E00E6FE8FFCFFFF
(1426617834.359048) can0 294#22F69CFFFA007F04
(1426617834.359292) can0 270#44139DFB00000F0B
(1426617834.406518) can0 477#8101F57899001400
(1426617834.458497) can0 475#5913200000042800
(1426617834.458797) can0 306#0F00E2FE7EFCFFFF
(1426617834.459052) can0 294#D5FA9CFFFA003403
(1426617834.459326) can0 270#4413B4FD0000E00A
(1426617834.503591) can0 477#AE00797999001400
(1426617834.558519) can0 475#7413200000040600
(1426617834.558843) can0 306#0F00E1FE82FCFFFF
(1426617834.559093) can0 294#5AFF9CFFFA00CC01
(1426617834.559336) can0 270#6713B6FF0000590A
(1426617834.600470) can0 477#0500E97999001400
(1426617834.658465) can0 475#7513200000040000
(1426617834.658844) can0 306#1000ECFEAEFCFFFF
(1426617834.659117) can0 294#26009CFFFA00B200
(1426617834.659662) can0 270#8A1310000000F708
(1426617834.697459) can0 477#FAFF407A99001400
(1426617834.758671) can0 475#7D13200000040500
(1426617834.759008) can0 306#1000FAFEBEFCFFFF
(1426617834.759268) can0 294#25019CFFFA003100
(1426617834.759513) can0 270#8A1382000000D009
(1426617834.794433) can0 477#49FF537A99001400
(1426617834.858621) can0 475#9613200000041C00
(1426617834.858936) can0 306#0F00DCFE72FCFFFF
(1426617834.859189) can0 294#1C039CFFFA005EFF
(1426617834.859437) can0 270#901361010000B309
(1426617834.891383) can0 477#9FFFD37A99001400
(1426617834.958629) can0 475#8B13200000041300
(1426617834.958920) can0 306#1000E5FE8AFCFFFF
(1426617834.959169) can0 294#37039CFFFA0060FF
(1426617834.959415) can0 270#A3136D0100008409
(1426617834.988346) can0 477#68FF8B7A99001400
(1426617835.058698) can0 475#8B13200000041800
(1426617835.059018) can0 306#0F00E5FE8FFCFFFF
(1426617835.059295) can0 294#94039CFFFA0038FF
(1426617835.059550) can0 270#A313960100006309
(1426617835.086155) can0 477#73FFB37A99001400
(1426617835.158536) can0 475#9013200000041800
(1426617835.158843) can0 306#0F00EAFE9CFCFFFF
(1426617835.159099) can0 294#92039CFFFA002BFF
(1426617835.159357) can0 270#A113960100002C09
(1426617835.182282) can0 477#62FFB57A99001400
(1426617835.258647) can0 475#9813200000042100
(1426617835.258969) can0 306#0F00EEFEA9FCFFFF
(1426617835.259243) can0 294#0C059CFFFA0019FF
(1426617835.259489) can0 270#A3133D020000F208
(1426617835.279233) can0 477#24FFC07A99001400
(1426617835.358451) can0 475#9413200000042B00
(1426617835.358747) can0 306#0F00F9FED0FCFFFF
(1426617835.359023) can0 294#38069CFFFA00D4FE
(1426617835.359271) can0 270#A313C30200009408
(1426617835.376229) can0 477#09FFE47A99001400
(1426617835.458246) can0 475#9813200000042D00
(1426617835.458532) can0 306#0E00F9FEC8FCFFFF
(1426617835.458889) can0 294#4F069CFFFA00A5FE
(1426617835.459130) can0 270#A913CD0200000809
(1426617835.473220) can0 477#07FF007B99001400
(1426617835.558471) can0 475#9A13200000042900
(1426617835.558774) can0 306#0E00FDFEDCFCFFFF
(1426617835.559036) can0 294#15069CFFFA00A3FE
(1426617835.559309) can0 270#AE13B30200003108
(1426617835.570250) can0 477#21FFFD7A99001400
(1426617835.658673) can0 475#9A13200000042B00
(1426617835.658960) can0 306#0D0006FFF4FCFFFF
(1426617835.659207) can0 294#46069CFFFA00A7FE
(1426617835.659449) can0 270#AE13C90200002D08
(1426617835.667270) can0 477#19FFFC7A99001400
(1426617835.758578) can0 475#9413200000042A00
(1426617835.758865) can0 306#0D0009FFFFFCFFFF
(1426617835.759113) can0 294#26069CFFFA00ACFE
(1426617835.759356) can0 270#AD13BB020000E207
(1426617835.765303) can0 477#28FF027B99001400
(1426617835.858387) can0 475#9613200000042B00
(1426617835.858733) can0 306#0D0011FF17FDFFFF
(1426617835.858985) can0 294#46069CFFFA00B8FE
(1426617835.859224) can0 270#AD13C9020000BB07
(1426617835.861009) can0 477#26FFFC7A99001400
(1426617835.958040) can0 477#2EFFFF7A99001400
(1426617835.958772) can0 475#9813200000042B00
(1426617835.959063) can0 306#0C0015FF24FDFFFF
(1426617835.959315) can0 294#34069CFFFA00BDFE
(1426617835.959560) can0 270#AD13C1020000A607
(1426617836.055014) can0 477#39FFFF7A99001400
(1426617836.058511) can0 475#9813200000042C00
(1426617836.058791) can0 306#0C001CFF3BFDFFFF
(1426617836.059042) can0 294#2D069CFFFA00CAFE
(1426617836.059286) can0 270#AD13BE0200005707
(1426617836.151950) can0 477#3BFFFB7A99001400
(1426617836.158470) can0 475#9813200000042A00
(1426617836.158884) can0 306#0C0023FF50FDFFFF
(1426617836.159147) can0 294#1F069CFFFA00D3FE
(1426617836.159410) can0 270#AD13B8020000F806
(1426617836.249002) can0 477#3FFFF97A99001400
(1426617836.258510) can0 475#9613200000042C00
(1426617836.258887) can0 306#0C0028FF60FDFFFF
(1426617836.259145) can0 294#3A069CFFFA00DBFE
(1426617836.259388) can0 270#AD13C40200000D07
(1426617836.345890) can0 477#4CFFFA7A99001400
(1426617836.358628) can0 475#9813200000042C00
(1426617836.358934) can0 306#0D002DFF70FDFFFF
(1426617836.359184) can0 294#2B069CFFFA00E4FE
(1426617836.359429) can0 270#AD13BD020000A706
(1426617836.442881) can0 477#50FFF67A99001400
(1426617836.458556) can0 475#9813200000042B00
(1426617836.459265) can0 306#0D0035FF89FDFFFF
(1426617836.459799) can0 270#AC13C50200008206
(1426617836.539881) can0 477#55FFF67A99001400
(1426617836.558544) can0 475#9013200000042B00
(1426617836.558857) can0 306#0D0039FF96FDFFFF
(1426617836.559121) can0 294#2A069CFFFA00F7FE
(1426617836.559367) can0 270#AC13BD0200005806
(1426617836.636809) can0 477#61FFF57A99001400
(1426617836.658577) can0 475#A813200000042B00
(1426617836.658875) can0 306#0D0042FFB1FDFFFF
(1426617836.659121) can0 294#33069CFFFA0004FF
(1426617836.659353) can0 270#AC13C1020000F605
(1426617836.733796) can0 477#62FFEF7A99001400
(1426617836.758594) can0 475#9A13200000042B00
(1426617836.758907) can0 306#0D0048FFC1FDFFFF
(1426617836.759155) can0 294#38069CFFFA000CFF
(1426617836.759404) can0 270#AB13C3020000BC05
(1426617836.830757) can0 477#6DFFF07A99001400
(1426617836.858475) can0 475#9213200000042B00
(1426617836.858789) can0 306#0D004EFFD9FDFFFF
(1426617836.859035) can0 294#33069CFFFA0017FF
(1426617836.859280) can0 270#AB13C10200009605
(1426617836.927737) can0 477#6EFFEC7A99001400
(1426617836.958482) can0 475#9C13200000042A00
(1426617836.958778) can0 306#0D0054FFEAFDFFFF
(1426617836.959030) can0 294#24069CFFFA0020FF
(1426617836.959273) can0 270#AB13BA0200004605
(1426617837.024681) can0 477#70FFEC7A99001400
(1426617837.058452) can0 475#9413200000042A00
(1426617837.058936) can0 306#0C0059FFF8FDFFFF
(1426617837.059192) can0 294#19069CFFFA0028FF
(1426617837.059439) can0 270#AA13B50200002005
(1426617837.121676) can0 477#7AFFE67A99001400
(1426617837.158428) can0 475#8D13200000042B00
(1426617837.158737) can0 306#0C0061FF12FEFFFF
