(1427659921.714636) can0 475#7A131C0000000000
(1427659921.714809) can0 306#1600000000000000
(1427659921.715064) can0 294#00009CFFFA000000
(1427659921.715356) can0 270#9A13000000000000
(1427659921.786506) can0 477#0500887A77001400
(1427659921.814706) can0 475#7B131C0000000000
(1427659921.815028) can0 306#1500000000000000
(1427659921.815293) can0 294#00009CFFFA000000
(1427659921.815517) can0 270#9A13000000000000
(1427659921.883676) can0 477#0500877A77001400
(1427659921.914620) can0 475#83131C0000000000
(1427659921.914823) can0 306#1500000000000000
(1427659921.914975) can0 294#00009CFFFA000000
(1427659921.915286) can0 270#9A13000000000000
(1427659921.979410) can0 477#0500887A77001400
(1427659922.014628) can0 475#7B131C0000000000
(1427659922.014828) can0 306#1400000000000000
(1427659922.015199) can0 294#00009CFFFA000000
(1427659922.015520) can0 270#9A13000000000000
(1427659922.076464) can0 477#0500887A77001400
(1427659922.114799) can0 475#7A131C0000000000
(1427659922.115076) can0 306#1400000000000000
(1427659922.115319) can0 294#00009CFFFA000000
(1427659922.115569) can0 270#9A13000000000000
(1427659922.173306) can0 477#0500897A77001400
(1427659922.214741) can0 475#7A131C0000000000
(1427659922.215041) can0 306#1400000000000000
(1427659922.215339) can0 294#00009CFFFA000000
(1427659922.215630) can0 270#9A13000000000000
(1427659922.270301) can0 477#0500887A77001400
(1427659922.314715) can0 475#7B131C0000000000
(1427659922.315002) can0 306#1400000000000000
(1427659922.315249) can0 294#00009CFFFA000000
(1427659922.315496) can0 270#9A13000000000000
(1427659922.367282) can0 477#0500877A77001400
(1427659922.414727) can0 475#81131C0000000000
(1427659922.414992) can0 306#1400000000000000
(1427659922.415238) can0 294#00009CFFFA000000
(1427659922.415559) can0 270#9A13000000000000
(1427659922.464239) can0 477#0500887A77001400
(1427659922.514670) can0 475#7D131C0000000000
(1427659922.514964) can0 306#1500000000000000
(1427659922.515210) can0 294#00009CFFFA000000
(1427659922.515452) can0 270#9A13000000000000
(1427659922.561243) can0 477#0500887A77001400
(1427659922.614651) can0 475#7A131C0000000000
(1427659922.614922) can0 306#1500000000000000
(1427659922.615166) can0 294#00009CFFFA000000
(1427659922.615488) can0 270#9A13000000000000
(1427659922.658195) can0 477#0500877A77001400
(1427659922.714665) can0 475#7A131C0000000000
(1427659922.714993) can0 306#1500000000000000
(1427659922.715245) can0 294#00009CFFFA000000
(1427659922.715491) can0 270#9A13000000000000
(1427659922.755119) can0 477#0500887A77001400
(1427659922.814620) can0 475#7D131C0000000000
(1427659922.814929) can0 306#1500000000000000
(1427659922.815200) can0 294#00009CFFFA000000
(1427659922.815530) can0 270#9A13000000000000
(1427659922.852107) can0 477#0500887A77001400
(1427659922.914584) can0 475#7D131C0000000000
(1427659922.914885) can0 306#1400000000000000
(1427659922.915292) can0 294#00009CFFFA000000
(1427659922.915548) can0 270#9A13000000000000
(1427659922.949099) can0 477#0500887A77001400
(1427659923.014775) can0 475#83131C0000000000
(1427659923.015095) can0 306#1400000000000000
(1427659923.015346) can0 294#00009CFFFA000000
(1427659923.015692) can0 270#9A13000000000000
(1427659923.046202) can0 477#0500887A77001400
(1427659923.114952) can0 475#7A131C0000000000
(1427659923.115257) can0 306#1400000000000000
(1427659923.115506) can0 294#00009CFFFA000000
(1427659923.115750) can0 270#9A13000000000000
(1427659923.143028) can0 477#0500887A77001400
(1427659923.214890) can0 475#7D131C0000000000
(1427659923.215260) can0 306#1500000000000000
(1427659923.215622) can0 270#9A13000000000000
(1427659923.215843) can0 294#00009CFFFA000000
(1427659923.239941) can0 477#0500887A77001400
(1427659923.314649) can0 475#76131C0000000000
(1427659923.314999) can0 306#1400000000000000
(1427659923.315268) can0 294#00009CFFFA000000
(1427659923.315523) can0 270#9A13000000000000
(1427659923.337153) can0 477#0500887A77001400
(1427659923.414627) can0 475#78131C0000000000
(1427659923.414977) can0 306#1400000000000000
(1427659923.415224) can0 294#00009CFFFA000000
(1427659923.415544) can0 270#9B13000000000000
(1427659923.433930) can0 477#0500887A77001400
(1427659923.514800) can0 475#76131C0000000000
(1427659923.515140) can0 306#1500000000000000
(1427659923.515389) can0 294#00009CFFFA000000
(1427659923.515633) can0 270#9A13000000000000
(1427659923.530855) can0 477#0500897A77001400
(1427659923.615195) can0 306#1500000000000000
(1427659923.615751) can0 294#00009CFFFA000000
(1427659923.616299) can0 270#9A13000000000000
(1427659923.627876) can0 477#0500897A77001400
(1427659923.714893) can0 475#8F131C0000000000
(1427659923.715351) can0 306#1400000000000000
(1427659923.715607) can0 294#00009CFFFA000000
(1427659923.715947) can0 270#9B13000000000000
(1427659923.724841) can0 477#0500897A77001400
(1427659923.814988) can0 475#7A131C0000000000
(1427659923.815277) can0 306#1400000000000000
(1427659923.815593) can0 294#00009CFFFA000000
(1427659923.815853) can0 270#9A13000000000000
(1427659923.821813) can0 477#0500887A77001400
(1427659923.915041) can0 475#7F131C0000000000
(1427659923.915345) can0 306#1400000000000000
(1427659923.915590) can0 294#00009CFFFA000000
(1427659923.915835) can0 270#9A13000000000000
(1427659923.918729) can0 477#0500897A77001400
(1427659924.014976) can0 475#7D131C0000000000
(1427659924.015290) can0 306#1500000000000000
(1427659924.015617) can0 294#00009CFFFA000000
(1427659924.015878) can0 270#9B13000000000000
(1427659924.016258) can0 477#0500897A77001400
(1427659924.112657) can0 477#0500897A77001400
(1427659924.114903) can0 475#81131C0000000000
(1427659924.115192) can0 306#1400000000000000
(1427659924.115457) can0 294#00009CFFFA000000
(1427659924.115703) can0 270#9B13000000000000
(1427659924.209652) can0 477#0500887A77001400
(1427659924.214917) can0 475#76131C0000000000
(1427659924.215203) can0 306#1400000000000000
(1427659924.215450) can0 294#00009CFFFA000000
(1427659924.215797) can0 270#9B13000000000000
(1427659924.306696) can0 477#0500897A77001400
(1427659924.314853) can0 475#76131C0000000000
(1427659924.315307) can0 306#1400000000000000
(1427659924.315521) can0 294#00009CFFFA000000
(1427659924.315768) can0 270#9A13000000000000
(1427659924.403610) can0 477#0500887A77001400
(1427659924.414766) can0 475#78131C0000000000
(1427659924.415064) can0 306#1300000000000000
(1427659924.415332) can0 294#00009CFFFA000000
(1427659924.415643) can0 270#9A13000000000000
(1427659924.500612) can0 477#0500897A77001400
(1427659924.514578) can0 475#74131C0000000000
(1427659924.515002) can0 306#1300000000000000
(1427659924.515274) can0 294#00009CFFFA000000
(1427659924.515527) can0 270#9A13000000000000
(1427659924.597546) can0 477#0500887A77001400
(1427659924.614831) can0 475#78131C0000000000
(1427659924.615145) can0 306#1400000000000000
(1427659924.615393) can0 294#00009CFFFA000000
(1427659924.615731) can0 270#9B13000000000000
(1427659924.694520) can0 477#0500897A77001400
(1427659924.714787) can0 475#76131C0000000000
(1427659924.715066) can0 306#1400000000000000
(1427659924.715310) can0 294#00009CFFFA000000
(1427659924.715553) can0 270#9B13000000000000
(1427659924.791502) can0 477#0500897A77001400
(1427659924.814536) can0 475#85131C0000000000
(1427659924.814929) can0 306#1400000000000000
(1427659924.815205) can0 294#00009CFFFA000000
(1427659924.815454) can0 270#9B13000000000000
(1427659924.888517) can0 477#0500887A77001400
(1427659924.914683) can0 475#7A131C0000000000
(1427659924.915001) can0 306#1400000000000000
(1427659924.915264) can0 294#00009CFFFA000000
(1427659924.915524) can0 270#9B13000000000000
(1427659924.986495) can0 477#0500897A77001400
(1427659925.014681) can0 475#87131C0000000000
(1427659925.014973) can0 306#1400000000000000
(1427659925.015221) can0 294#00009CFFFA000000
(1427659925.015462) can0 270#9B13000000000000
(1427659925.083288) can0 477#0500897A77001400
(1427659925.114649) can0 475#76131C0000000000
(1427659925.114942) can0 306#1400000000000000
(1427659925.115199) can0 294#00009CFFFA000000
(1427659925.115455) can0 270#9B13000000000000
(1427659925.180162) can0 477#0500897A77001400
(1427659925.214828) can0 475#7B131C0000000000
(1427659925.215147) can0 306#1400000000000000
(1427659925.215396) can0 294#00009CFFFA000000
(1427659925.215726) can0 270#9B13000000000000
(1427659925.276331) can0 477#05008A7A77001400
(1427659925.314616) can0 475#76131C0000000000
(1427659925.315050) can0 306#1400000000000000
(1427659925.315302) can0 294#00009CFFFA000000
(1427659925.315555) can0 270#9B13000000000000
(1427659925.373574) can0 477#0500897A77001400
(1427659925.414807) can0 475#85131C0000000000
(1427659925.415203) can0 306#1400000000000000
(1427659925.415489) can0 294#00009CFFFA000000
(1427659925.415849) can0 270#9B13000000000000
(1427659925.470566) can0 477#05008A7A77001400
(1427659925.514853) can0 475#7B131C0000000000
(1427659925.515223) can0 306#1400000000000000
(1427659925.515515) can0 294#00009CFFFA000000
(1427659925.515765) can0 270#9B13000000000000
(1427659925.567227) can0 477#0500897A77001400
(1427659925.615011) can0 475#76131C0000000000
(1427659925.615568) can0 306#1400000000000000
(1427659925.615881) can0 294#00009CFFFA000000
(1427659925.664225) can0 477#0500897A77001400
(1427659925.714656) can0 475#7B131C0000000000
(1427659925.715008) can0 306#1300000000000000
(1427659925.715255) can0 294#00009CFFFA000000
(1427659925.715502) can0 270#9B13000000000000
(1427659925.761185) can0 477#05008B7A77001400
(1427659925.814715) can0 475#76131C0000000000
(1427659925.815102) can0 306#1300000000000000
(1427659925.815417) can0 294#00009CFFFA000000
(1427659925.815702) can0 270#9B13000000000000
(1427659925.858119) can0 477#05008A7A77001400
(1427659925.915098) can0 475#7F131C0000000000
(1427659925.915418) can0 306#1200000000000000
(1427659925.915665) can0 294#00009CFFFA000000
(1427659925.915908) can0 270#9B13000000000000
(1427659925.955073) can0 477#0500897A77001400
(1427659926.015145) can0 475#7D131C0000000000
(1427659926.015440) can0 306#1200000000000000
(1427659926.015773) can0 294#00009CFFFA000000
(1427659926.016035) can0 270#9B13000000000000
(1427659926.052047) can0 477#0500897A77001400
(1427659926.115118) can0 475#76131C0000000000
(1427659926.115402) can0 306#1200000000000000
(1427659926.115671) can0 294#00009CFFFA000000
(1427659926.115936) can0 270#9B13000000000000
(1427659926.149063) can0 477#0500897A77001400
(1427659926.215091) can0 475#7B131C0000000000
(1427659926.215391) can0 306#1200000000000000
(1427659926.215688) can0 294#00009CFFFA000000
(1427659926.215995) can0 270#9B13000000000000
(1427659926.246004) can0 477#05008A7A77001400
(1427659926.315006) can0 475#85131C0000000000
(1427659926.315356) can0 306#1300000000000000
(1427659926.315632) can0 294#00009CFFFA000000
(1427659926.315890) can0 270#9B13000000000000
(1427659926.342949) can0 477#05008A7A77001400
(1427659926.415036) can0 475#81131C0000000000
(1427659926.415355) can0 306#1300000000000000
(1427659926.415607) can0 294#00009CFFFA000000
(1427659926.415948) can0 270#9B13000000000000
(1427659926.439953) can0 477#05008A7A77001400
(1427659926.514956) can0 475#7A131C0000000000
(1427659926.515429) can0 306#1300000000000000
(1427659926.515684) can0 294#00009CFFFA000000
(1427659926.515938) can0 270#9B13000000000000
(1427659926.536951) can0 477#05008B7A77001400
(1427659926.614930) can0 475#7D131C0000000000
(1427659926.615279) can0 306#1300000000000000
(1427659926.615549) can0 294#00009CFFFA000000
(1427659926.615911) can0 270#9B13000000000000
(1427659926.633928) can0 477#05008A7A77001400
(1427659926.715133) can0 475#78131C0000000000
(1427659926.715475) can0 306#1300000000000000
(1427659926.715712) can0 294#00009CFFFA000000
(1427659926.715965) can0 270#9B13000000000000
(1427659926.730928) can0 477#05008A7A77001400
(1427659926.815154) can0 475#87131C0000000000
(1427659926.815517) can0 306#1200000000000000
(1427659926.815875) can0 294#00009CFFFA000000
(1427659926.816145) can0 270#9B13000000000000
(1427659926.827884) can0 477#05008A7A77001400
(1427659926.915097) can0 475#76131C0000000000
(1427659926.915462) can0 306#1200000000000000
(1427659926.915728) can0 294#00009CFFFA000000
(1427659926.915983) can0 270#9B13000000000000
(1427659926.924975) can0 477#05008A7A77001400
(1427659927.014992) can0 475#7F131C0000000000
(1427659927.015355) can0 306#1200000000000000
(1427659927.015621) can0 294#00009CFFFA000000
(1427659927.015986) can0 270#9B13000000000000
(1427659927.021780) can0 477#05008A7A77001400
(1427659927.115044) can0 475#6E131C0000000000
(1427659927.115406) can0 306#1200000000000000
(1427659927.115672) can0 294#00009CFFFA000000
(1427659927.115927) can0 270#9B13000000000000
(1427659927.118756) can0 477#05008A7A77001400
(1427659927.214923) can0 475#81131C0000000000
(1427659927.215279) can0 306#1200000000000000
(1427659927.215541) can0 294#00009CFFFA000000
(1427659927.215846) can0 270#9B13000000000000
(1427659927.216158) can0 477#05008A7A77001400
(1427659927.312723) can0 477#05008B7A77001400
(1427659927.314970) can0 475#7D131C0000000000
(1427659927.315389) can0 306#1200000000000000
(1427659927.315659) can0 294#00009CFFFA000000
(1427659927.315916) can0 270#9B13000000000000
(1427659927.409711) can0 477#05008A7A77001400
(1427659927.414908) can0 475#7A131C0000000000
(1427659927.417246) can0 306#1200000000000000
(1427659927.417572) can0 294#00009CFFFA000000
(1427659927.506631) can0 477#05008A7A77001400
(1427659927.514845) can0 475#76131C0000000000
(1427659927.515210) can0 306#1100000000000000
(1427659927.515477) can0 294#00009CFFFA000000
(1427659927.515735) can0 270#9B13000000000000
(1427659927.603594) can0 477#05008B7A77001400
(1427659927.614816) can0 475#7D131C0000000000
(1427659927.615173) can0 306#1100000000000000
(1427659927.615441) can0 294#00009CFFFA000000
(1427659927.615700) can0 270#9B13000000000000
(1427659927.700714) can0 477#05008A7A77001400
(1427659927.714822) can0 475#7B131C0000000000
(1427659927.715161) can0 306#1200000000000000
(1427659927.715426) can0 294#00009CFFFA000000
(1427659927.715683) can0 270#9B13000000000000
(1427659927.797553) can0 477#05008B7A77001400
(1427659927.814743) can0 475#78131C0000000000
(1427659927.815089) can0 306#1200000000000000
(1427659927.815353) can0 294#00009CFFFA000000
(1427659927.815614) can0 270#9B13000000000000
(1427659927.894528) can0 477#05008B7A77001400
(1427659927.914794) can0 475#7A131C0000000000
(1427659927.915135) can0 306#1300000000000000
(1427659927.915395) can0 294#00009CFFFA000000
(1427659927.915651) can0 270#9B13000000000000
(1427659927.991615) can0 477#05008C7A77001400
(1427659928.014784) can0 475#81131C0000000000
(1427659928.015212) can0 306#1300000000000000
(1427659928.015480) can0 294#00009CFFFA000000
(1427659928.015745) can0 270#9B13000000000000
(1427659928.088450) can0 477#05008B7A77001400
(1427659928.114670) can0 475#7F131C0000000000
(1427659928.115029) can0 306#1300000000000000
(1427659928.115277) can0 294#00009CFFFA000000
(1427659928.115533) can0 270#9B13000000000000
(1427659928.185428) can0 477#05008C7A77001400
(1427659928.214718) can0 475#87131C0000000000
(1427659928.215144) can0 306#1300000000000000
(1427659928.215400) can0 294#00009CFFFA000000
(1427659928.215657) can0 270#9B13000000000000
(1427659928.283695) can0 477#05008C7A77001400
(1427659928.314924) can0 475#7D131C0000000000
(1427659928.315284) can0 306#1400000000000000
(1427659928.315549) can0 294#00009CFFFA000000
(1427659928.315804) can0 270#9B13000000000000
(1427659928.380094) can0 477#05008B7A77001400
(1427659928.414798) can0 475#83131C0000000000
(1427659928.415160) can0 306#1500000000000000
(1427659928.415426) can0 294#00009CFFFA000000
(1427659928.415684) can0 270#9B13000000000000
(1427659928.476329) can0 477#05008B7A77001400
(1427659928.514862) can0 475#7B131C0000000000
(1427659928.515231) can0 306#1400000000000000
(1427659928.515498) can0 294#00009CFFFA000000
(1427659928.515767) can0 270#9B13000000000000
(1427659928.574143) can0 477#05008B7A77001400
(1427659928.614773) can0 475#7A131C0000000000
(1427659928.615125) can0 306#1400000000000000
(1427659928.615389) can0 294#00009CFFFA000000
(1427659928.615644) can0 270#9B13000000000000
(1427659928.670272) can0 477#05008A7A77001400
(1427659928.714722) can0 475#7A131C0000000000
(1427659928.715077) can0 306#1500000000000000
(1427659928.715339) can0 294#00009CFFFA000000
(1427659928.715596) can0 270#9B13000000000000
(1427659928.767251) can0 477#05008B7A77001400
(1427659928.814703) can0 475#81131C0000000000
(1427659928.815072) can0 306#1500000000000000
(1427659928.815325) can0 294#00009CFFFA000000
(1427659928.816214) can0 270#9B13000000000000
(1427659928.864343) can0 477#05008B7A77001400
(1427659928.914744) can0 475#78131C0000000000
(1427659928.915054) can0 306#1500000000000000
(1427659928.915331) can0 294#00009CFFFA000000
(1427659928.915578) can0 270#9B13000000000000
(1427659928.961170) can0 477#05008B7A77001400
(1427659929.015167) can0 475#85131C0000000000
(1427659929.015483) can0 306#1500000000000000
(1427659929.015734) can0 294#00009CFFFA000000
(1427659929.016053) can0 270#9B13000000000000
(1427659929.058123) can0 477#05008B7A77001400
(1427659929.115416) can0 475#7B131C0000000000
(1427659929.115681) can0 306#1500000000000000
(1427659929.115924) can0 294#00009CFFFA000000
(1427659929.116165) can0 270#9B13000000000000
(1427659929.155063) can0 477#05008C7A77001400
(1427659929.215131) can0 475#81131C0000000000
(1427659929.215418) can0 306#1400000000000000
(1427659929.215673) can0 294#00009CFFFA000000
(1427659929.215956) can0 270#9B13000000000000
(1427659929.252083) can0 477#05008C7A77001400
(1427659929.315123) can0 475#72131C0000000000
(1427659929.315439) can0 306#1300000000000000
(1427659929.315687) can0 294#00009CFFFA000000
(1427659929.315936) can0 270#9B13000000000000
(1427659929.349194) can0 477#05008B7A77001400
(1427659929.414797) can0 475#7B131C0000000000
(1427659929.415238) can0 306#1300000000000000
(1427659929.415714) can0 270#9B13000000000000
(1427659929.415977) can0 294#00009CFFFA000000
(1427659929.446041) can0 477#05008B7A77001400
(1427659929.514586) can0 475#85131C0000000000
(1427659929.515035) can0 306#1300000000000000
(1427659929.515291) can0 294#00009CFFFA000000
(1427659929.515548) can0 270#9B13000000000000
(1427659929.543688) can0 477#05008B7A77001400
(1427659929.614989) can0 475#7A131C0000000000
(1427659929.615770) can0 306#1300000000000000
(1427659929.616004) can0 294#00009CFFFA000000
(1427659929.639909) can0 477#05008B7A77001400
(1427659929.715015) can0 475#7F131C0000000000
(1427659929.715368) can0 306#1300000000000000
(1427659929.715641) can0 294#00009CFFFA000000
(1427659929.715892) can0 270#9B13000000000000
(1427659929.736880) can0 477#05008B7A77001400
(1427659929.815193) can0 475#85131C0000000000
(1427659929.815551) can0 306#1300000000000000
(1427659929.815819) can0 294#00009CFFFA000000
(1427659929.816169) can0 270#9B13000000000000
(1427659929.833872) can0 477#05008C7A77001400
(1427659929.905133) can0 475#78131C0000000000
(1427659929.905484) can0 306#1300000000000000
(1427659929.905747) can0 294#00009CFFFA000000
(1427659929.905990) can0 270#9B13000000000000
(1427659929.930854) can0 477#05008B7A77001400
(1427659930.005186) can0 475#83131C0000000000
(1427659930.005524) can0 306#1300000000000000
(1427659930.005775) can0 294#00009CFFFA000000
(1427659930.006023) can0 270#9B13000000000000
(1427659930.027792) can0 477#05008C7A77001400
(1427659930.105131) can0 475#7B131C0000000000
(1427659930.105463) can0 306#1300000000000000
(1427659930.105719) can0 294#00009CFFFA000000
(1427659930.106001) can0 270#9B13000000000000
(1427659930.124812) can0 477#05008B7A77001400
(1427659930.205120) can0 475#78131C0000000000
(1427659930.205444) can0 306#1300000000000000
(1427659930.205695) can0 294#00009CFFFA000000
(1427659930.205938) can0 270#9B13000000000000
(1427659930.221777) can0 477#05008C7A77001400
(1427659930.305162) can0 475#7D131C0000000000
(1427659930.305482) can0 306#1300000000000000
(1427659930.305728) can0 294#00009CFFFA000000
(1427659930.305971) can0 270#9B13000000000000
(1427659930.318741) can0 477#05008B7A77001400
(1427659930.405040) can0 475#7F131C0000000000
(1427659930.405342) can0 306#1300000000000000
(1427659930.405615) can0 294#00009CFFFA000000
(1427659930.405862) can0 270#9B13000000000000
(1427659930.415700) can0 477#05008C7A77001400
(1427659930.505034) can0 475#83131C0000000000
(1427659930.505508) can0 306#1400000000000000
(1427659930.505759) can0 294#00009CFFFA000000
(1427659930.506006) can0 270#9B13000000000000
(1427659930.512605) can0 477#05008C7A77001400
(1427659930.604821) can0 475#7D131C0000000000
(1427659930.605130) can0 306#1400000000000000
(1427659930.605394) can0 294#00009CFFFA000000
(1427659930.606208) can0 270#9B13000000000000
(1427659930.609620) can0 477#05008C7A77001400
(1427659930.704967) can0 475#7A131C0000000000
(1427659930.705279) can0 306#1400000000000000
(1427659930.705529) can0 294#00009CFFFA000000
(1427659930.705771) can0 270#9B13000000000000
(1427659930.706559) can0 477#05008C7A77001400
(1427659930.803768) can0 477#05008B7A77001400
(1427659930.805102) can0 475#7B131C0000000000
(1427659930.805387) can0 306#1400000000000000
(1427659930.805635) can0 294#00009CFFFA000000
(1427659930.805876) can0 270#9B13000000000000
(1427659930.900739) can0 477#05008C7A77001400
(1427659930.904890) can0 475#83131C0000000000
(1427659930.905188) can0 306#1400000000000000
(1427659930.905450) can0 294#00009CFFFA000000
(1427659930.905717) can0 270#9B13000000000000
(1427659930.997507) can0 477#05008C7A77001400
(1427659931.004851) can0 475#76131C0000000000
(1427659931.005308) can0 306#1400000000000000
(1427659931.005558) can0 294#00009CFFFA000000
(1427659931.005804) can0 270#9B13000000000000
(1427659931.095410) can0 477#05008C7A77001400
(1427659931.104972) can0 475#7A131C0000000000
(1427659931.105281) can0 306#1500000000000000
(1427659931.105528) can0 294#00009CFFFA000000
(1427659931.105771) can0 270#9B13000000000000
(1427659931.191445) can0 477#05008C7A77001400
(1427659931.204814) can0 475#81131C0000000000
(1427659931.205131) can0 306#1500000000000000
(1427659931.205384) can0 294#00009CFFFA000000
(1427659931.205628) can0 270#9B13000000000000
(1427659931.288459) can0 477#05008C7A77001400
(1427659931.304813) can0 475#87131C0000000000
(1427659931.305103) can0 306#1500000000000000
(1427659931.305348) can0 294#00009CFFFA000000
(1427659931.305593) can0 270#9B13000000000000
(1427659931.385388) can0 477#05008B7A77001400
(1427659931.405734) can0 306#1600000000000000
(1427659931.406680) can0 294#00009CFFFA000000
(1427659931.483576) can0 477#05008C7A77001400
(1427659931.505215) can0 306#1500000000000000
(1427659931.506187) can0 270#9B13000000000000
(1427659931.506448) can0 294#00009CFFFA000000
(1427659931.579625) can0 477#05008C7A77001400
(1427659931.604831) can0 475#7F131C0000000000
(1427659931.605204) can0 306#1400000000000000
(1427659931.605467) can0 294#00009CFFFA000000
(1427659931.605722) can0 270#9B13000000000000
(1427659931.676285) can0 477#05008C7A77001400
(1427659931.704881) can0 475#85131C0000000000
(1427659931.705180) can0 306#1500000000000000
(1427659931.705534) can0 294#00009CFFFA000000
(1427659931.705792) can0 270#9B13000000000000
(1427659931.773922) can0 477#05008D7A77001400
(1427659931.804842) can0 475#7F131C0000000000
(1427659931.805129) can0 306#1500000000000000
(1427659931.805374) can0 294#00009CFFFA000000
(1427659931.805622) can0 270#9B13000000000000
(1427659931.870206) can0 477#05008C7A77001400
(1427659931.904783) can0 475#85131C0000000000
(1427659931.905092) can0 306#1500000000000000
(1427659931.905338) can0 294#00009CFFFA000000
(1427659931.905580) can0 270#9B13000000000000
(1427659931.967191) can0 477#05008B7A77001400
(1427659932.004753) can0 475#7B131C0000000000
(1427659932.005228) can0 306#1500000000000000
(1427659932.005493) can0 294#00009CFFFA000000
(1427659932.005764) can0 270#9B13000000000000
(1427659932.064630) can0 477#05008C7A77001400
(1427659932.104774) can0 475#7D131C0000000000
(1427659932.105066) can0 306#1500000000000000
(1427659932.105459) can0 294#00009CFFFA000000
(1427659932.105710) can0 270#9B13000000000000
(1427659932.161116) can0 477#05008B7A77001400
(1427659932.204765) can0 475#87131C0000000000
(1427659932.205162) can0 306#1500000000000000
(1427659932.205440) can0 294#00009CFFFA000000
(1427659932.205690) can0 270#9B13000000000000
(1427659932.258086) can0 477#05008C7A77001400
(1427659932.305269) can0 475#76131C0000000000
(1427659932.305616) can0 306#1500000000000000
(1427659932.305867) can0 294#00009CFFFA000000
(1427659932.306111) can0 270#9B13000000000000
(1427659932.355058) can0 477#05008C7A77001400
(1427659932.405143) can0 475#7D131C0000000000
(1427659932.405486) can0 306#1500000000000000
(1427659932.405738) can0 294#00009CFFFA000000
(1427659932.405980) can0 270#9B13000000000000
(1427659932.452004) can0 477#05008D7A77001400
(1427659932.505123) can0 475#7D131C0000000000
(1427659932.505428) can0 306#1500000000000000
(1427659932.505675) can0 294#00009CFFFA000000
(1427659932.505921) can0 270#9B13000000000000
(1427659932.549005) can0 477#05008D7A77001400
(1427659932.605058) can0 475#7F131C0000000000
(1427659932.605361) can0 306#1500000000000000
(1427659932.605610) can0 294#00009CFFFA000000
(1427659932.605853) can0 270#9B13000000000000
(1427659932.645998) can0 477#05008C7A77001400
(1427659932.705008) can0 475#7F131C0000000000
(1427659932.705313) can0 306#1600000000000000
(1427659932.705563) can0 294#00009CFFFA000000
(1427659932.705818) can0 270#9B13000000000000
(1427659932.743098) can0 477#05008C7A77001400
(1427659932.805036) can0 475#76131C0000000000
(1427659932.805327) can0 306#1600000000000000
(1427659932.805575) can0 294#00009CFFFA000000
(1427659932.805819) can0 270#9B13000000000000
(1427659932.839896) can0 477#05008D7A77001400
(1427659932.905024) can0 475#7F131C0000000000
(1427659932.905375) can0 306#1600000000000000
(1427659932.905628) can0 294#00009CFFFA000000
(1427659932.905872) can0 270#9B13000000000000
(1427659932.936854) can0 477#05008C7A77001400
(1427659933.005168) can0 475#7F131C0000000000
(1427659933.005461) can0 306#1600000000000000
(1427659933.005712) can0 294#00009CFFFA000000
(1427659933.005959) can0 270#9B13000000000000
(1427659933.033828) can0 477#05008D7A77001400
(1427659933.105202) can0 475#7A131C0000000000
(1427659933.105489) can0 306#1600000000000000
(1427659933.105734) can0 294#00009CFFFA000000
(1427659933.105988) can0 270#9B13000000000000
(1427659933.130794) can0 477#05008D7A77001400
(1427659933.205183) can0 475#85131C0000000000
(1427659933.205473) can0 306#1500000000000000
(1427659933.205717) can0 294#00009CFFFA000000
(1427659933.205959) can0 270#9B13000000000000
(1427659933.227797) can0 477#05008C7A77001400
(1427659933.305054) can0 475#7A131C0000000000
(1427659933.305399) can0 306#1500000000000000
(1427659933.305661) can0 294#00009CFFFA000000
(1427659933.305916) can0 270#9B13000000000000
(1427659933.324745) can0 477#05008D7A77001400
(1427659933.405407) can0 306#1500000000000000
(1427659933.405985) can0 270#9B13000000000000
(1427659933.421780) can0 477#05008C7A77001400
(1427659933.505040) can0 475#83131C0000000000
(1427659933.505804) can0 306#1500000000000000
(1427659933.506206) can0 294#00009CFFFA000000
(1427659933.519084) can0 477#05008D7A77001400
(1427659933.605394) can0 475#7A131C0000000000
(1427659933.605858) can0 270#9B13000000000000
(1427659933.606517) can0 294#00009CFFFA000000
(1427659933.615788) can0 477#05008D7A77001400
(1427659933.704807) can0 475#83131C0000000000
(1427659933.705226) can0 306#1600000000000000
(1427659933.705481) can0 294#00009CFFFA000000
(1427659933.705725) can0 270#9B13000000000000
(1427659933.712638) can0 477#05008D7A77001400
(1427659933.804986) can0 475#85131C0000000000
(1427659933.805293) can0 306#1600000000000000
(1427659933.805540) can0 294#00009CFFFA000000
(1427659933.805782) can0 270#9B13000000000000
(1427659933.809806) can0 477#05008D7A77001400
(1427659933.905035) can0 475#7D131C0000000000
(1427659933.905360) can0 306#1500000000000000
(1427659933.905610) can0 294#00009CFFFA000000
(1427659933.905852) can0 270#9B13000000000000
(1427659933.906543) can0 477#05008D7A77001400
(1427659934.003554) can0 477#05008D7A77001400
(1427659934.004871) can0 475#7B131C0000000000
(1427659934.005165) can0 306#1500000000000000
(1427659934.005424) can0 294#00009CFFFA000000
(1427659934.005680) can0 270#9B13000000000000
(1427659934.100629) can0 477#05008D7A77001400
(1427659934.104863) can0 475#7A131C0000000000
(1427659934.105194) can0 306#1500000000000000
(1427659934.105454) can0 294#00009CFFFA000000
(1427659934.105709) can0 270#9B13000000000000
(1427659934.197456) can0 477#05008D7A77001400
(1427659934.205158) can0 475#78131C0000000000
(1427659934.205708) can0 294#00009CFFFA000000
(1427659934.206018) can0 270#9B13000000000000
(1427659934.294461) can0 477#05008E7A77001400
(1427659934.304902) can0 475#7A131C0000000000
(1427659934.305171) can0 306#1500000000000000
(1427659934.305964) can0 294#00009CFFFA000000
(1427659934.306218) can0 270#9B13000000000000
(1427659934.391402) can0 477#05008C7A77001400
(1427659934.404787) can0 475#7B131C0000000000
(1427659934.405084) can0 306#1500000000000000
(1427659934.405333) can0 294#00009CFFFA000000
(1427659934.405586) can0 270#9B13000000000000
(1427659934.488414) can0 477#05008D7A77001400
(1427659934.504957) can0 475#81131C0000000000
(1427659934.505244) can0 306#1600000000000000
(1427659934.505490) can0 294#00009CFFFA000000
(1427659934.505732) can0 270#9B13000000000000
(1427659934.586529) can0 477#05008E7A77001400
(1427659934.604974) can0 475#83131C0000000000
(1427659934.605259) can0 306#1600000000000000
(1427659934.605504) can0 294#00009CFFFA000000
(1427659934.605746) can0 270#9B13000000000000
(1427659934.683155) can0 477#05008D7A77001400
(1427659934.704956) can0 475#81131C0000000000
(1427659934.705255) can0 306#1500000000000000
(1427659934.705503) can0 294#00009CFFFA000000
(1427659934.705746) can0 270#9B13000000000000
(1427659934.779912) can0 477#05008D7A77001400
(1427659934.804874) can0 475#81131C0000000000
(1427659934.805215) can0 306#1500000000000000
(1427659934.805460) can0 294#00009CFFFA000000
(1427659934.805713) can0 270#9B13000000000000
(1427659934.876254) can0 477#05008E7A77001C00
(1427659934.904954) can0 475#7D131C4945000000
(1427659934.905260) can0 306#1400000000000000
(1427659934.905506) can0 294#00009CFFFA000000
(1427659934.905747) can0 270#9B13000000000000
(1427659934.928467) can0 478#05008D7A77001C00
(1427659934.973217) can0 477#05008E7A77001C00
(1427659935.004883) can0 475#85131C4945000000
(1427659935.005191) can0 306#1400000000000000
(1427659935.005461) can0 294#00009CFFFA000000
(1427659935.005717) can0 270#9B13000000000000
(1427659935.025406) can0 478#05008C7A77001C00
(1427659935.070242) can0 477#05008E7A77001C00
(1427659935.104721) can0 475#83131C4945000000
(1427659935.105138) can0 306#1400000000000000
(1427659935.105393) can0 294#00009CFFFA000000
(1427659935.105636) can0 270#9B13000000000000
(1427659935.122438) can0 478#05008E7A77001C00
(1427659935.167179) can0 477#05008E7A77001C00
(1427659935.204786) can0 475#78131C4945000000
(1427659935.205087) can0 306#1400000000000000
(1427659935.205360) can0 294#00009CFFFA000000
(1427659935.205616) can0 270#9B13000000000000
(1427659935.219358) can0 478#05008E7A77001C00
(1427659935.264149) can0 477#05008E7A77001C00
(1427659935.305008) can0 475#7B131C4945000000
(1427659935.305301) can0 306#1400000000000000
(1427659935.305549) can0 294#00009CFFFA000000
(1427659935.305793) can0 270#9B13000000000000
(1427659935.316327) can0 478#05008D7A77001C00
(1427659935.361118) can0 477#05008D7A77001C00
(1427659935.405525) can0 475#7D131C4945000000
(1427659935.405784) can0 294#00009CFFFA000000
(1427659935.406167) can0 270#9B13000000000000
(1427659935.413371) can0 478#05008E7A77001C00
(1427659935.458138) can0 477#05008F7A77001C00
(1427659935.505935) can0 306#1600000000000000
(1427659935.506424) can0 294#00009CFFFA000000
(1427659935.510781) can0 478#05008E7A77001C00
(1427659935.555052) can0 477#05008E7A77001C00
(1427659935.605189) can0 306#1600000000000000
(1427659935.605536) can0 294#00009CFFFA000000
(1427659935.605798) can0 270#9B13000000000000
(1427659935.607269) can0 478#05008E7A77001C00
(1427659935.652851) can0 477#05008E7A77001C00
(1427659935.704228) can0 478#05008E7A77001C00
(1427659935.705018) can0 475#7F131C4945000000
(1427659935.705302) can0 306#1600000000000000
(1427659935.705575) can0 294#00009CFFFA000000
(1427659935.705827) can0 270#9B13000000000000
(1427659935.748971) can0 477#05008E7A77001C00
(1427659935.801189) can0 478#05008E7A77001C00
(1427659935.805033) can0 475#83131C4945000000
(1427659935.805328) can0 306#1500000000000000
(1427659935.805603) can0 294#00009CFFFA000000
(1427659935.805862) can0 270#9B13000000000000
(1427659935.845956) can0 477#05008E7A77001C00
(1427659935.899292) can0 478#05008D7A77001C00
(1427659935.905031) can0 475#81131C4945000000
(1427659935.905327) can0 306#1500000000000000
(1427659935.905577) can0 294#00009CFFFA000000
(1427659935.905823) can0 270#9B13000000000000
(1427659935.942949) can0 477#05008E7A77001C00
(1427659935.995134) can0 478#05008F7A77001C00
(1427659936.005084) can0 475#81131C4945000000
(1427659936.005405) can0 306#1500000000000000
(1427659936.005658) can0 294#00009CFFFA000000
(1427659936.005901) can0 270#9B13000000000000
(1427659936.039852) can0 477#05008E7A77001C00
(1427659936.092108) can0 478#05008F7A77001C00
(1427659936.105076) can0 475#7F131C4945000000
(1427659936.105456) can0 306#1400000000000000
(1427659936.105715) can0 294#00009CFFFA000000
(1427659936.105958) can0 270#9B13000000000000
(1427659936.136870) can0 477#05008E7A77001C00
(1427659936.189082) can0 478#05008E7A77001C00
(1427659936.233831) can0 477#05008E7A77001C00
(1427659936.286747) can0 478#05008E7A77001C00
(1427659936.305155) can0 475#89131C4945000000
(1427659936.305494) can0 306#1300000000000000
(1427659936.305757) can0 294#00009CFFFA000000
(1427659936.306014) can0 270#9B13000000000000
(1427659936.330777) can0 477#05008F7A77001C00
(1427659936.383435) can0 478#05008F7A77001C00
(1427659936.405229) can0 475#81131C4945000000
(1427659936.405539) can0 306#1200000000000000
(1427659936.405796) can0 294#00009CFFFA000000
(1427659936.406036) can0 270#9B13000000000000
(1427659936.427729) can0 477#05008E7A77001C00
(1427659936.480771) can0 478#05008E7A77001C00
(1427659936.505089) can0 475#85131C4945000000
(1427659936.505403) can0 306#1300000000000000
(1427659936.505649) can0 294#00009CFFFA000000
(1427659936.505895) can0 270#9B13000000000000
(1427659936.524715) can0 477#05008F7A77001C00
(1427659936.576937) can0 478#05008E7A77001C00
(1427659936.605097) can0 475#7D131C4945000000
(1427659936.605378) can0 306#1300000000000000
(1427659936.605632) can0 294#00009CFFFA000000
(1427659936.605881) can0 270#9B13000000000000
(1427659936.621855) can0 477#05008E7A77001C00
(1427659936.673888) can0 478#05008E7A77001C00
(1427659936.705083) can0 475#7D131C4945000000
(1427659936.705365) can0 306#1300000000000000
(1427659936.705610) can0 294#00009CFFFA000000
(1427659936.705852) can0 270#9B13000000000000
(1427659936.718665) can0 477#05008E7A77001C00
(1427659936.771072) can0 478#05008F7A77001C00
(1427659936.804842) can0 475#7B131C4945000000
(1427659936.805125) can0 306#1200000000000000
(1427659936.805382) can0 294#00009CFFFA000000
(1427659936.805636) can0 270#9C13000000000000
(1427659936.815627) can0 477#05008E7A77001C00
(1427659936.867866) can0 478#05008E7A77001C00
(1427659936.904929) can0 475#78131C4945000000
(1427659936.905372) can0 306#1100000000000000
(1427659936.905633) can0 270#9C13000000000000
(1427659936.905833) can0 294#00009CFFFA000000
(1427659936.912661) can0 477#05008F7A77001C00
(1427659936.964886) can0 478#05008E7A77001C00
(1427659937.004994) can0 475#81131C4945000000
(1427659937.005283) can0 306#1200000000000000
(1427659937.005568) can0 294#00009CFFFA000000
(1427659937.005817) can0 270#9C13000000000000
(1427659937.009575) can0 477#05008F7A77001C00
(1427659937.061823) can0 478#05008F7A77001C00
(1427659937.105058) can0 475#7F131C4945000000
(1427659937.105330) can0 306#1200000000000000
(1427659937.105574) can0 294#00009CFFFA000000
(1427659937.105819) can0 270#9B13000000000000
(1427659937.106533) can0 477#05008D7A77001C00
(1427659937.158770) can0 478#05008E7A77001C00
(1427659937.203532) can0 477#05008E7A77001C00
(1427659937.204909) can0 475#7D131C4945000000
(1427659937.205193) can0 306#1200000000000000
(1427659937.205450) can0 294#00009CFFFA000000
(1427659937.205724) can0 270#9B13000000000000
(1427659937.255773) can0 478#05008F7A77001C00
(1427659937.300533) can0 477#05008E7A77001C00
(1427659937.304996) can0 475#7F131C4945000000
(1427659937.305263) can0 306#1200000000000000
(1427659937.305506) can0 294#00009CFFFA000000
(1427659937.305745) can0 270#9B13000000000000
(1427659937.354814) can0 478#05008E7A77001C00
(1427659937.397966) can0 477#05008E7A77001C00
(1427659937.404804) can0 475#76131C4945000000
(1427659937.405113) can0 306#1300000000000000
(1427659937.405374) can0 294#00009CFFFA000000
(1427659937.405633) can0 270#9B13000000000000
(1427659937.449655) can0 478#05008E7A77001C00
(1427659937.494411) can0 477#05008E7A77001C00
(1427659937.504863) can0 475#85131C4945000000
(1427659937.505175) can0 306#1300000000000000
(1427659937.505426) can0 294#00009CFFFA000000
(1427659937.505769) can0 270#9B13000000000000
(1427659937.546642) can0 478#05008E7A77001C00
(1427659937.592564) can0 477#05008F7A77001C00
(1427659937.604819) can0 475#7D131C4945000000
(1427659937.605278) can0 306#1200000000000000
(1427659937.605531) can0 294#00009CFFFA000000
(1427659937.605773) can0 270#9B13000000000000
(1427659937.643578) can0 478#05008E7A77001C00
(1427659937.688329) can0 477#05008E7A77001C00
(1427659937.704953) can0 475#7B131C4945000000
(1427659937.705399) can0 306#1200000000000000
(1427659937.705656) can0 270#9B13000000000000
(1427659937.705861) can0 294#00009CFFFA000000
(1427659937.740689) can0 478#05008E7A77001C00
(1427659937.785346) can0 477#05008E7A77001C00
(1427659937.805015) can0 475#85131C4945000000
(1427659937.805284) can0 306#1200000000000000
(1427659937.805530) can0 294#00009CFFFA000000
(1427659937.805774) can0 270#9B13000000000000
(1427659937.837571) can0 478#05008F7A77001C00
(1427659937.882666) can0 477#05008E7A77001C00
(1427659937.905041) can0 475#78131C4945000000
(1427659937.905338) can0 294#00009CFFFA000000
(1427659937.905539) can0 306#1200000000000000
(1427659937.905778) can0 270#9B13000000000000
(1427659937.934494) can0 478#05008F7A77001C00
(1427659937.979292) can0 477#05008F7A77001C00
(1427659938.004904) can0 475#7F131C4945000000
(1427659938.005235) can0 306#1300000000000000
(1427659938.005487) can0 294#00009CFFFA000000
(1427659938.005729) can0 270#9C13000000000000
(1427659938.031527) can0 478#05008E7A77001C00
(1427659938.077118) can0 477#05008F7A77001C00
(1427659938.104980) can0 475#85131C4945000000
(1427659938.105254) can0 306#1300000000000000
(1427659938.105501) can0 294#00009CFFFA000000
(1427659938.105702) can0 270#9C13000000000000
(1427659938.128455) can0 478#05008E7A77001C00
(1427659938.173238) can0 477#05008F7A77001C00
(1427659938.204872) can0 475#7B131C4945000000
(1427659938.205152) can0 306#1300000000000000
(1427659938.205406) can0 294#00009CFFFA000000
(1427659938.205650) can0 270#9C13000000000000
(1427659938.225426) can0 478#05008E7A77001C00
(1427659938.270166) can0 477#0500907A77001C00
(1427659938.304926) can0 475#81131C4945000000
(1427659938.305243) can0 306#1400000000000000
(1427659938.305494) can0 294#00009CFFFA000000
(1427659938.305739) can0 270#9C13000000000000
(1427659938.322434) can0 478#05008E7A77001C00
(1427659938.367222) can0 477#05008E7A77001C00
(1427659938.404832) can0 475#81131C4945000000
(1427659938.405180) can0 306#1400000000000000
(1427659938.405446) can0 294#00009CFFFA000000
(1427659938.405704) can0 270#9C13000000000000
(1427659938.419327) can0 478#05008E7A77001C00
(1427659938.464136) can0 477#05008E7A77001C00
(1427659938.505145) can0 475#83131C4945000000
(1427659938.505514) can0 306#1400000000000000
(1427659938.505766) can0 294#00009CFFFA000000
(1427659938.506010) can0 270#9B13000000000000
(1427659938.516324) can0 478#05008F7A77001C00
(1427659938.561284) can0 477#05008F7A77001C00
(1427659938.605189) can0 475#7B131C4945000000
(1427659938.605480) can0 306#1400000000000000
(1427659938.605803) can0 294#00009CFFFA000000
(1427659938.606064) can0 270#9C13000000000000
(1427659938.613346) can0 478#05008F7A77001C00
(1427659938.658042) can0 477#05008F7A77001C00
(1427659938.705155) can0 475#89131C4945000000
(1427659938.705466) can0 306#1300000000000000
(1427659938.705712) can0 294#00009CFFFA000000
(1427659938.705966) can0 270#9C13000000000000
(1427659938.710403) can0 478#05008F7A77001C00
(1427659938.755014) can0 477#0500907A77001C00
(1427659938.805110) can0 475#83131C4945000000
(1427659938.805433) can0 306#1300000000000000
(1427659938.805680) can0 294#00009CFFFA000000
(1427659938.805929) can0 270#9C13000000000000
(1427659938.807177) can0 478#05008F7A77001C00
(1427659938.852008) can0 477#05008F7A77001C00
(1427659938.904208) can0 478#05008E7A77001C00
(1427659938.905166) can0 475#7F131C4945000000
(1427659938.905436) can0 306#1300000000000000
(1427659938.905682) can0 294#00009CFFFA000000
(1427659938.905923) can0 270#9C13000000000000
(1427659938.948983) can0 477#05008F7A77001C00
(1427659939.001163) can0 478#05008F7A77001C00
(1427659939.005033) can0 475#76131C4945000000
(1427659939.005351) can0 306#1200000000000000
(1427659939.005613) can0 294#00009CFFFA000000
(1427659939.005859) can0 270#9C13000000000000
(1427659939.045911) can0 477#05008F7A77001C00
(1427659939.098174) can0 478#05008F7A77001C00
(1427659939.105121) can0 475#85131C4945000000
(1427659939.105403) can0 306#1200000000000000
(1427659939.105667) can0 294#00009CFFFA000000
(1427659939.105909) can0 270#9C13000000000000
(1427659939.142875) can0 477#0500907A77001C00
(1427659939.195088) can0 478#05008F7A77001C00
(1427659939.205096) can0 475#85131C4945000000
(1427659939.205548) can0 306#1200000000000000
(1427659939.205798) can0 294#00009CFFFA000000
(1427659939.206051) can0 270#9C13000000000000
(1427659939.239874) can0 477#05008F7A77001C00
(1427659939.292562) can0 478#05008F7A77001C00
(1427659939.305151) can0 475#81131C4945000000
(1427659939.305594) can0 306#1200000000000000
(1427659939.305848) can0 294#00009CFFFA000000
(1427659939.306096) can0 270#9C13000000000000
(1427659939.336881) can0 477#05008F7A77001C00
(1427659939.389087) can0 478#05008E7A77001C00
(1427659939.405307) can0 475#7F131C4945000000
(1427659939.405631) can0 306#1200000000000000
(1427659939.405834) can0 294#00009CFFFA000000
(1427659939.406078) can0 270#9C13000000000000
(1427659939.433785) can0 477#05008F7A77001C00
(1427659939.487153) can0 478#05008F7A77001C00
(1427659939.505237) can0 475#81131C4945000000
(1427659939.505512) can0 306#1200000000000000
(1427659939.505762) can0 294#00009CFFFA000000
(1427659939.506004) can0 270#9C13000000000000
(1427659939.530797) can0 477#05008F7A77001C00
(1427659939.582969) can0 478#05008F7A77001C00
(1427659939.605144) can0 475#83131C4945000000
(1427659939.605441) can0 306#1200000000000000
(1427659939.605709) can0 294#00009CFFFA000000
(1427659939.605956) can0 270#9C13000000000000
(1427659939.627717) can0 477#0500907A77001C00
(1427659939.680093) can0 478#0500907A77001C00
(1427659939.705189) can0 475#83131C4945000000
(1427659939.705472) can0 306#1200000000000000
(1427659939.705722) can0 294#00009CFFFA000000
(1427659939.705965) can0 270#9C13000000000000
(1427659939.724750) can0 477#0500907A77001C00
(1427659939.776939) can0 478#05008F7A77001C00
(1427659939.805125) can0 475#7F131C4945000000
(1427659939.805411) can0 306#1200000000000000
(1427659939.805661) can0 294#00009CFFFA000000
(1427659939.805906) can0 270#9C13000000000000
(1427659939.821708) can0 477#05008F7A77001C00
(1427659939.874057) can0 478#05008E7A77001C00
(1427659939.904945) can0 475#89131C4945000000
(1427659939.905789) can0 294#00009CFFFA000000
(1427659939.906045) can0 270#9C13000000000000
(1427659939.918676) can0 477#05008E7A77001C00
(1427659939.970851) can0 478#0500907A77001C00
(1427659940.004865) can0 475#7F131C4945000000
(1427659940.005236) can0 306#1300000000000000
(1427659940.005513) can0 294#00009CFFFA000000
(1427659940.005768) can0 270#9B13000000000000
(1427659940.015641) can0 477#05008F7A77001C00
(1427659940.067861) can0 478#05008F7A77001C00
(1427659940.105038) can0 475#78131C4945000000
(1427659940.105325) can0 306#1300000000000000
(1427659940.105573) can0 294#00009CFFFA000000
(1427659940.105817) can0 270#9C13000000000000
(1427659940.112610) can0 477#0500907A77001C00
(1427659940.164784) can0 478#0500907A77001C00
(1427659940.205021) can0 475#85131C4945000000
(1427659940.205344) can0 306#1300000000000000
(1427659940.205616) can0 294#00009CFFFA000000
(1427659940.205866) can0 270#9C13000000000000
(1427659940.209562) can0 477#0500907A77001C00
(1427659940.261813) can0 478#0500907A77001C00
(1427659940.305049) can0 475#7F131C4945000000
(1427659940.305347) can0 294#00009CFFFA000000
(1427659940.305550) can0 306#1400000000000000
(1427659940.305792) can0 270#9C13000000000000
(1427659940.306519) can0 477#05008F7A77001C00
(1427659940.358721) can0 478#05008F7A77001C00
(1427659940.403498) can0 477#0500907A77001C00
(1427659940.404947) can0 475#85131C4945000000
(1427659940.405218) can0 306#1400000000000000
(1427659940.405465) can0 294#00009CFFFA000000
(1427659940.406251) can0 270#9C13000000000000
(1427659940.455760) can0 478#05008F7A77001C00
(1427659940.500771) can0 477#0500907A77001C00
(1427659940.505029) can0 475#7A131C4945000000
(1427659940.505406) can0 294#00009CFFFA000000
(1427659940.505622) can0 306#1400000000000000
(1427659940.505882) can0 270#9C13000000000000
(1427659940.552685) can0 478#05008F7A77001C00
(1427659940.597433) can0 477#0500907A77001C00
(1427659940.604827) can0 475#81131C4945000000
(1427659940.605153) can0 306#1400000000000000
(1427659940.605420) can0 294#00009CFFFA000000
(1427659940.605676) can0 270#9C13000000000000
(1427659940.649800) can0 478#07008F7A77001C00
(1427659940.694404) can0 477#0500907A77001C00
(1427659940.704841) can0 475#83131C4945000000
(1427659940.705398) can0 306#1400000000000000
(1427659940.705658) can0 270#9C13000000000000
(1427659940.705861) can0 294#00009CFFFA000000
(1427659940.746646) can0 478#05008F7A77001C00
(1427659940.791366) can0 477#05008F7A77001C00
(1427659940.805093) can0 475#7A131C4945000000
(1427659940.805386) can0 306#1300000000000000
(1427659940.805645) can0 294#00009CFFFA000000
(1427659940.805905) can0 270#9C13000000000000
(1427659940.843623) can0 478#0500907A77001C00
(1427659940.888646) can0 477#0500907A77001C00
(1427659940.905155) can0 475#7D131C4945000000
(1427659940.905449) can0 306#1300000000000000
(1427659940.905696) can0 294#00009CFFFA000000
(1427659940.905894) can0 270#9C13000000000000
(1427659940.940607) can0 478#0500917A77001C00
(1427659940.985439) can0 477#0500907A77001C00
(1427659941.004986) can0 475#7F131C4945000000
(1427659941.005285) can0 306#1300000000000000
(1427659941.005557) can0 294#00009CFFFA000000
(1427659941.005807) can0 270#9C13000000000000
(1427659941.037506) can0 478#0500907A77001C00
(1427659941.082566) can0 477#0500907A77001C00
(1427659941.105344) can0 475#83131C4945000000
(1427659941.105636) can0 294#00009CFFFA000000
(1427659941.105841) can0 306#1300000000000000
(1427659941.106084) can0 270#9C13000000000000
(1427659941.134508) can0 478#0500907A77001C00
(1427659941.179694) can0 477#0500917A77001C00
(1427659941.204959) can0 475#83131C4945000000
(1427659941.205264) can0 306#1300000000000000
(1427659941.205516) can0 294#00009CFFFA000000
(1427659941.205762) can0 270#9C13000000000000
(1427659941.231458) can0 478#0500907A77001C00
(1427659941.276227) can0 477#0500907A77001C00
(1427659941.304949) can0 475#7B131C4945000000
(1427659941.305349) can0 306#1200000000000000
(1427659941.305558) can0 294#00009CFFFA000000
(1427659941.305805) can0 270#9C13000000000000
(1427659941.328450) can0 478#0500907A77001C00
(1427659941.373195) can0 477#0500917A77001C00
(1427659941.405359) can0 475#89131C4945000000
(1427659941.406295) can0 294#00009CFFFA000000
(1427659941.406548) can0 270#9C13000000000000
(1427659941.425429) can0 478#0500917A77001C00
(1427659941.470169) can0 477#0500907A77001C00
(1427659941.504921) can0 475#7A131C4945000000
(1427659941.505313) can0 306#1000000000000000
(1427659941.505566) can0 294#00009CFFFA000000
(1427659941.505809) can0 270#9C13000000000000
(1427659941.522371) can0 478#0500907A77001C00
(1427659941.567096) can0 477#0500907A77001C00
(1427659941.605237) can0 475#83131C4945000000
(1427659941.605555) can0 306#1000000000000000
(1427659941.605825) can0 294#00009CFFFA000000
(1427659941.606069) can0 270#9C13000000000000
(1427659941.619338) can0 478#0500907A77001C00
(1427659941.664100) can0 477#0500907A77001C00
(1427659941.705420) can0 475#76131C4945000000
(1427659941.705692) can0 306#1100000000000000
(1427659941.705937) can0 294#00009CFFFA000000
(1427659941.706181) can0 270#9C13000000000000
(1427659941.716321) can0 478#0500917A77001C00
(1427659941.761077) can0 477#0500917A77001C00
(1427659941.805243) can0 475#78131C4945000000
(1427659941.805562) can0 306#1100000000000000
(1427659941.805820) can0 294#00009CFFFA000000
(1427659941.806066) can0 270#9C13000000000000
(1427659941.813268) can0 478#0500907A77001C00
(1427659941.858040) can0 477#0500917A77001C00
(1427659941.905280) can0 475#85131C4945000000
(1427659941.905590) can0 294#00009CFFFA000000
(1427659941.905794) can0 306#1100000000000000
(1427659941.906580) can0 270#9C13000000000000
(1427659941.910249) can0 478#0500917A77001C00
(1427659941.955020) can0 477#0500917A77001C00
(1427659942.005179) can0 475#7A131C4945000000
(1427659942.005472) can0 306#1100000000000000
(1427659942.005720) can0 294#00009CFFFA000000
(1427659942.005964) can0 270#9C13000000000000
(1427659942.007206) can0 478#0500917A77001C00
(1427659942.052021) can0 477#0500907A77001C00
(1427659942.104224) can0 478#0500917A77001C00
(1427659942.105238) can0 475#7B131C4945000000
(1427659942.105512) can0 306#1100000000000000
(1427659942.105756) can0 294#00009CFFFA000000
(1427659942.106039) can0 270#9C13000000000000
(1427659942.148936) can0 477#0500907A77001C00
(1427659942.201246) can0 478#0500917A77001C00
(1427659942.205098) can0 475#7B131C4945000000
(1427659942.205401) can0 306#1200000000000000
(1427659942.205647) can0 294#00009CFFFA000000
(1427659942.205890) can0 270#9C13000000000000
(1427659942.245892) can0 477#0500917A77001C00
(1427659942.298125) can0 478#0500917A77001C00
(1427659942.305978) can0 270#9C13000000000000
(1427659942.342871) can0 477#0500917A77001C00
(1427659942.395088) can0 478#0500917A77001C00
(1427659942.405341) can0 475#87131C4945000000
(1427659942.405608) can0 306#1200000000000000
(1427659942.405854) can0 294#00009CFFFA000000
(1427659942.406097) can0 270#9C13000000000000
(1427659942.440013) can0 477#0500917A77001C00
(1427659942.492060) can0 478#0500917A77001C00
(1427659942.505401) can0 475#83131C4945000000
(1427659942.505672) can0 294#00009CFFFA000000
(1427659942.505873) can0 306#1200000000000000
(1427659942.506115) can0 270#9C13000000000000
(1427659942.536795) can0 477#0500917A77001C00
(1427659942.589212) can0 478#0500917A77001C00
(1427659942.605242) can0 475#7D131C4945000000
(1427659942.605540) can0 306#1300000000000000
(1427659942.605790) can0 294#00009CFFFA000000
(1427659942.606030) can0 270#9C13000000000000
(1427659942.633781) can0 477#0500917A77001C00
(1427659942.686012) can0 478#0500917A77001C00
(1427659942.705023) can0 475#83131C4945000000
(1427659942.705457) can0 306#1200000000000000
(1427659942.705728) can0 270#9C13000000000000
(1427659942.705938) can0 294#00009CFFFA000000
(1427659942.730728) can0 477#0500917A77001C00
(1427659942.783004) can0 478#0500917A77001C00
(1427659942.805143) can0 475#85131C4945000000
(1427659942.805468) can0 306#1300000000000000
(1427659942.805717) can0 294#00009CFFFA000000
(1427659942.805959) can0 270#9C13000000000000
(1427659942.827691) can0 477#0500907A77001C00
(1427659942.880103) can0 478#0500917A77001C00
(1427659942.905206) can0 475#7A131C4945000000
(1427659942.905531) can0 294#00009CFFFA000000
(1427659942.905731) can0 306#1300000000000000
(1427659942.905975) can0 270#9C13000000000000
(1427659942.924678) can0 477#0500917A77001C00
(1427659942.976937) can0 478#0500927A77001C00
(1427659943.004911) can0 475#7F131C4945000000
(1427659943.005377) can0 306#1300000000000000
(1427659943.005633) can0 294#00009CFFFA000000
(1427659943.005876) can0 270#9C13000000000000
(1427659943.021631) can0 477#0400927A77001C00
(1427659943.074705) can0 478#0500927A77001C00
(1427659943.105056) can0 475#70131C4945000000
(1427659943.105413) can0 306#1300000000000000
(1427659943.105665) can0 294#00009CFFFA000000
(1427659943.105906) can0 270#9C13000000000000
(1427659943.118660) can0 477#0500927A77001C00
(1427659943.170868) can0 478#0500937A77001C00
(1427659943.205094) can0 475#83131C4945000000
(1427659943.205385) can0 306#1300000000000000
(1427659943.205632) can0 294#00009CFFFA000000
(1427659943.205876) can0 270#9C13000000000000
(1427659943.215635) can0 477#0500937A77001C00
(1427659943.267830) can0 478#0500937A77001C00
(1427659943.305075) can0 475#85131C4945000000
(1427659943.305461) can0 306#1200000000000000
(1427659943.305716) can0 294#00009CFFFA000000
(1427659943.305963) can0 270#9C13000000000000
(1427659943.312550) can0 477#0400927A77001C00
(1427659943.364802) can0 478#0400927A77001C00
(1427659943.404989) can0 475#81131C4945000000
(1427659943.405560) can0 306#1200000000000000
(1427659943.405855) can0 294#00009CFFFA000000
(1427659943.410050) can0 477#0400937A77001C00
(1427659943.461777) can0 478#0500927A77001C00
(1427659943.505026) can0 475#85131C4945000000
(1427659943.505444) can0 306#1200000000000000
(1427659943.505656) can0 294#00009CFFFA000000
(1427659943.505900) can0 270#9C13000000000000
(1427659943.506467) can0 477#0500927A77001C00
(1427659943.558722) can0 478#0500937A77001C00
(1427659943.603503) can0 477#0500937A77001C00
(1427659943.604983) can0 475#85131C4945000000
(1427659943.605298) can0 306#1300000000000000
(1427659943.605576) can0 294#00009CFFFA000000
(1427659943.605866) can0 270#9C13000000000000
(1427659943.655667) can0 478#0100937A77001C00
(1427659943.700412) can0 477#0200937A77001C00
(1427659943.704973) can0 475#7F131B4945000000
(1427659943.705291) can0 306#1300000000000000
(1427659943.705589) can0 294#00009CFFFA000000
(1427659943.705840) can0 270#9C13000000000000
(1427659943.752704) can0 478#0200957A77001C00
(1427659943.797373) can0 477#0100947A77001C00
(1427659943.804932) can0 475#78131C4945000000
(1427659943.805226) can0 306#1300000000000000
(1427659943.805490) can0 294#00009CFFFA000000
(1427659943.805743) can0 270#9C13000000000000
(1427659943.849613) can0 478#0100947A77001C00
(1427659943.894394) can0 477#0100957A77001C00
(1427659943.904924) can0 475#7B131C4945000000
(1427659943.905375) can0 306#1300000000000000
(1427659943.905633) can0 294#00009CFFFA000000
(1427659943.905879) can0 270#9C13000000000000
(1427659943.946594) can0 478#0100967A77001C00
(1427659943.991990) can0 477#0100967A77001C00
(1427659944.005093) can0 475#7F131C4945000000
(1427659944.005385) can0 306#1300000000000000
(1427659944.005644) can0 294#00009CFFFA000000
(1427659944.005889) can0 270#9D13000000000000
(1427659944.043579) can0 478#0100967A77001C00
(1427659944.088284) can0 477#0100957A77001C00
(1427659944.105063) can0 475#81131C4945000000
(1427659944.105429) can0 306#1300000000000000
(1427659944.105686) can0 270#9C13000000000000
(1427659944.105887) can0 294#00009CFFFA000000
(1427659944.140632) can0 478#0100957A77001C00
(1427659944.185848) can0 477#0200957A77001C00
(1427659944.205017) can0 475#7D131C4945000000
(1427659944.205306) can0 306#1300000000000000
(1427659944.205554) can0 294#00009CFFFA000000
(1427659944.205798) can0 270#9C13000000000000
(1427659944.237478) can0 478#0100957A77001C00
(1427659944.283022) can0 477#0100957A77001C00
(1427659944.305026) can0 475#81131B4945000000
(1427659944.305351) can0 306#1300000000000000
(1427659944.305649) can0 270#9C13000000000000
(1427659944.305852) can0 294#00009CFFFA000000
(1427659944.334473) can0 478#0100967A77001C00
(1427659944.379360) can0 477#0100967A77001C00
(1427659944.405000) can0 475#7D131C4945000000
(1427659944.405281) can0 306#1400000000000000
(1427659944.405528) can0 294#00009CFFFA000000
(1427659944.405771) can0 270#9D13000000000000
(1427659944.431448) can0 478#0200957A77001C00
(1427659944.476651) can0 477#0100967A77001C00
(1427659944.504969) can0 475#85131B4945000000
(1427659944.505312) can0 306#1400000000000000
(1427659944.505625) can0 294#00009CFFFA000000
(1427659944.505876) can0 270#9D13000000000000
(1427659944.528573) can0 478#0200957A77001C00
(1427659944.573149) can0 477#0100967A77001C00
(1427659944.604926) can0 475#7A131C4945000000
(1427659944.605226) can0 306#1400000000000000
(1427659944.605487) can0 294#00009CFFFA000000
(1427659944.605746) can0 270#9C13000000000000
(1427659944.625452) can0 478#0100967A77001C00
(1427659944.670117) can0 477#FFFF967A77001C00
(1427659944.705090) can0 475#85131B4945000000
(1427659944.705463) can0 306#1400000000000000
(1427659944.705724) can0 294#00009CFFFA000000
(1427659944.705970) can0 270#9D13000000000000
(1427659944.722364) can0 478#FFFF967A77001C00
(1427659944.767103) can0 477#FFFF977A77001C00
(1427659944.805322) can0 475#7F131B4945000000
(1427659944.805692) can0 306#1400000000000000
(1427659944.805966) can0 294#00009CFFFA000000
(1427659944.806228) can0 270#9D13000000000000
(1427659944.819299) can0 478#FFFF977A77001C00
(1427659944.864054) can0 477#FFFF987A77001C00
(1427659944.905285) can0 475#7F131B4945000000
(1427659944.905695) can0 306#1400000000000000
(1427659944.905962) can0 270#9D13000000000000
(1427659944.906693) can0 294#00009CFFFA000000
(1427659944.916278) can0 478#0000977A77001C00
(1427659944.961044) can0 477#FFFF987A77001C00
(1427659945.005290) can0 475#87131B4945000000
(1427659945.005614) can0 306#1400000000000000
(1427659945.005863) can0 294#00009CFFFA000000
(1427659945.006107) can0 270#9D13000000000000
(1427659945.013318) can0 478#0000987A77001C00
(1427659945.058046) can0 477#0000987A77001C00
(1427659945.105258) can0 475#7D131B4945000000
(1427659945.105632) can0 306#1500000000000000
(1427659945.105883) can0 294#00009CFFFA000000
(1427659945.106127) can0 270#9D13000000000000
(1427659945.110218) can0 478#FFFF987A77001C00
(1427659945.154943) can0 477#FDFF997A77001C00
(1427659945.205188) can0 475#81131B4945000000
(1427659945.205494) can0 306#1500000000000000
(1427659945.205769) can0 294#00009CFFFA000000
(1427659945.206017) can0 270#9D13000000000000
(1427659945.207141) can0 478#FCFF997A77001C00
(1427659945.251990) can0 477#FCFF9A7A77001C00
(1427659945.304174) can0 478#FCFF9A7A77001C00
(1427659945.305217) can0 475#74131B4945000000
(1427659945.305590) can0 306#1400000000000000
(1427659945.305841) can0 270#9D13000000000000
(1427659945.306038) can0 294#00009CFFFA000000
(1427659945.348916) can0 477#FCFF9A7A77001C00
(1427659945.401138) can0 478#FCFF9B7A77001C00
(1427659945.405190) can0 475#7F131B4945000000
(1427659945.405475) can0 306#1500000000000000
(1427659945.405749) can0 294#00009CFFFA000000
(1427659945.406019) can0 270#9D13000000000000
(1427659945.445873) can0 477#FCFF9A7A77001C00
(1427659945.498083) can0 478#FCFF997A77001C00
(1427659945.505431) can0 475#7B131B4945000000
(1427659945.505770) can0 306#1400000000000000
(1427659945.506016) can0 294#00009CFFFA000000
(1427659945.506259) can0 270#9D13000000000000
(1427659945.542882) can0 477#FCFF9B7A77001C00
(1427659945.595057) can0 478#FCFF9B7A77001C00
(1427659945.605399) can0 475#7B131B4945000000
(1427659945.605775) can0 306#1500000000000000
(1427659945.606031) can0 294#00009CFFFA000000
(1427659945.606277) can0 270#9D13000000000000
(1427659945.639829) can0 477#FAFF9B7A77001C00
(1427659945.692027) can0 478#F9FF9C7A77001C00
(1427659945.705343) can0 475#83131B4945000000
(1427659945.705717) can0 306#1500000000000000
(1427659945.705974) can0 294#00009CFFFA000000
(1427659945.706252) can0 270#9D13000000000000
(1427659945.736775) can0 477#F9FF9D7A77001C00
(1427659945.789011) can0 478#F9FF9D7A77001C00
(1427659945.805304) can0 475#7F131B4945000000
(1427659945.805607) can0 306#1500000000000000
(1427659945.805869) can0 294#00009CFFFA000000
(1427659945.806124) can0 270#9E13000000000000
(1427659945.833768) can0 477#F9FF9D7A77001C00
(1427659945.886799) can0 478#F9FF9E7A77001C00
(1427659945.905231) can0 475#7D131B4945000000
(1427659945.905645) can0 306#1500000000000000
(1427659945.905905) can0 270#9E13000000000000
(1427659945.906105) can0 294#00009CFFFA000000
(1427659945.930717) can0 477#F3FF9E7A77001C00
(1427659945.983497) can0 478#F4FFA17A77001C00
(1427659946.005448) can0 475#7F131B4945000000
(1427659946.005759) can0 294#00009CFFFA000000
(1427659946.005963) can0 306#1600000000000000
(1427659946.006209) can0 270#9E13000000000000
(1427659946.027687) can0 477#F4FFA27A77001C00
(1427659946.080722) can0 478#F3FFA27A77001C00
(1427659946.105192) can0 475#7A131B4945000000
(1427659946.105516) can0 306#1600000000000000
(1427659946.105811) can0 270#9E13000000000000
(1427659946.106012) can0 294#00009CFFFA000000
(1427659946.124695) can0 477#F3FFA37A77001C00
(1427659946.176869) can0 478#F3FFA37A77001C00
(1427659946.205213) can0 475#81131B4945000000
(1427659946.205524) can0 306#1600000000000000
(1427659946.205782) can0 294#00009CFFFA000000
(1427659946.206029) can0 270#9F13000000000000
(1427659946.221650) can0 477#F3FFA37A77001C00
(1427659946.273858) can0 478#F3FFA47A77001C00
(1427659946.305139) can0 475#83131B4945000000
(1427659946.305421) can0 306#1500000000000000
(1427659946.305764) can0 270#9F13000000000000
(1427659946.305971) can0 294#00009CFFFA000000
(1427659946.318723) can0 477#F3FFA47A77001C00
(1427659946.370857) can0 478#F3FFA57A77001C00
(1427659946.405099) can0 475#85131B4945000000
(1427659946.405929) can0 306#1500000000000000
(1427659946.406176) can0 294#00009CFFFA000000
(1427659946.415612) can0 477#F3FFA47A77001C00
(1427659946.467981) can0 478#F3FFA47A77001C00
(1427659946.505112) can0 475#87131B4945000000
(1427659946.505403) can0 306#1500000000000000
(1427659946.505774) can0 294#00009CFFFA000000
(1427659946.506121) can0 270#9F13000000000000
(1427659946.512548) can0 477#F3FFA47A77001C00
(1427659946.564809) can0 478#F3FFA47A77001C00
(1427659946.605112) can0 475#7D131B4945000000
(1427659946.605404) can0 306#1600000000000000
(1427659946.605659) can0 294#00009CFFFA000000
(1427659946.605904) can0 270#9F13000000000000
(1427659946.609540) can0 477#F3FFA47A77001C00
(1427659946.661743) can0 478#F1FFA47A77001C00
(1427659946.705069) can0 475#8D131B4945000000
(1427659946.705372) can0 306#1600000000000000
(1427659946.705709) can0 294#00009CFFFA000000
(1427659946.705962) can0 270#9F13000000000000
(1427659946.706375) can0 477#F0FFA57A77001C00
(1427659946.758700) can0 478#F0FFA67A77001C00
(1427659946.803455) can0 477#F1FFA67A77001C00
(1427659946.805024) can0 475#81131B4945000000
(1427659946.805458) can0 306#1700000000000000
(1427659946.805704) can0 294#00009CFFFA000000
(1427659946.805948) can0 270#9F13000000000000
(1427659946.855653) can0 478#F0FFA77A77001C00
(1427659946.900416) can0 477#F0FFA77A77001C00
(1427659946.904999) can0 475#89131B4945000000
(1427659946.905283) can0 306#1700000000000000
(1427659946.905587) can0 294#00009CFFFA000000
(1427659946.905887) can0 270#9F13000000000000
(1427659946.952662) can0 478#EAFFA67A77001C00
(1427659946.997390) can0 477#EAFFAB7A77001C00
(1427659947.004940) can0 475#87131B4945000000
(1427659947.005247) can0 306#1700000000000000
(1427659947.005631) can0 294#00009CFFFA000000
(1427659947.005890) can0 270#9F13000000000000
(1427659947.049671) can0 478#EBFFAD7A77001C00
(1427659947.095177) can0 477#EBFFAD7A77001C00
(1427659947.105139) can0 475#8B131B4945000000
(1427659947.105434) can0 306#1600000000000000
(1427659947.105767) can0 294#00009CFFFA000000
(1427659947.106016) can0 270#A013000000000000
(1427659947.146583) can0 478#EAFFAC7A77001C00
(1427659947.191321) can0 477#EAFFAC7A77001C00
(1427659947.205112) can0 475#85131B4945000000
(1427659947.205411) can0 306#1600000000000000
(1427659947.205662) can0 294#00009CFFFA000000
(1427659947.205904) can0 270#A013000000000000
(1427659947.243564) can0 478#EBFFAD7A77001C00
(1427659947.289072) can0 477#EAFFAD7A77001C00
(1427659947.305095) can0 475#83131B4945000000
(1427659947.305383) can0 306#1600000000000000
(1427659947.305712) can0 294#00009CFFFA000000
(1427659947.305969) can0 270#A013000000000000
(1427659947.340588) can0 478#EAFFAE7A77001C00
(1427659947.388692) can0 477#EBFFAE7A77001C00
(1427659947.405182) can0 475#7D131B4945000000
(1427659947.405531) can0 294#00009CFFFA000000
(1427659947.405746) can0 306#1600000000000000
(1427659947.406014) can0 270#A013000000000000
(1427659947.437488) can0 478#EAFFAD7A77001C00
(1427659947.482245) can0 477#EAFFAE7A77001C00
(1427659947.505022) can0 475#7D131B4945000000
(1427659947.505316) can0 306#1600000000000000
(1427659947.505604) can0 294#00009CFFFA000000
(1427659947.505914) can0 270#A013000000000000
(1427659947.534467) can0 478#EAFFAE7A77001C00
(1427659947.579213) can0 477#EAFFAE7A77001C00
(1427659947.605014) can0 475#85131B4945000000
(1427659947.605286) can0 306#1600000000000000
(1427659947.605532) can0 294#00009CFFFA000000
(1427659947.605775) can0 270#A013000000000000
(1427659947.631439) can0 478#E8FFAD7A77001C00
(1427659947.676222) can0 477#E7FFAF7A77001C00
(1427659947.705012) can0 475#7A131B4945000000
(1427659947.705380) can0 306#1500000000000000
(1427659947.705717) can0 294#00009CFFFA000000
(1427659947.705977) can0 270#A013000000000000
(1427659947.728388) can0 478#E7FFB07A77001C00
(1427659947.773454) can0 477#E7FFB17A77001C00
(1427659947.804966) can0 475#7F131B4945000000
(1427659947.805412) can0 306#1400000000000000
(1427659947.805661) can0 294#00009CFFFA000000
(1427659947.805904) can0 270#A013000000000000
(1427659947.825353) can0 478#E7FFB17A77001C00
(1427659947.870112) can0 477#E7FFB07A77001C00
(1427659947.905372) can0 475#8D131B4945000000
(1427659947.905751) can0 306#1300000000000000
(1427659947.906013) can0 270#A113000000000000
(1427659947.906215) can0 294#00009CFFFA000000
(1427659947.922313) can0 478#E1FFB17A77001C00
(1427659947.967090) can0 477#E2FFB47A77001C00
(1427659948.005360) can0 475#8B131B4945000000
(1427659948.005658) can0 306#1300000000000000
(1427659948.005905) can0 294#00009CFFFA000000
(1427659948.006148) can0 270#A113000000000000
(1427659948.019338) can0 478#E2FFB57A77001C00
(1427659948.064111) can0 477#E1FFB57A77001C00
(1427659948.105089) can0 475#87131B4945000000
(1427659948.105372) can0 306#1300000000000000
(1427659948.105652) can0 294#00009CFFFA000000
(1427659948.105966) can0 270#A113000000000000
(1427659948.116299) can0 478#E2FFB67A77001C00
(1427659948.161010) can0 477#E2FFB67A77001C00
(1427659948.205301) can0 475#83131B4945000000
(1427659948.205603) can0 306#1300000000000000
(1427659948.205852) can0 294#00009CFFFA000000
(1427659948.206100) can0 270#A213000000000000
(1427659948.213255) can0 478#E1FFB67A77001C00
(1427659948.258138) can0 477#E2FFB77A77001C00
(1427659948.305045) can0 475#83131B4945000000
(1427659948.305388) can0 306#1300000000000000
(1427659948.305679) can0 294#00009CFFFA000000
(1427659948.305987) can0 270#A213000000000000
(1427659948.310230) can0 478#E2FFB77A77001C00
(1427659948.355012) can0 477#E1FFB77A77001C00
(1427659948.404974) can0 475#87131B4945000000
(1427659948.405308) can0 306#1300000000000000
(1427659948.405567) can0 294#00009CFFFA000000
(1427659948.405811) can0 270#A213000000000000
(1427659948.407331) can0 478#E1FFB67A77001C00
(1427659948.451970) can0 477#E1FFB77A77001C00
(1427659948.504186) can0 478#E1FFB77A77001C00
(1427659948.505225) can0 475#83131B4945000000
(1427659948.505508) can0 306#1300000000000000
(1427659948.505805) can0 294#00009CFFFA000000
(1427659948.506061) can0 270#A213000000000000
(1427659948.548889) can0 477#E2FFB77A77001C00
(1427659948.601678) can0 478#E1FFB87A77001C00
(1427659948.605443) can0 475#83131B4945000000
(1427659948.605702) can0 306#1400000000000000
(1427659948.605945) can0 294#00009CFFFA000000
(1427659948.606186) can0 270#A213000000000000
(1427659948.645872) can0 477#DEFFB87A77001C00
(1427659948.698075) can0 478#DEFFBB7A77001C00
(1427659948.705435) can0 475#83131B4945000000
(1427659948.705933) can0 306#1400000000000000
(1427659948.706182) can0 294#00009CFFFA000000
(1427659948.706425) can0 270#A213000000000000
(1427659948.742802) can0 477#DEFFBB7A77001C00
(1427659948.795074) can0 478#DFFFBA7A77001C00
(1427659948.805363) can0 475#87131B4945000000
(1427659948.805675) can0 306#1500000000000000
(1427659948.805923) can0 294#00009CFFFA000000
(1427659948.806167) can0 270#A313000000000000
(1427659948.839834) can0 477#DEFFBB7A77001C00
(1427659948.892035) can0 478#DEFFBB7A77001C00
(1427659948.905330) can0 475#93131B4945000000
(1427659948.905646) can0 306#1500000000000000
(1427659948.905997) can0 270#A313000000000000
(1427659948.906203) can0 294#00009CFFFA000000
(1427659948.936763) can0 477#D8FFBB7A77001C00
(1427659948.988992) can0 478#D8FFBF7A77001C00
(1427659949.005313) can0 475#8B131B4945000000
(1427659949.005776) can0 306#1500000000000000
(1427659949.006031) can0 294#00009CFFFA000000
(1427659949.006277) can0 270#A313000000000000
(1427659949.033727) can0 477#D8FFC07A77001C00
(1427659949.086005) can0 478#D8FFC17A77001C00
(1427659949.105260) can0 475#8D131B4945000000
(1427659949.105602) can0 306#1500000000000000
(1427659949.105953) can0 270#A313000000000000
(1427659949.106169) can0 294#00009CFFFA000000
(1427659949.130758) can0 477#D8FFC17A77001C00
(1427659949.183815) can0 478#D8FFC17A77001C00
(1427659949.206061) can0 475#8D131B4945000000
(1427659949.206335) can0 294#00009CFFFA000000
(1427659949.227643) can0 477#D8FFC07A77001C00
(1427659949.281011) can0 478#D8FFC27A77001C00
(1427659949.305195) can0 475#8B131B4945000000
(1427659949.305482) can0 306#1600000000000000
(1427659949.305766) can0 294#00009CFFFA000000
(1427659949.306057) can0 270#A413000000000000
(1427659949.325421) can0 477#D8FFC27A77001C00
(1427659949.376958) can0 478#D8FFC37A77001C00
(1427659949.405543) can0 306#1600000000000000
(1427659949.405917) can0 294#00009CFFFA000000
(1427659949.406410) can0 270#A413000000000000
(1427659949.421758) can0 477#D8FFC37A77001C00
(1427659949.473894) can0 478#D8FFC37A77001C00
(1427659949.505072) can0 475#85131B4945000000
(1427659949.505520) can0 306#1600000000000000
(1427659949.505814) can0 294#00009CFFFA000000
(1427659949.506115) can0 270#A413000000000000
(1427659949.518607) can0 477#D8FFC37A77001C00
(1427659949.570823) can0 478#D8FFC27A77001C00
(1427659949.605135) can0 475#8D131B4945000000
(1427659949.605615) can0 306#1600000000000000
(1427659949.605870) can0 294#00009CFFFA000000
(1427659949.606116) can0 270#A413000000000000
(1427659949.615576) can0 477#D8FFC37A77001C00
(1427659949.667805) can0 478#D5FFC37A77001C00
(1427659949.705143) can0 475#85131B4945000000
(1427659949.705409) can0 306#1600000000000000
(1427659949.705659) can0 294#00009CFFFA000000
(1427659949.706097) can0 270#A413000000000000
(1427659949.712518) can0 477#D5FFC47A77001C00
(1427659949.764726) can0 478#D5FFC67A77001C00
(1427659949.805087) can0 475#87131B4945000000
(1427659949.805376) can0 306#1500000000000000
(1427659949.805634) can0 294#00009CFFFA000000
(1427659949.805893) can0 270#A413000000000000
(1427659949.809490) can0 477#D5FFC67A77001C00
(1427659949.861729) can0 478#D5FFC57A77001C00
(1427659949.905059) can0 475#83131B4945000000
(1427659949.905373) can0 306#1500000000000000
(1427659949.905643) can0 294#00009CFFFA000000
(1427659949.905991) can0 270#A413000000000000
(1427659949.906441) can0 477#D2FFC57A77001C00
(1427659949.958666) can0 478#CFFFC67A77001C00
(1427659950.003421) can0 477#CFFFCA7A77001C00
(1427659950.005054) can0 475#8F131B4945000000
(1427659950.005326) can0 306#1500000000000000
(1427659950.005585) can0 294#00009CFFFA000000
(1427659950.005852) can0 270#A413000000000000
(1427659950.055665) can0 478#CFFFCA7A77001C00
(1427659950.100386) can0 477#CFFFCB7A77001C00
(1427659950.105000) can0 475#85131B4945000000
(1427659950.105426) can0 306#1500000000000000
(1427659950.105676) can0 294#00009CFFFA000000
(1427659950.106022) can0 270#A513000000000000
(1427659950.152632) can0 478#CFFFCC7A77001C00
(1427659950.197535) can0 477#CFFFCA7A77001C00
(1427659950.205236) can0 475#89131B4945000000
(1427659950.205549) can0 306#1400000000000000
(1427659950.205814) can0 294#00009CFFFA000000
(1427659950.206058) can0 270#A513000000000000
(1427659950.249575) can0 478#CFFFCB7A77001C00
(1427659950.294545) can0 477#CFFFCB7A77001C00
(1427659950.305197) can0 475#89131B4945000000
(1427659950.305470) can0 306#1400000000000000
(1427659950.305717) can0 294#00009CFFFA000000
(1427659950.306055) can0 270#A513000000000000
(1427659950.346722) can0 478#CFFFCC7A77001C00
(1427659950.391342) can0 477#CFFFCC7A77001C00
(1427659950.405138) can0 475#89131B4945000000
(1427659950.405426) can0 306#1400000000000000
(1427659950.405672) can0 294#00009CFFFA000000
(1427659950.405913) can0 270#A513000000000000
(1427659950.443537) can0 478#CFFFCC7A77001C00
(1427659950.488287) can0 477#CFFFCD7A77001C00
(1427659950.505117) can0 475#7F131B4945000000
(1427659950.505578) can0 306#1400000000000000
(1427659950.505870) can0 294#00009CFFFA000000
(1427659950.506163) can0 270#A513000000000000
(1427659950.540515) can0 478#CFFFCD7A77001C00
(1427659950.586384) can0 477#CFFFCD7A77001C00
(1427659950.605020) can0 475#81131B4945000000
(1427659950.605344) can0 306#1400000000000000
(1427659950.605596) can0 294#00009CFFFA000000
(1427659950.605840) can0 270#A513000000000000
(1427659950.637471) can0 478#CCFFCD7A77001C00
(1427659950.682355) can0 477#CCFFCF7A77001C00
(1427659950.705059) can0 475#81131B4945000000
(1427659950.705362) can0 306#1500000000000000
(1427659950.705622) can0 294#00009CFFFA000000
(1427659950.705889) can0 270#A513000000000000
(1427659950.734415) can0 478#CCFFD17A77001C00
(1427659950.779513) can0 477#CCFFD17A77001C00
(1427659950.805036) can0 475#7F131B4945000000
(1427659950.805332) can0 306#1500000000000000
(1427659950.805721) can0 294#00009CFFFA000000
(1427659950.805970) can0 270#A613000000000000
(1427659950.831426) can0 478#CCFFD17A77001C00
(1427659950.876169) can0 477#CCFFD27A77001C00
(1427659950.905010) can0 475#83131B4945000000
(1427659950.905428) can0 306#1500000000000000
(1427659950.905671) can0 294#00009CFFFA000000
(1427659950.905995) can0 270#A613000000000000
(1427659950.928402) can0 478#C6FFD17A77001C00
(1427659950.973150) can0 477#C6FFD27A77001C00
(1427659951.005134) can0 475#87131B4945000000
(1427659951.005452) can0 306#1500000000000000
(1427659951.005710) can0 294#00009CFFFA000000
(1427659951.005975) can0 270#A613000000000000
(1427659951.025357) can0 478#C6FFD47A77001C00
(1427659951.070120) can0 477#C6FFD77A77001C00
(1427659951.105376) can0 475#8B131B4945000000
(1427659951.105673) can0 306#1600000000000000
(1427659951.105963) can0 294#00009CFFFA000000
(1427659951.106257) can0 270#A713000000000000
(1427659951.122316) can0 478#C6FFD77A77001C00
(1427659951.167059) can0 477#C6FFD77A77001C00
(1427659951.219341) can0 478#C6FFD77A77001C00
(1427659951.264022) can0 477#C6FFD87A77001C00
(1427659951.305069) can0 475#81131B4945000000
(1427659951.305397) can0 306#1600000000000000
(1427659951.305671) can0 294#00009CFFFA000000
(1427659951.305930) can0 270#A713000000000000
(1427659951.316225) can0 478#C6FFD77A77001C00
(1427659951.361004) can0 477#C6FFD77A77001C00
(1427659951.405544) can0 306#1600000000000000
(1427659951.406380) can0 294#00009CFFFA000000
(1427659951.406615) can0 270#A713000000000000
(1427659951.413369) can0 478#C6FFD87A77001C00
(1427659951.458042) can0 477#C6FFD97A77001C00
(1427659951.505172) can0 475#83131B4945000000
(1427659951.505625) can0 306#1500000000000000
(1427659951.505880) can0 270#A713000000000000
(1427659951.506176) can0 294#00009CFFFA000000
(1427659951.510184) can0 478#C6FFD97A77001C00
(1427659951.554915) can0 477#C6FFD87A77001C00
(1427659951.605309) can0 475#89131B4945000000
(1427659951.605620) can0 306#1500000000000000
(1427659951.605869) can0 294#00009CFFFA000000
(1427659951.606122) can0 270#A713000000000000
(1427659951.607167) can0 478#C6FFD97A77001C00
(1427659951.651908) can0 477#C3FFDA7A77001C00
(1427659951.704144) can0 478#C3FFDA7A77001C00
(1427659951.705283) can0 475#93131B4945000000
(1427659951.705548) can0 306#1600000000000000
(1427659951.705974) can0 294#00009CFFFA000000
(1427659951.706274) can0 270#A813000000000000
(1427659951.748868) can0 477#C3FFDB7A77001C00
(1427659951.801076) can0 478#C3FFDC7A77001C00
(1427659951.805465) can0 475#95131B4945000000
(1427659951.805761) can0 306#1600000000000000
(1427659951.806023) can0 294#00009CFFFA000000
(1427659951.806281) can0 270#A813000000000000
(1427659951.845846) can0 477#C3FFDC7A77001C00
(1427659951.898175) can0 478#C3FFDD7A77001C00
(1427659951.905467) can0 475#95131B4945000000
(1427659951.905749) can0 306#1600000000000000
(1427659951.906037) can0 294#00009CFFFA000000
(1427659951.906339) can0 270#A813000000000000
(1427659951.942844) can0 477#BDFFDD7A77001C00
(1427659951.995034) can0 478#BDFFE17A77001C00
(1427659952.005419) can0 475#8D131B4945000000
(1427659952.005711) can0 306#1600000000000000
(1427659952.005965) can0 294#00009CFFFA000000
(1427659952.006213) can0 270#A913000000000000
(1427659952.039764) can0 477#BCFFE17A77001C00
(1427659952.091983) can0 478#BCFFE17A77001C00
(1427659952.105352) can0 475#8B131B4945000000
(1427659952.105634) can0 306#1600000000000000
(1427659952.105882) can0 294#00009CFFFA000000
(1427659952.106205) can0 270#A913000000000000
(1427659952.136912) can0 477#BDFFE17A77001C00
(1427659952.189959) can0 478#BCFFE27A77001C00
(1427659952.205356) can0 475#8B131B4945000000
(1427659952.205625) can0 306#1600000000000000
(1427659952.205876) can0 294#00009CFFFA000000
(1427659952.206122) can0 270#A913000000000000
(1427659952.233709) can0 477#BDFFE27A77001C00
(1427659952.286715) can0 478#BDFFE27A77001C00
(1427659952.305297) can0 475#87131B4945000000
(1427659952.305580) can0 306#1600000000000000
(1427659952.305828) can0 294#00009CFFFA000000
(1427659952.306153) can0 270#A913000000000000
(1427659952.330661) can0 477#BCFFE37A77001C00
(1427659952.382915) can0 478#BDFFE37A77001C00
(1427659952.405032) can0 475#93131B4945000000
(1427659952.405353) can0 306#1600000000000000
(1427659952.406222) can0 294#00009CFFFA000000
(1427659952.427636) can0 477#BDFFE37A77001C00
(1427659952.480252) can0 478#BCFFE37A77001C00
(1427659952.505015) can0 475#8F131B4945000000
(1427659952.505311) can0 306#1600000000000000
(1427659952.505576) can0 294#00009CFFFA000000
(1427659952.505829) can0 270#A913000000000000
(1427659952.524667) can0 477#BCFFE47A77001C00
(1427659952.577694) can0 478#BDFFE47A77001C00
(1427659952.605159) can0 475#93131B4945000000
(1427659952.605477) can0 306#1700000000000000
(1427659952.605726) can0 294#00009CFFFA000000
(1427659952.605968) can0 270#A913000000000000
(1427659952.621645) can0 477#BAFFE47A77001C00
(1427659952.673798) can0 478#BAFFE67A77001C00
(1427659952.705203) can0 475#8B131B4945000000
(1427659952.705474) can0 306#1800000000000000
(1427659952.705731) can0 294#00009CFFFA000000
(1427659952.705976) can0 270#A913000000000000
(1427659952.718537) can0 477#BAFFE67A77001C00
(1427659952.770772) can0 478#BAFFE77A77001C00
(1427659952.805155) can0 475#89131B4945000000
(1427659952.805439) can0 306#1800000000000000
(1427659952.805687) can0 294#00009CFFFA000000
(1427659952.805929) can0 270#AA13000000000000
(1427659952.815546) can0 477#BAFFE77A77001C00
(1427659952.867734) can0 478#BAFFE77A77001C00
(1427659952.905136) can0 475#89131B4945000000
(1427659952.905440) can0 306#1900000000000000
(1427659952.905690) can0 294#00009CFFFA000000
(1427659952.905947) can0 270#AA13000000000000
(1427659952.912519) can0 477#B5FFE97A77001C00
(1427659952.964762) can0 478#B4FFE97A77001C00
(1427659953.005077) can0 475#85131B4945000000
(1427659953.005386) can0 306#1800000000000000
(1427659953.005635) can0 294#00009CFFFA000000
(1427659953.005879) can0 270#AA13000000000000
(1427659953.009461) can0 477#B3FFEC7A77001C00
(1427659953.061678) can0 478#B4FFEC7A77001C00
(1427659953.105081) can0 475#87131B4945000000
(1427659953.105361) can0 306#1800000000000000
(1427659953.105623) can0 294#00009CFFFA000000
(1427659953.105872) can0 270#AA13000000000000
(1427659953.106393) can0 477#B3FFEE7A77001C00
(1427659953.158681) can0 478#B4FFED7A77001C00
(1427659953.204264) can0 477#B3FFEE7A77001C00
(1427659953.205031) can0 475#89131B4945000000
(1427659953.205346) can0 306#1800000000000000
(1427659953.205607) can0 294#00009CFFFA000000
(1427659953.205879) can0 270#AB13000000000000
(1427659953.255672) can0 478#B3FFEE7A77001C00
(1427659953.300434) can0 477#B4FFEF7A77001C00
(1427659953.305210) can0 475#93131B4945000000
(1427659953.305489) can0 306#1800000000000000
(1427659953.305737) can0 294#00009CFFFA000000
(1427659953.305982) can0 270#AB13000000000000
(1427659953.360808) can0 478#B4FFEF7A77001C00
(1427659953.397370) can0 477#B4FFEF7A77001C00
(1427659953.405168) can0 475#8D131B4945000000
(1427659953.405506) can0 306#1700000000000000
(1427659953.405769) can0 294#00009CFFFA000000
(1427659953.406033) can0 270#AB13000000000000
(1427659953.449728) can0 478#B4FFF07A77001C00
(1427659953.494301) can0 477#B4FFEF7A77001C00
(1427659953.505127) can0 475#8D131B4945000000
(1427659953.505455) can0 306#1600000000000000
(1427659953.505715) can0 294#00009CFFFA000000
(1427659953.505969) can0 270#AB13000000000000
(1427659953.546557) can0 478#B3FFF07A77001C00
(1427659953.591531) can0 477#B3FFF07A77001C00
(1427659953.605122) can0 475#8B131B4945000000
(1427659953.605429) can0 306#1500000000000000
(1427659953.605698) can0 294#00009CFFFA000000
(1427659953.605943) can0 270#AB13000000000000
(1427659953.643491) can0 478#B1FFF07A77001C00
(1427659953.689251) can0 477#B0FFF27A77001C00
(1427659953.705083) can0 475#8D131B4945000000
(1427659953.705449) can0 306#1500000000000000
(1427659953.705702) can0 294#00009CFFFA000000
(1427659953.705948) can0 270#AB13000000000000
(1427659953.740516) can0 478#B0FFF27A77001C00
(1427659953.785683) can0 477#B1FFF47A77001C00
(1427659953.805062) can0 475#8D131B4945000000
(1427659953.805356) can0 306#1400000000000000
(1427659953.805604) can0 294#00009CFFFA000000
(1427659953.805847) can0 270#AC13000000000000
(1427659953.837447) can0 478#B1FFF47A77001C00
(1427659953.882257) can0 477#B1FFF37A77001C00
(1427659953.905082) can0 475#95131B4945000000
(1427659953.905910) can0 306#1400000000000000
(1427659953.906188) can0 294#00009CFFFA000000
(1427659953.934423) can0 478#AAFFF67A77001C00
(1427659953.980325) can0 477#AAFFF87A77001C00
(1427659954.005091) can0 475#93131B4945000000
(1427659954.005387) can0 306#1400000000000000
(1427659954.005640) can0 294#00009CFFFA000000
(1427659954.005890) can0 270#AC13000000000000
(1427659954.031407) can0 478#AAFFF87A77001C00
(1427659954.076296) can0 477#AAFFFA7A77001C00
(1427659954.105217) can0 475#96131B4945000000
(1427659954.105520) can0 306#1300000000000000
(1427659954.105787) can0 294#00009CFFFA000000
(1427659954.106042) can0 270#AD13000000000000
(1427659954.128392) can0 478#ABFFF97A77001C00
(1427659954.173087) can0 477#AAFFF97A77001C00
(1427659954.205412) can0 475#8B131B4945000000
(1427659954.205716) can0 306#1300000000000000
(1427659954.205967) can0 294#00009CFFFA000000
(1427659954.206210) can0 270#AD13000000000000
(1427659954.225479) can0 478#ABFFFA7A77001C00
(1427659954.270148) can0 477#AAFFFA7A77001C00
(1427659954.305394) can0 475#91131B4945000000
(1427659954.305692) can0 306#1400000000000000
(1427659954.305940) can0 294#00009CFFFA000000
(1427659954.306221) can0 270#AD13000000000000
(1427659954.322364) can0 478#AAFFFC7A77001C00
(1427659954.367083) can0 477#ABFFFB7A77001C00
(1427659954.405140) can0 475#93131B4945000000
(1427659954.405465) can0 306#1400000000000000
(1427659954.405714) can0 294#00009CFFFA000000
(1427659954.405988) can0 270#AD13000000000000
(1427659954.419472) can0 478#AAFFFB7A77001C00
(1427659954.464029) can0 477#AAFFFB7A77001C00
(1427659954.505339) can0 475#96131B4945000000
(1427659954.505769) can0 306#1500000000000000
(1427659954.505982) can0 294#00009CFFFA000000
(1427659954.506276) can0 270#AD13000000000000
(1427659954.516251) can0 478#AAFFFB7A77001C00
(1427659954.561013) can0 477#AAFFFC7A77001C00
(1427659954.605288) can0 475#8F131B4945000000
(1427659954.605614) can0 306#1500000000000000
(1427659954.605866) can0 294#00009CFFFA000000
(1427659954.606107) can0 270#AD13000000000000
(1427659954.613261) can0 478#A8FFFC7A77001C00
(1427659954.657958) can0 477#A8FFFC7A77001C00
(1427659954.705259) can0 475#8B131B4945000000
(1427659954.705564) can0 306#1400000000000000
(1427659954.705815) can0 294#00009CFFFA000000
(1427659954.706059) can0 270#AD13000000000000
(1427659954.710163) can0 478#A8FFFD7A77001C00
(1427659954.754913) can0 477#A7FFFE7A77001C00
(1427659954.805178) can0 475#98131B4945000000
(1427659954.805504) can0 306#1400000000000000
(1427659954.805776) can0 294#00009CFFFA000000
(1427659954.806020) can0 270#AD13000000000000
(1427659954.807097) can0 478#A7FFFF7A77001C00
(1427659954.851911) can0 477#A8FFFF7A77001C00
(1427659954.904103) can0 478#A5FFFF7A77001C00
(1427659954.905477) can0 475#9C131B4945000000
(1427659954.905752) can0 306#1400000000000000
(1427659954.906011) can0 294#00009CFFFA000000
(1427659954.906299) can0 270#AD13000000000000
(1427659954.948846) can0 477#A2FF027B77001C00
(1427659955.001051) can0 478#A1FF047B77001C00
(1427659955.005492) can0 475#93131B4945000000
(1427659955.005759) can0 306#1300000000000000
(1427659955.006009) can0 294#00009CFFFA000000
(1427659955.006256) can0 270#AE13000000000000
(1427659955.045839) can0 477#A1FF067B77001C00
(1427659955.098071) can0 478#A2FF057B77001C00
(1427659955.105470) can0 475#95131B4945000000
(1427659955.105750) can0 306#1300000000000000
(1427659955.106001) can0 294#00009CFFFA000000
(1427659955.106290) can0 270#AE13000000000000
(1427659955.142800) can0 477#A1FF057B77001C00
(1427659955.195034) can0 478#A2FF067B77001C00
(1427659955.205391) can0 475#8F131B4945000000
(1427659955.205673) can0 306#1300000000000000
(1427659955.205921) can0 294#00009CFFFA000000
(1427659955.206163) can0 270#AE13000000000000
(1427659955.239770) can0 477#A1FF067B77001C00
(1427659955.292492) can0 478#A1FF067B77001C00
(1427659955.305451) can0 475#8D131B4945000000
(1427659955.305718) can0 306#1400000000000000
(1427659955.305967) can0 294#00009CFFFA000000
(1427659955.306210) can0 270#AF13000000000000
(1427659955.336706) can0 477#A2FF077B77001C00
(1427659955.388947) can0 478#A1FF077B77001C00
(1427659955.406076) can0 270#AF13000000000000
(1427659955.433703) can0 477#A2FF077B77001C00
(1427659955.485915) can0 478#A1FF077B77001C00
(1427659955.505113) can0 475#93131B4945000000
(1427659955.505528) can0 306#1400000000000000
(1427659955.505788) can0 294#00009CFFFA000000
(1427659955.506037) can0 270#AF13000000000000
(1427659955.533729) can0 477#A1FF077B77001C00
(1427659955.583423) can0 478#A2FF087B77001C00
(1427659955.605052) can0 475#91131B4945000000
(1427659955.605507) can0 306#1400000000000000
(1427659955.605767) can0 294#00009CFFFA000000
(1427659955.606027) can0 270#AF13000000000000
(1427659955.627620) can0 477#9EFF097B77001C00
(1427659955.679869) can0 478#9EFF0A7B77001C00
(1427659955.705185) can0 475#91131B4945000000
(1427659955.705538) can0 306#1400000000000000
(1427659955.705802) can0 294#00009CFFFA000000
(1427659955.706047) can0 270#AF13000000000000
(1427659955.724567) can0 477#9EFF0B7B77001C00
(1427659955.776834) can0 478#9EFF0B7B77001C00
(1427659955.805244) can0 475#8D131B4945000000
(1427659955.805518) can0 306#1400000000000000
(1427659955.805766) can0 294#00009CFFFA000000
(1427659955.806011) can0 270#AF13000000000000
(1427659955.821572) can0 477#9EFF0C7B77001C00
(1427659955.873977) can0 478#9EFF0C7B77001C00
(1427659955.905192) can0 475#96131B4945000000
(1427659955.905501) can0 306#1400000000000000
(1427659955.905749) can0 294#00009CFFFA000000
(1427659955.905994) can0 270#AF13000000000000
(1427659955.918560) can0 477#98FF0C7B77001C00
(1427659955.970776) can0 478#98FF107B77001C00
(1427659956.004917) can0 475#9C131B4945000000
(1427659956.005393) can0 306#1400000000000000
(1427659956.005646) can0 294#00009CFFFA000000
(1427659956.005893) can0 270#AF13000000000000
(1427659956.015686) can0 477#99FF117B77001C00
(1427659956.067718) can0 478#98FF107B77001C00
(1427659956.105158) can0 475#A4131B4945000000
(1427659956.105430) can0 306#1400000000000000
(1427659956.105678) can0 294#00009CFFFA000000
(1427659956.105920) can0 270#B013000000000000
(1427659956.112484) can0 477#98FF127B77001C00
(1427659956.164875) can0 478#99FF117B77001C00
(1427659956.204917) can0 475#8D131B4945000000
(1427659956.205291) can0 306#1400000000000000
(1427659956.205562) can0 294#00009CFFFA000000
(1427659956.205818) can0 270#B013000000000000
(1427659956.209435) can0 477#98FF127B77001C00
(1427659956.261746) can0 478#98FF137B77001C00
(1427659956.305105) can0 475#8D131B4945000000
(1427659956.305379) can0 306#1400000000000000
(1427659956.305734) can0 294#00009CFFFA000000
(1427659956.305993) can0 270#B013000000000000
(1427659956.306437) can0 477#98FF127B77001C00
(1427659956.358662) can0 478#98FF137B77001C00
(1427659956.404434) can0 477#98FF147B77001C00
(1427659956.455608) can0 478#98FF147B77001C00
(1427659956.500366) can0 477#98FF147B77001C00
(1427659956.505251) can0 475#93131B4945000000
(1427659956.505543) can0 306#1400000000000000
(1427659956.505805) can0 294#00009CFFFA000000
(1427659956.506057) can0 270#B113000000000000
(1427659956.552599) can0 478#98FF157B77001C00
(1427659956.597352) can0 477#98FF157B77001C00
(1427659956.605260) can0 475#9C131B4945000000
(1427659956.605683) can0 306#1400000000000000
(1427659956.605977) can0 294#00009CFFFA000000
(1427659956.606244) can0 270#B113000000000000
(1427659956.649537) can0 478#95FF157B77001C00
(1427659956.694286) can0 477#95FF187B77001C00
(1427659956.705192) can0 475#9E131B4945000000
(1427659956.705499) can0 306#1500000000000000
(1427659956.705749) can0 294#00009CFFFA000000
(1427659956.705994) can0 270#B113000000000000
(1427659956.746542) can0 478#95FF187B77001C00
(1427659956.791259) can0 477#95FF187B77001C00
(1427659956.805198) can0 475#93131B4945000000
(1427659956.805482) can0 306#1500000000000000
(1427659956.805732) can0 294#00009CFFFA000000
(1427659956.805975) can0 270#B113000000000000
(1427659956.843462) can0 478#95FF177B77001C00
(1427659956.888267) can0 477#95FF187B77001C00
(1427659956.940578) can0 478#8FFF187B77001C00
(1427659956.985247) can0 477#8FFF1D7B77001C00
(1427659957.005183) can0 475#91131B4945000000
(1427659957.005537) can0 306#1400000000000000
(1427659957.005829) can0 294#00009CFFFA000000
(1427659957.006622) can0 270#B113000000000000
(1427659957.037411) can0 478#8FFF1D7B77001C00
(1427659957.082132) can0 477#8FFF1D7B77001C00
(1427659957.105115) can0 475#93131B4945000000
(1427659957.105543) can0 306#1400000000000000
(1427659957.105811) can0 294#00009CFFFA000000
(1427659957.106076) can0 270#B213000000000000
(1427659957.134411) can0 478#8FFF1F7B77001C00
(1427659957.179175) can0 477#8FFF1E7B77001C00
(1427659957.205517) can0 475#8F131B4945000000
(1427659957.205807) can0 306#1500000000000000
(1427659957.206061) can0 294#00009CFFFA000000
(1427659957.206302) can0 270#B213000000000000
(1427659957.231354) can0 478#8FFF207B77001C00
(1427659957.277000) can0 477#8FFF1F7B77001C00
(1427659957.305573) can0 475#91131B4945000000
(1427659957.305881) can0 306#1500000000000000
(1427659957.306128) can0 294#00009CFFFA000000
(1427659957.306380) can0 270#B313000000000000
(1427659957.328344) can0 478#8FFF1F7B77001C00
(1427659957.373105) can0 477#8FFF217B77001C00
(1427659957.405509) can0 475#93131B4945000000
(1427659957.405802) can0 306#1500000000000000
(1427659957.406060) can0 294#00009CFFFA000000
(1427659957.406315) can0 270#B313000000000000
(1427659957.427709) can0 478#8FFF217B77001C00
(1427659957.470370) can0 477#8FFF207B77001C00
(1427659957.505465) can0 475#95131B4945000000
(1427659957.505828) can0 306#1500000000000000
(1427659957.506105) can0 294#00009CFFFA000000
(1427659957.506362) can0 270#B313000000000000
(1427659957.522273) can0 478#8FFF207B77001C00
(1427659957.567051) can0 477#8FFF217B77001C00
(1427659957.605465) can0 475#93131B4945000000
(1427659957.605755) can0 306#1500000000000000
(1427659957.606029) can0 294#00009CFFFA000000
(1427659957.606282) can0 270#B313000000000000
(1427659957.619239) can0 478#8CFF217B77001C00
(1427659957.663971) can0 477#8CFF247B77001C00
(1427659957.705424) can0 475#93131B4945000000
(1427659957.705792) can0 306#1500000000000000
(1427659957.706057) can0 294#00009CFFFA000000
(1427659957.706314) can0 270#B313000000000000
(1427659957.716188) can0 478#8CFF247B77001C00
(1427659957.760969) can0 477#8CFF247B77001C00
(1427659957.805367) can0 475#96131B4945000000
(1427659957.805686) can0 306#1400000000000000
(1427659957.805960) can0 294#00009CFFFA000000
(1427659957.806228) can0 270#B313000000000000
(1427659957.813258) can0 478#8CFF247B77001C00
(1427659957.857923) can0 477#8CFF257B77001C00
(1427659957.905381) can0 475#95131B4945000000
(1427659957.905735) can0 306#1400000000000000
(1427659957.905987) can0 294#00009CFFFA000000
(1427659957.906234) can0 270#B313000000000000
(1427659957.910106) can0 478#87FF247B77001C00
(1427659957.955011) can0 477#85FF267B77001C00
(1427659958.005580) can0 475#96131B4945000000
(1427659958.005868) can0 306#1500000000000000
(1427659958.006129) can0 294#00009CFFFA000000
(1427659958.006377) can0 270#B413000000000000
(1427659958.007092) can0 478#85FF2A7B77001C00
(1427659958.051875) can0 477#85FF2A7B77001C00
(1427659958.104267) can0 478#85FF2B7B77001C00
(1427659958.105770) can0 475#93131B4945000000
(1427659958.106033) can0 306#1500000000000000
(1427659958.106277) can0 294#00009CFFFA000000
(1427659958.106561) can0 270#B413000000000000
(1427659958.148812) can0 477#85FF2A7B77001C00
(1427659958.201075) can0 478#85FF2B7B77001C00
(1427659958.205527) can0 475#9E131B4945000000
(1427659958.205971) can0 306#1500000000000000
(1427659958.206224) can0 294#00009CFFFA000000
(1427659958.206469) can0 270#B413000000000000
(1427659958.245778) can0 477#85FF2C7B77001C00
(1427659958.298005) can0 478#85FF2B7B77001C00
(1427659958.305489) can0 475#96131B4945000000
(1427659958.305918) can0 306#1500000000000000
(1427659958.306164) can0 294#00009CFFFA000000
(1427659958.306405) can0 270#B513000000000000
(1427659958.342754) can0 477#85FF2D7B77001C00
(1427659958.394983) can0 478#85FF2C7B77001C00
(1427659958.405442) can0 475#9C131B4945000000
(1427659958.405739) can0 306#1500000000000000
(1427659958.406000) can0 294#00009CFFFA000000
(1427659958.406263) can0 270#B513000000000000
(1427659958.439753) can0 477#85FF2D7B77001C00
(1427659958.492484) can0 478#85FF2E7B77001C00
(1427659958.505391) can0 475#8D131B4945000000
(1427659958.505687) can0 306#1500000000000000
(1427659958.506476) can0 294#00009CFFFA000000
(1427659958.506824) can0 270#B513000000000000
(1427659958.536703) can0 477#85FF2D7B77001C00
(1427659958.588950) can0 478#85FF2E7B77001C00
(1427659958.605398) can0 475#8D131B4945000000
(1427659958.605668) can0 306#1500000000000000
(1427659958.605917) can0 294#00009CFFFA000000
(1427659958.606162) can0 270#B513000000000000
(1427659958.633709) can0 477#82FF2E7B77001C00
(1427659958.686999) can0 478#82FF317B77001C00
(1427659958.705500) can0 475#9A131B4945000000
(1427659958.705832) can0 306#1500000000000000
(1427659958.706080) can0 294#00009CFFFA000000
(1427659958.706323) can0 270#B513000000000000
(1427659958.730716) can0 477#83FF317B77001C00
(1427659958.782874) can0 478#83FF317B77001C00
(1427659958.805292) can0 475#95131B4945000000
(1427659958.805580) can0 306#1600000000000000
(1427659958.805826) can0 294#00009CFFFA000000
(1427659958.806070) can0 270#B513000000000000
(1427659958.827633) can0 477#82FF327B77001C00
(1427659958.880011) can0 478#83FF327B77001C00
(1427659958.905293) can0 475#9C131B4945000000
(1427659958.905605) can0 306#1500000000000000
(1427659958.905866) can0 294#00009CFFFA000000
(1427659958.906132) can0 270#B613000000000000
(1427659958.924578) can0 477#7CFF327B77001C00
(1427659958.976799) can0 478#7CFF377B77001C00
(1427659959.005266) can0 475#A2131B4945000000
(1427659959.005728) can0 306#1500000000000000
(1427659959.005984) can0 294#00009CFFFA000000
(1427659959.006223) can0 270#B613000000000000
(1427659959.021574) can0 477#7CFF377B77001C00
(1427659959.073804) can0 478#7CFF387B77001C00
(1427659959.105210) can0 475#96131B4945000000
(1427659959.105491) can0 306#1500000000000000
(1427659959.105737) can0 294#00009CFFFA000000
(1427659959.105980) can0 270#B613000000000000
(1427659959.118503) can0 477#7CFF387B77001C00
(1427659959.170760) can0 478#7CFF397B77001C00
(1427659959.205213) can0 475#A4131B4945000000
(1427659959.205516) can0 306#1500000000000000
(1427659959.205790) can0 294#00009CFFFA000000
(1427659959.206045) can0 270#B713000000000000
(1427659959.215491) can0 477#7CFF397B77001C00
(1427659959.267717) can0 478#7CFF387B77001C00
(1427659959.305141) can0 475#98131B4945000000
(1427659959.305614) can0 306#1500000000000000
(1427659959.305891) can0 294#00009CFFFA000000
(1427659959.306136) can0 270#B713000000000000
(1427659959.312434) can0 477#7CFF387B77001C00
(1427659959.364716) can0 478#7CFF397B77001C00
(1427659959.405129) can0 475#8D131B4945000000
(1427659959.405453) can0 306#1400000000000000
(1427659959.405737) can0 294#00009CFFFA000000
(1427659959.406004) can0 270#B713000000000000
(1427659959.409393) can0 477#7CFF3B7B77001C00
(1427659959.461663) can0 478#7CFF3A7B77001C00
(1427659959.505306) can0 475#96131B4945000000
(1427659959.505639) can0 306#1400000000000000
(1427659959.505901) can0 270#B713000000000000
(1427659959.506108) can0 294#00009CFFFA000000
(1427659959.506551) can0 477#7CFF3A7B77001C00
(1427659959.558642) can0 478#7CFF3A7B77001C00
(1427659959.603343) can0 477#79FF3C7B77001C00
(1427659959.605349) can0 475#91131B4945000000
(1427659959.605793) can0 306#1400000000000000
(1427659959.606057) can0 294#00009CFFFA000000
(1427659959.606301) can0 270#B713000000000000
(1427659959.655569) can0 478#79FF3B7B77001C00
(1427659959.700315) can0 477#79FF3D7B77001C00
(1427659959.705295) can0 475#9A131B4945000000
(1427659959.705740) can0 306#1400000000000000
(1427659959.705990) can0 294#00009CFFFA000000
(1427659959.706230) can0 270#B713000000000000
(1427659959.752543) can0 478#79FF3F7B77001C00
(1427659959.797559) can0 477#79FF3F7B77001C00
(1427659959.805252) can0 475#96131B4945000000
(1427659959.805533) can0 306#1400000000000000
(1427659959.805778) can0 294#00009CFFFA000000
(1427659959.806020) can0 270#B813000000000000
(1427659959.849561) can0 478#79FF3F7B77001C00
(1427659959.894429) can0 477#77FF3F7B77001C00
(1427659959.905153) can0 475#93131B4945000000
(1427659959.905480) can0 306#1300000000000000
(1427659959.905740) can0 294#00009CFFFA000000
(1427659959.905996) can0 270#B813000000000000
(1427659959.946476) can0 478#73FF417B77001C00
(1427659959.991261) can0 477#73FF437B77001C00
(1427659960.005212) can0 475#91131B4945000000
(1427659960.005538) can0 306#1400000000000000
(1427659960.005797) can0 294#00009CFFFA000000
(1427659960.006045) can0 270#B813000000000000
(1427659960.043628) can0 478#73FF437B77001C00
(1427659960.089313) can0 477#73FF447B77001C00
(1427659960.105204) can0 475#96131B4945000000
(1427659960.105481) can0 306#1400000000000000
(1427659960.105738) can0 294#00009CFFFA000000
(1427659960.105983) can0 270#B813000000000000
(1427659960.140435) can0 478#73FF457B77001C00
(1427659960.185210) can0 477#73FF467B77001C00
(1427659960.205162) can0 475#9C131B4945000000
(1427659960.205452) can0 306#1300000000000000
(1427659960.205734) can0 294#00009CFFFA000000
(1427659960.205991) can0 270#B913000000000000
(1427659960.237387) can0 478#73FF467B77001C00
(1427659960.282161) can0 477#73FF467B77001C00
(1427659960.305166) can0 475#9C131B4945000000
(1427659960.305539) can0 306#1400000000000000
(1427659960.305843) can0 294#00009CFFFA000000
(1427659960.306097) can0 270#B913000000000000
(1427659960.334410) can0 478#73FF467B77001C00
(1427659960.379770) can0 477#73FF477B77001C00
(1427659960.405299) can0 475#9C131B4945000000
(1427659960.405609) can0 306#1400000000000000
(1427659960.405874) can0 294#00009CFFFA000000
(1427659960.406122) can0 270#B913000000000000
(1427659960.431338) can0 478#73FF467B77001C00
(1427659960.476102) can0 477#73FF487B77001C00
(1427659960.505277) can0 475#96131B4945000000
(1427659960.505586) can0 306#1300000000000000
(1427659960.505836) can0 294#00009CFFFA000000
(1427659960.506085) can0 270#B913000000000000
(1427659960.528322) can0 478#73FF487B77001C00
