(1427657641.946028) can0 477#BC015E7887001400
(1427657641.973573) can0 475#1F13210000027600
(1427657641.973770) can0 306#13008900AF010000
(1427657641.974003) can0 294#B2109CFFFA00E902
(1427657641.974237) can0 270#44136A070000E705
(1427657642.043013) can0 477#BF01597887001400
(1427657642.073558) can0 475#1F13210000027400
(1427657642.073917) can0 306#12008A00B3010000
(1427657642.074086) can0 294#8F109CFFFA00F502
(1427657642.074294) can0 270#41135B0700004806
(1427657642.139945) can0 477#AD01587887001400
(1427657642.173740) can0 475#2313210000027700
(1427657642.174057) can0 306#12008A00B0010000
(1427657642.174310) can0 294#AC109CFFFA00F802
(1427657642.174554) can0 270#411368070000FC05
(1427657642.236915) can0 477#BB015F7887001400
(1427657642.273506) can0 475#1F13210000027900
(1427657642.273929) can0 306#12008B00B9010000
(1427657642.274182) can0 294#DF109CFFFA000203
(1427657642.274431) can0 270#41137E0700002106
(1427657642.333925) can0 477#BF01517887001400
(1427657642.373720) can0 475#2513210000027B00
(1427657642.374020) can0 306#12008E00BF010000
(1427657642.374878) can0 294#7C119CFFFA001303
(1427657642.431453) can0 477#F701507887001400
(1427657642.473452) can0 475#1913210000028300
(1427657642.473855) can0 306#12009300CF010000
(1427657642.474110) can0 294#C8129CFFFA004B03
(1427657642.474362) can0 270#401358080000DC06
(1427657642.527835) can0 477#2502227887001400
(1427657642.573388) can0 475#0813210000029C00
(1427657642.573691) can0 306#12009300D0010000
(1427657642.574052) can0 294#3E169CFFFA00A503
(1427657642.574324) can0 270#4013E10900003707
(1427657642.624858) can0 477#F002EA7787001400
(1427657642.673587) can0 475#F41221000002C500
(1427657642.673891) can0 306#13009F00F6010000
(1427657642.674156) can0 294#351C9CFFFA00B404
(1427657642.674360) can0 270#3613870C00002408
(1427657642.723053) can0 477#D603387787001400
(1427657642.773538) can0 475#DF1222000002E200
(1427657642.773982) can0 306#1300AB001E020000
(1427657642.774239) can0 294#6F209CFFFA001006
(1427657642.774494) can0 270#1313680E0000EB08
(1427657642.818751) can0 477#6E04A17687001400
(1427657642.873550) can0 475#C61222000002F400
(1427657642.874050) can0 306#1300B30033020000
(1427657642.874448) can0 270#13131A0F00008E08
(1427657642.915703) can0 477#D1044E7687001400
(1427657642.973687) can0 475#B91222000002F400
(1427657642.973987) can0 306#1400BD0053020000
(1427657642.974248) can0 294#2F229CFFFA00FA07
(1427657642.974500) can0 270#F1122F0F00007009
(1427657643.012710) can0 477#0005FD7587001400
(1427657643.073517) can0 475#A012220000020201
(1427657643.073822) can0 306#1400C8007E020000
(1427657643.074242) can0 294#9D249CFFFA00B108
(1427657643.074620) can0 270#E01244100000200B
(1427657643.109660) can0 477#F5059D7587001400
(1427657643.173683) can0 475#9A12220000020D01
(1427657643.173996) can0 306#1400D900AE020000
(1427657643.174260) can0 294#4F259CFFFA00D109
(1427657643.174464) can0 270#E01292100000840A
(1427657643.206643) can0 477#4B06077587001400
(1427657643.273438) can0 475#7912220000020801
(1427657643.273887) can0 306#1400E800E2020000
(1427657643.274150) can0 294#1E259CFFFA009E0A
(1427657643.274517) can0 270#BE127D100000A70C
(1427657643.303602) can0 477#DB06C37487001400
(1427657643.373461) can0 475#7F12220000020A01
(1427657643.373907) can0 306#1400F90014030000
(1427657643.374167) can0 294#B4249CFFFA00510B
(1427657643.374538) can0 270#A8124E100000370C
(1427657643.400685) can0 477#D306747487001400
(1427657643.473606) can0 475#6812220000020101
(1427657643.473946) can0 306#130006013D030000
(1427657643.474207) can0 294#D6239CFFFA00A50B
(1427657643.474459) can0 270#A812EB0F0000820C
(1427657643.497528) can0 477#23074F7487001400
(1427657643.573546) can0 475#6C1222000002F600
(1427657643.573871) can0 306#130016016E030000
(1427657643.574143) can0 294#0A239CFFFA00F20B
(1427657643.574396) can0 270#9F12900F00001C0E
(1427657643.594573) can0 477#36072D7487001400
(1427657643.673551) can0 475#7B1222000002E200
(1427657643.673977) can0 306#1300240197030000
(1427657643.674232) can0 294#4F1F9CFFFA00E70B
(1427657643.674485) can0 270#9212E80D0000B10D
(1427657643.691955) can0 477#76062D7487001400
(1427657643.773518) can0 475#8E1223000002BC00
(1427657643.774793) can0 294#8C1A9CFFFA00FB0A
(1427657643.788472) can0 477#9805A87487001400
(1427657643.873917) can0 475#A91223000002A100
(1427657643.874246) can0 294#DB169CFFFA00B009
(1427657643.874470) can0 306#12003801D6030000
(1427657643.885388) can0 477#FC042A7587001400
(1427657643.973485) can0 475#A212230000029F00
(1427657643.973893) can0 306#1300450104040000
(1427657643.974145) can0 294#AA169CFFFA000309
(1427657643.974399) can0 270#CA12110A00002C0E
(1427657643.982375) can0 477#3505697587001400
(1427657644.073601) can0 475#9E12230000029F00
(1427657644.073958) can0 306#130050011D040000
(1427657644.074222) can0 294#47169CFFFA00D608
(1427657644.074482) can0 270#CA12E5090000F50D
(1427657644.079394) can0 477#1F05537587001400
(1427657644.173414) can0 475#A512230000029200
(1427657644.173838) can0 306#1300580139040000
(1427657644.174095) can0 294#C8149CFFFA009408
(1427657644.174343) can0 270#C5123B0900006E0E
(1427657644.176284) can0 477#EF04767587001400
(1427657644.273295) can0 477#F1047D7587001400
(1427657644.273736) can0 475#9E12240000029200
(1427657644.274131) can0 306#1300610156040000
(1427657644.274341) can0 294#77149CFFFA006908
(1427657644.274591) can0 270#CB1217090000AF0E
(1427657644.370520) can0 477#A304787587001400
(1427657644.373814) can0 475#AB12240000028A00
(1427657644.374098) can0 306#13006A016D040000
(1427657644.374352) can0 294#F6129CFFFA004708
(1427657644.374605) can0 270#CB126C0800006A0E
(1427657644.467251) can0 477#6203C97587001400
(1427657644.473759) can0 475#D012240000026500
(1427657644.474063) can0 306#13006E017A040000
(1427657644.474362) can0 294#300E9CFFFA007807
(1427657644.474619) can0 270#CB124D060000FA0D
(1427657644.564299) can0 477#19036E7687001400
(1427657644.573770) can0 475#E112240000025700
(1427657644.574049) can0 306#130072018E040000
(1427657644.574452) can0 294#3E0C9CFFFA004D06
(1427657644.574708) can0 270#F21270050000BE0E
(1427657644.661220) can0 477#E802B87687001400
(1427657644.673747) can0 475#E112240000025300
(1427657644.674037) can0 306#13007A019F040000
(1427657644.674444) can0 294#A20B9CFFFA007305
(1427657644.674725) can0 270#F2122B050000650E
(1427657644.758147) can0 477#8202E37687001400
(1427657644.773690) can0 475#E912240000024700
(1427657644.773968) can0 306#13007F01B1040000
(1427657644.774347) can0 294#F9099CFFFA00D604
(1427657644.774712) can0 270#03136E040000560E
(1427657644.855144) can0 477#4002307787001400
(1427657644.873860) can0 475#FA12240000023D00
(1427657644.874168) can0 306#13008301BD040000
(1427657644.874690) can0 270#1113E00300009D0E
(1427657644.952087) can0 477#F2017F7787001400
(1427657644.973637) can0 475#0A13240000023500
(1427657644.973944) can0 306#13008601C5040000
(1427657644.974291) can0 294#B9079CFFFA00BF03
(1427657644.974542) can0 270#11136E030000950E
(1427657645.049107) can0 477#B501A47787001400
(1427657645.073613) can0 475#0F13240000022F00
(1427657645.073946) can0 306#13008801CB040000
(1427657645.074197) can0 294#C5069CFFFA004503
(1427657645.074444) can0 270#1E1301030000720E
(1427657645.146039) can0 477#8101E37787001400
(1427657645.173564) can0 475#0F13240000022800
(1427657645.173848) can0 306#14008801CB040000
(1427657645.174266) can0 294#CB059CFFFA00E102
(1427657645.174519) can0 270#2B1392020000830E
(1427657645.242960) can0 477#4201087887001400
(1427657645.273806) can0 475#2313240000022200
(1427657645.274135) can0 294#B9049CFFFA007902
(1427657645.274344) can0 306#14008901CD040000
(1427657645.274589) can0 270#2B1319020000440E
(1427657645.339992) can0 477#0901357887001400
(1427657645.373546) can0 475#2513240000021A00
(1427657645.373983) can0 306#14008901CF040000
(1427657645.374249) can0 294#CD039CFFFA001202
(1427657645.374511) can0 270#3813B00100007F0E
(1427657645.436888) can0 477#C100727887001400
(1427657645.473543) can0 475#2A13240000021000
(1427657645.473970) can0 306#14008B01D5040000
(1427657645.474229) can0 294#59029CFFFA009D01
(1427657645.474479) can0 270#41130B0100005D0E
(1427657645.534465) can0 477#7900A47887001400
(1427657645.575025) can0 475#3E13240000020B00
(1427657645.630859) can0 477#5900DE7887001400
(1427657645.673449) can0 475#3E13240000020A00
(1427657645.674182) can0 306#13008A01CD040000
(1427657645.674618) can0 270#5013AC000000F80D
(1427657645.727840) can0 477#4A00F47887001400
(1427657645.773443) can0 475#3413240000020800
(1427657645.773869) can0 306#13008601C0040000
(1427657645.774120) can0 294#5B019CFFFA00A300
(1427657645.774369) can0 270#5A139A000000D00D
(1427657645.824781) can0 477#3D00077987001400
(1427657645.873592) can0 475#4413230000020400
(1427657645.874102) can0 306#12008301B7040000
(1427657645.874533) can0 270#5E1374000000D40D
(1427657645.921759) can0 477#26001A7987001400
(1427657645.973583) can0 475#4213230000020000
(1427657645.973993) can0 306#12008001AE040000
(1427657645.974243) can0 294#CA009CFFFA005F00
(1427657645.974488) can0 270#5E13590000008F0D
(1427657646.019997) can0 477#20002A7987001400
(1427657646.073812) can0 475#4F13230000020000
(1427657646.074138) can0 294#94009CFFFA004A00
(1427657646.074361) can0 306#12007C01A4040000
(1427657646.074611) can0 270#621342000000680D
(1427657646.115715) can0 477#0900397987001400
(1427657646.173540) can0 475#4B13230000020000
(1427657646.173974) can0 306#12007C01A5040000
(1427657646.174236) can0 294#08009CFFFA002900
(1427657646.174484) can0 270#661303000000180D
(1427657646.212723) can0 477#FDFF567987001400
(1427657646.273530) can0 475#4D13230000020000
(1427657646.273960) can0 306#13007B01A2040000
(1427657646.274214) can0 294#1A009CFFFA001400
(1427657646.274460) can0 270#66130B0000000B0D
(1427657646.309802) can0 477#F7FF567987001400
(1427657646.373684) can0 475#5513230000020000
(1427657646.374015) can0 306#13007B01A2040000
(1427657646.374270) can0 294#DFFF9CFFFA000300
(1427657646.374469) can0 270#6913F1FF00000B0D
(1427657646.406595) can0 477#FBFF667987001400
(1427657646.473433) can0 475#4D13230000020000
(1427657646.473821) can0 306#13007A019E040000
(1427657646.474099) can0 294#12009CFFFA000300
(1427657646.474354) can0 270#6C13080000000C0D
(1427657646.503611) can0 477#0000657987001400
(1427657646.574089) can0 475#5313230000020000
(1427657646.574405) can0 270#6C13230000000C0D
(1427657646.574611) can0 306#1300790199040000
(1427657646.600657) can0 477#0F00657987001400
(1427657646.673646) can0 475#5513230000020400
(1427657646.673956) can0 306#1200780197040000
(1427657646.674211) can0 294#76009CFFFA001D00
(1427657646.674457) can0 270#6C1334000000010D
(1427657646.697504) can0 477#19005C7987001400
(1427657646.773596) can0 475#5313230000020400
(1427657646.773934) can0 306#1200780195040000
(1427657646.774353) can0 294#E7009CFFFA003200
(1427657646.774727) can0 270#6A1366000000470D
(1427657646.794524) can0 477#3100577987001400
(1427657646.874041) can0 475#4713230000020800
(1427657646.874398) can0 294#21019CFFFA005400
(1427657646.874623) can0 306#1200760191040000
(1427657646.874884) can0 270#6A1380000000430D
(1427657646.891489) can0 477#48004A7987001400
(1427657646.973922) can0 475#5513220000020900
(1427657646.974292) can0 306#1100760191040000
(1427657646.974575) can0 294#73019CFFFA007000
(1427657646.974840) can0 270#6713A4000000580D
(1427657646.988524) can0 477#5000447987001400
(1427657647.073884) can0 475#4D13220000020D00
(1427657647.074257) can0 306#1200760191040000
(1427657647.074532) can0 294#E5019CFFFA008700
(1427657647.074795) can0 270#6613D7000000470D
(1427657647.085976) can0 477#6300397987001400
(1427657647.173855) can0 475#4013220000021000
(1427657647.174207) can0 306#120074018A040000
(1427657647.174472) can0 294#96029CFFFA00B600
(1427657647.174724) can0 270#661326010000740D
(1427657647.182359) can0 477#8C00297987001400
(1427657647.273863) can0 475#4713220000021700
(1427657647.274187) can0 306#1200730185040000
(1427657647.274440) can0 294#55039CFFFA00E700
(1427657647.274699) can0 270#5F137B0100002B0D
(1427657647.279367) can0 477#C600157987001400
(1427657647.373826) can0 475#3E13220000022000
(1427657647.374164) can0 306#12006A016D040000
(1427657647.374430) can0 294#7B049CFFFA007601
(1427657647.374710) can0 270#5813FD010000620D
(1427657647.376257) can0 477#0F01B27887001400
(1427657647.463820) can0 475#2E13220000022400
(1427657647.464176) can0 306#1300690168040000
(1427657647.464446) can0 270#58136D020000530D
(1427657647.464945) can0 294#77059CFFFA00B201
(1427657647.473262) can0 477#3D01B37887001400
(1427657647.563809) can0 475#3613220000022200
(1427657647.564138) can0 306#13006B016E040000
(1427657647.564533) can0 294#13059CFFFA00E401
(1427657647.564946) can0 270#4F1341020000710D
(1427657647.570244) can0 477#2F01A47887001400
(1427657647.663794) can0 475#2C13220000022600
(1427657647.664114) can0 306#13006B016F040000
(1427657647.664521) can0 294#80059CFFFA00FE01
(1427657647.664782) can0 270#4F1371020000510D
(1427657647.667180) can0 477#3B019A7887001400
(1427657647.763826) can0 475#2A13220000022600
(1427657647.764244) can0 306#13006C0171040000
(1427657647.764492) can0 294#9B059CFFFA001302
(1427657647.764997) can0 270#4C137D0200008C0D
(1427657647.765261) can0 477#3C01907887001400
(1427657647.861138) can0 477#4D018B7887001400
(1427657647.863768) can0 475#2913220000022800
(1427657647.864036) can0 306#13006C0173040000
(1427657647.864431) can0 294#BF059CFFFA002302
(1427657647.864686) can0 270#49138D0200008F0D
(1427657647.958152) can0 477#3C01867887001400
(1427657647.963747) can0 475#2713220000022400
(1427657647.964015) can0 306#130070017D040000
(1427657647.964424) can0 294#3B059CFFFA001E02
(1427657647.964818) can0 270#4913530200008C0D
(1427657648.055085) can0 477#3E018D7887001400
(1427657648.063714) can0 475#1D13220000022600
(1427657648.064012) can0 306#1300710181040000
(1427657648.064419) can0 294#6C059CFFFA001F02
(1427657648.064679) can0 270#481368020000AC0D
(1427657648.152082) can0 477#4C01867887001400
(1427657648.163660) can0 475#3613220000022600
(1427657648.163944) can0 306#1300720184040000
(1427657648.164310) can0 294#D3059CFFFA002B02
(1427657648.164599) can0 270#491396020000A40D
(1427657648.249195) can0 477#69017B7887001400
(1427657648.263896) can0 475#2913220000022A00
(1427657648.264212) can0 306#1300710182040000
(1427657648.264465) can0 294#FC059CFFFA004102
(1427657648.264710) can0 270#4913A80200009C0D
(1427657648.346065) can0 477#3C01717887001400
(1427657648.363596) can0 475#2713220000022500
(1427657648.363886) can0 306#1300730189040000
(1427657648.364299) can0 294#5D059CFFFA004102
(1427657648.364732) can0 270#461361020000C50D
(1427657648.442989) can0 477#2A01867887001400
(1427657648.464250) can0 475#3013220000022300
(1427657648.464720) can0 270#461344020000B50D
(1427657648.540166) can0 477#0A01947887001400
(1427657648.563522) can0 475#3C13220000021F00
(1427657648.563991) can0 306#1400770195040000
(1427657648.564245) can0 294#AB049CFFFA00F601
(1427657648.564497) can0 270#461312020000CE0D
(1427657648.636961) can0 477#0F01A87887001400
(1427657648.663682) can0 475#3413220000021F00
(1427657648.663992) can0 306#1400780198040000
(1427657648.664248) can0 294#8F049CFFFA00E401
(1427657648.664497) can0 270#4C1306020000CE0D
(1427657648.734008) can0 477#0301AD7887001400
(1427657648.763499) can0 475#2E13220000021D00
(1427657648.763794) can0 306#15007A019E040000
(1427657648.764174) can0 294#39049CFFFA00CA01
(1427657648.764427) can0 270#4D13E0010000DA0D
(1427657648.830900) can0 477#EA00B37887001400
(1427657648.863466) can0 475#3A13220000021800
(1427657648.863761) can0 306#14007B01A2040000
(1427657648.864149) can0 294#C6039CFFFA00AC01
(1427657648.864402) can0 270#4D13AD010000060E
(1427657648.928281) can0 477#D600C97887001400
(1427657648.963676) can0 475#3E13220000021800
(1427657648.964005) can0 306#14007C01A4040000
(1427657648.964400) can0 294#4B039CFFFA008801
(1427657648.964802) can0 270#4F1376010000D10D
(1427657649.024758) can0 477#C400DE7887001400
(1427657649.063659) can0 475#3E13220000021500
(1427657649.064080) can0 306#14007C01A3040000
(1427657649.064333) can0 294#2D039CFFFA006301
(1427657649.064587) can0 270#541369010000D30D
(1427657649.121760) can0 477#A500E67887001400
(1427657649.163876) can0 475#3013220000021300
(1427657649.164200) can0 294#CC029CFFFA003E01
(1427657649.164412) can0 306#14007C01A5040000
(1427657649.164696) can0 270#54133B010000BA0D
(1427657649.219488) can0 477#A000FD7887001400
(1427657649.263841) can0 475#3A13220000021200
(1427657649.264169) can0 294#9E029CFFFA002501
(1427657649.264377) can0 306#14007C01A5040000
(1427657649.264918) can0 270#58131F010000AF0D
(1427657649.316704) can0 477#9800047987001400
(1427657649.363692) can0 475#5113220000021200
(1427657649.364044) can0 306#14007E01A9040000
(1427657649.364299) can0 294#7D029CFFFA001301
(1427657649.364557) can0 270#5C1314010000B70D
(1427657649.412684) can0 477#95000C7987001400
(1427657649.463740) can0 475#3C13220000021300
(1427657649.464072) can0 306#13007F01AC040000
(1427657649.464322) can0 294#91029CFFFA000801
(1427657649.464574) can0 270#5E1326010000A60D
(1427657649.509691) can0 477#A1000B7987001400
(1427657649.563732) can0 475#4713220000021200
(1427657649.564113) can0 294#CA029CFFFA001401
(1427657649.564341) can0 306#14007E01AB040000
(1427657649.564600) can0 270#5E1340010000FF0D
(1427657649.606578) can0 477#B100017987001400
(1427657649.663646) can0 475#3C13220000021400
(1427657649.663985) can0 306#14007E01AB040000
(1427657649.664241) can0 294#F7029CFFFA002501
(1427657649.664492) can0 270#5C134D010000E70D
(1427657649.703567) can0 477#AE00FE7887001400
(1427657649.763782) can0 475#3E13220000021400
(1427657649.764127) can0 306#14007F01AE040000
(1427657649.764385) can0 294#E8029CFFFA002A01
(1427657649.764634) can0 270#5B134A010000F90D
(1427657649.800649) can0 477#B100017987001400
(1427657649.863696) can0 475#3E13210000021500
(1427657649.864115) can0 306#14008001AF040000
(1427657649.864366) can0 294#29039CFFFA003601
(1427657649.864614) can0 270#5B135F0100000F0E
(1427657649.897538) can0 477#B800FA7887001400
(1427657649.963889) can0 475#4713210000021500
(1427657649.964215) can0 306#14008001B1040000
(1427657649.964477) can0 270#5B1367010000290E
(1427657649.964681) can0 294#27039CFFFA003E01
(1427657649.994454) can0 477#C100F87887001400
(1427657650.063806) can0 475#3E13210000021600
(1427657650.064137) can0 306#14008101B3040000
(1427657650.064395) can0 294#30039CFFFA004C01
(1427657650.064647) can0 270#59136A010000F60D
(1427657650.091437) can0 477#BC00F27887001400
(1427657650.163757) can0 475#3213210000021600
(1427657650.164068) can0 306#13008201B7040000
(1427657650.164320) can0 294#42039CFFFA004E01
(1427657650.164571) can0 270#591377010000F00D
(1427657650.188576) can0 477#D000F37887001400
(1427657650.263784) can0 475#4013210000021800
(1427657650.264118) can0 306#13008201B6040000
(1427657650.264374) can0 294#91039CFFFA006001
(1427657650.264623) can0 270#5A13A2010000FD0D
(1427657650.285352) can0 477#E200E57887001400
(1427657650.363771) can0 475#3A13210000021B00
(1427657650.364054) can0 306#13008101B3040000
(1427657650.364309) can0 294#F6039CFFFA007E01
(1427657650.364559) can0 270#5713C2010000FB0D
(1427657650.382359) can0 477#EE00D87887001400
(1427657650.463662) can0 475#3A13210000021900
(1427657650.463989) can0 306#13008101B2040000
(1427657650.464255) can0 294#92039CFFFA008701
(1427657650.464506) can0 270#571394010000E30D
(1427657650.479355) can0 477#D300DA7887001400
(1427657650.563921) can0 475#3813210000021700
(1427657650.564253) can0 306#13008101B3040000
(1427657650.564512) can0 294#54039CFFFA006F01
(1427657650.564799) can0 270#56137A010000FB0D
(1427657650.576298) can0 477#C000EB7887001400
(1427657650.663895) can0 475#3C13210000021500
(1427657650.664210) can0 306#13008101B2040000
(1427657650.664476) can0 294#2B039CFFFA005801
(1427657650.664725) can0 270#591368010000FD0D
(1427657650.673276) can0 477#B700F87887001400
(1427657650.763877) can0 475#3C13210000021400
(1427657650.764198) can0 306#12008001AF040000
(1427657650.764565) can0 294#EA029CFFFA004601
(1427657650.764850) can0 270#59134B0100000E0E
(1427657650.770252) can0 477#A600F97887001400
(1427657650.863832) can0 475#4913210000020F00
(1427657650.864154) can0 306#12008001AF040000
(1427657650.864521) can0 294#5D029CFFFA002101
(1427657650.864773) can0 270#5C130C010000010E
(1427657650.867190) can0 477#8000137987001400
(1427657650.963816) can0 475#5113210000020D00
(1427657650.964134) can0 306#11007F01AD040000
(1427657650.964536) can0 294#02029CFFFA00F300
(1427657650.964832) can0 270#6113E4000000CC0D
(1427657650.965239) can0 477#7500217987001400
(1427657651.061192) can0 477#6D00337987001400
(1427657651.063805) can0 475#4F13210000020C00
(1427657651.064979) can0 306#11007D01A8040000
(1427657651.158146) can0 477#6600377987001400
(1427657651.163733) can0 475#4413210000020D00
(1427657651.164193) can0 306#12007C01A4040000
(1427657651.164447) can0 294#BA019CFFFA00C300
(1427657651.164700) can0 270#6413C40000008D0D
(1427657651.255083) can0 477#5700407987001400
(1427657651.264170) can0 475#4F13210000020900
(1427657651.264663) can0 294#86019CFFFA00B100
(1427657651.264994) can0 270#6613AD000000A60D
(1427657651.352078) can0 477#4900497987001400
(1427657651.363647) can0 475#5113210000020800
(1427657651.364002) can0 306#120079019C040000
(1427657651.364255) can0 294#61019CFFFA00A000
(1427657651.364888) can0 270#66139C000000920D
(1427657651.449043) can0 477#4100527987001400
(1427657651.463621) can0 475#5313210000020800
(1427657651.464095) can0 306#1200790199040000
(1427657651.464355) can0 294#32019CFFFA008E00
(1427657651.464602) can0 270#681388000000560D
(1427657651.545983) can0 477#45005F7987001400
(1427657651.563648) can0 475#5513210000020800
(1427657651.563932) can0 306#1300770193040000
(1427657651.564330) can0 294#36019CFFFA008100
(1427657651.564590) can0 270#6B138A0000004A0D
(1427657651.643913) can0 477#3300607987001400
(1427657651.663796) can0 475#4D13210000020800
(1427657651.664125) can0 306#1300760190040000
(1427657651.664348) can0 294#EC009CFFFA007300
(1427657651.664614) can0 270#6B13690000001F0D
(1427657651.739939) can0 477#28006E7987001400
(1427657651.763552) can0 475#4913210000020400
(1427657651.764029) can0 306#130074018C040000
(1427657651.764290) can0 294#CF009CFFFA006300
(1427657651.764545) can0 270#6C135C000000310D
(1427657651.837423) can0 477#09007B7987001400
(1427657651.863534) can0 475#6013210000020000
(1427657651.863985) can0 306#130075018D040000
(1427657651.864450) can0 294#5D009CFFFA003E00
(1427657651.864831) can0 270#6F13290000002F0D
(1427657651.933890) can0 477#0E008D7987001400
(1427657651.963512) can0 475#5513210000020000
(1427657651.963793) can0 306#1400730188040000
(1427657651.964155) can0 294#55009CFFFA002B00
(1427657651.964401) can0 270#6F1325000000E70C
(1427657652.030888) can0 477#0000927987001400
(1427657652.063742) can0 475#6213210000020000
(1427657652.064047) can0 306#1300720184040000
(1427657652.064303) can0 294#35009CFFFA001900
(1427657652.064552) can0 270#721317000000BA0C
(1427657652.129237) can0 477#F0FF9B7987001400
(1427657652.163746) can0 475#5713210000020000
(1427657652.164144) can0 306#1300710182040000
(1427657652.164390) can0 294#CFFF9CFFFA000400
(1427657652.164637) can0 270#7413EAFF0000C70C
(1427657652.225309) can0 477#F3FFA57987001400
(1427657652.263816) can0 475#5D13210000020000
(1427657652.264176) can0 306#14006F017A040000
(1427657652.264433) can0 294#FBFF9CFFFA00FBFF
(1427657652.264684) can0 270#7413FEFF00008F0C
(1427657652.321856) can0 477#FAFFA77987001400
(1427657652.363894) can0 475#5D13210000020000
(1427657652.364188) can0 306#14006C0173040000
(1427657652.364452) can0 294#CEFF9CFFFA00FDFF
(1427657652.364711) can0 270#7613EAFF00008D0C
(1427657652.418799) can0 477#EEFFAB7987001400
(1427657652.463862) can0 475#6213210000020000
(1427657652.464178) can0 306#13006A016C040000
(1427657652.464433) can0 294#0D009CFFFA00F5FF
(1427657652.464677) can0 270#771305000000460C
(1427657652.515860) can0 477#EFFFAD7987001400
(1427657652.563833) can0 475#5D13210000020000
(1427657652.564151) can0 306#1300680165040000
(1427657652.564402) can0 294#EAFF9CFFFA00F6FF
(1427657652.564647) can0 270#7713F6FF0000400C
(1427657652.612626) can0 477#FBFFAC7987001400
(1427657652.663806) can0 475#6013210000020000
(1427657652.664149) can0 306#130065015C040000
(1427657652.664408) can0 294#E0FF9CFFFA00FDFF
(1427657652.664655) can0 270#7813F2FF0000660C
(1427657652.709590) can0 477#EEFFAB7987001400
(1427657652.763761) can0 475#6C13210000020000
(1427657652.764093) can0 306#1300630157040000
(1427657652.764343) can0 294#E1FF9CFFFA00F5FF
(1427657652.764592) can0 270#7713F2FF00000C0C
(1427657652.806636) can0 477#F1FFB67987001400
(1427657652.863946) can0 475#6213210000020000
(1427657652.864262) can0 306#1400610150040000
(1427657652.864515) can0 294#F1FF9CFFFA00F3FF
(1427657652.865060) can0 270#7713F9FF00001D0C
(1427657652.903564) can0 477#FDFFB67987001400
(1427657652.963864) can0 475#5F13210000020000
(1427657652.964394) can0 294#16009CFFFA00FCFF
(1427657652.964612) can0 306#13005E0146040000
(1427657653.000618) can0 477#0900B27987001400
(1427657653.063857) can0 475#5F13210000020000
(1427657653.064187) can0 306#13005B013C040000
(1427657653.064443) can0 294#4B009CFFFA000A00
(1427657653.064700) can0 270#771321000000080C
(1427657653.097543) can0 477#1000AB7987001400
(1427657653.163830) can0 475#5B13210000020000
(1427657653.164159) can0 306#1300580133040000
(1427657653.164414) can0 294#71009CFFFA001800
(1427657653.164660) can0 270#771332000000F20B
(1427657653.194476) can0 477#1600A47987001400
(1427657653.263832) can0 475#6213210000020400
(1427657653.264179) can0 306#1300540127040000
(1427657653.264433) can0 294#DB009CFFFA002900
(1427657653.264677) can0 270#7613610000000C0C
(1427657653.291426) can0 477#2900987987001400
(1427657653.363770) can0 475#5913210000020600
(1427657653.364110) can0 306#130050011A040000
(1427657653.364362) can0 294#56019CFFFA004600
(1427657653.364610) can0 270#741398000000EF0B
(1427657653.388385) can0 477#37008E7987001400
(1427657653.463542) can0 475#4F13210000020800
(1427657653.463970) can0 306#12004D0111040000
(1427657653.464226) can0 294#3E019CFFFA005D00
(1427657653.464476) can0 270#74138D000000E90B
(1427657653.485381) can0 477#3900857987001400
(1427657653.563566) can0 475#5113210000020600
(1427657653.563974) can0 306#12004B010C040000
(1427657653.564224) can0 294#06019CFFFA006700
(1427657653.564472) can0 270#711374000000EF0B
(1427657653.582328) can0 477#3400887987001400
(1427657653.663944) can0 475#5513210000020500
(1427657653.664251) can0 306#12004A0108040000
(1427657653.664501) can0 294#1A019CFFFA006000
(1427657653.664752) can0 270#72137D000000D90B
(1427657653.679324) can0 477#2B008D7987001400
(1427657653.776442) can0 477#2300947987001400
(1427657653.863947) can0 475#6213200000020000
(1427657653.864373) can0 306#1100490104040000
(1427657653.864621) can0 294#B8009CFFFA004500
(1427657653.864879) can0 270#731352000000950B
(1427657653.873224) can0 477#0F009C7987001400
(1427657653.963897) can0 475#5913200000020000
(1427657653.964318) can0 306#1100490106040000
(1427657653.964568) can0 294#26009CFFFA002D00
(1427657653.964813) can0 270#7513110000006B0B
(1427657653.970184) can0 477#0100A97987001400
(1427657654.064020) can0 475#6413200000020000
(1427657654.064347) can0 306#11004A0107040000
(1427657654.064832) can0 270#7513EEFF0000720B
(1427657654.065345) can0 294#D8FF9CFFFA001100
(1427657654.067336) can0 477#F6FFB47987001400
(1427657654.163823) can0 475#5913200000020000
(1427657654.164147) can0 306#1100490104040000
(1427657654.164506) can0 294#CEFF9CFFFA00FDFF
(1427657654.164752) can0 270#7813EAFF0000450B
(1427657654.165192) can0 477#F1FFBF7987001400
(1427657654.261254) can0 477#F4FFC47987001400
(1427657654.263825) can0 475#6E13200000020000
(1427657654.264089) can0 306#12004701FF030000
(1427657654.264464) can0 294#AFFF9CFFFA00F3FF
(1427657654.264762) can0 270#7B13DCFF0000130B
(1427657654.358128) can0 477#F8FFC37987001400
(1427657654.363792) can0 475#6613200000020000
(1427657654.364411) can0 306#12004501F7030000
(1427657654.364679) can0 270#7B13E8FF0000350B
(1427657654.455105) can0 477#EFFFC47987001400
(1427657654.463736) can0 475#6A13200000020000
(1427657654.464075) can0 306#13004301F1030000
(1427657654.464327) can0 294#EEFF9CFFFA00F4FF
(1427657654.464576) can0 270#7B13F8FF0000D40A
(1427657654.552015) can0 477#EFFFC97987001400
(1427657654.563730) can0 475#6E13200000020000
(1427657654.564053) can0 306#13004101ED030000
(1427657654.564306) can0 294#B3FF9CFFFA00EFFF
(1427657654.564554) can0 270#7C13DEFF0000E90A
(1427657654.649012) can0 477#E1FFCE7987001400
(1427657654.663667) can0 475#5F13200000020000
(1427657654.664270) can0 306#13004101EB030000
(1427657654.664547) can0 294#84FF9CFFFA00E2FF
(1427657654.664819) can0 270#7C13C9FF0000D40A
(1427657654.746000) can0 477#E3FFD87987001400
(1427657654.763652) can0 475#5D13200000020000
(1427657654.763986) can0 306#13003F01E4030000
(1427657654.764649) can0 294#B9FF9CFFFA00DCFF
(1427657654.842918) can0 477#DCFFD57987001400
(1427657654.863805) can0 475#6C13200000020000
(1427657654.864131) can0 306#14003C01DD030000
(1427657654.864382) can0 294#5BFF9CFFFA00D9FF
(1427657654.864638) can0 270#7E13B6FF00008A0A
(1427657654.939940) can0 477#C8FFDC7987001400
(1427657654.963787) can0 475#7013200000020800
(1427657654.964082) can0 306#14003A01D6030000
(1427657654.964331) can0 294#B8FE9CFFFA00C7FF
(1427657654.964580) can0 270#7E136EFF00008B0A
(1427657655.036894) can0 477#AEFFEB7987001400
(1427657655.063585) can0 475#7013200000060D00
(1427657655.063879) can0 306#14003901D2030000
(1427657655.064273) can0 294#FAFD9CFFFA00A3FF
(1427657655.064525) can0 270#80131AFF00008F0A
(1427657655.133846) can0 477#96FF097A87001400
(1427657655.163761) can0 475#7613200000061000
(1427657655.164051) can0 306#14003701CB030000
(1427657655.164301) can0 294#9DFD9CFFFA007FFF
(1427657655.164545) can0 270#8613F0FE0000550A
(1427657655.231129) can0 477#85FF187A87001400
(1427657655.264015) can0 475#7013200000061200
(1427657655.264578) can0 306#14003301C1030000
(1427657655.264803) can0 294#5CFD9CFFFA0062FF
(1427657655.327787) can0 477#78FF287A87001400
(1427657655.363972) can0 475#7613200000061500
(1427657655.364261) can0 306#14003001B8030000
(1427657655.364511) can0 294#B4FC9CFFFA0049FF
(1427657655.364794) can0 270#881389FE00002F0A
(1427657655.424725) can0 477#5FFF3A7A87001400
(1427657655.463915) can0 475#7213200000061A00
(1427657655.464230) can0 306#14002E01B0030000
(1427657655.464505) can0 294#49FC9CFFFA0026FF
(1427657655.464753) can0 270#8E1359FE0000060A
(1427657655.521747) can0 477#49FF4A7A87001400
(1427657655.564303) can0 475#8513200000061D00
(1427657655.564995) can0 294#CCFB9CFFFA0002FF
(1427657655.565275) can0 270#8E1322FE0000D609
(1427657655.619932) can0 477#3CFF617A87001400
(1427657655.663872) can0 475#8713200000062000
(1427657655.664227) can0 306#150028019D030000
(1427657655.664494) can0 294#BDFB9CFFFA00E9FE
(1427657655.664997) can0 270#92131BFE0000AD09
(1427657655.715661) can0 477#33FF687A87001400
(1427657655.763874) can0 475#8113200000062300
(1427657655.764194) can0 306#1500240191030000
(1427657655.764452) can0 294#10FB9CFFFA00D7FE
(1427657655.764699) can0 270#9513CEFD0000AC09
(1427657655.812689) can0 477#29FF767A87001400
(1427657655.863775) can0 475#8913200000062300
(1427657655.864111) can0 306#15001F0183030000
(1427657655.864486) can0 294#EAFA9CFFFA00C8FE
(1427657655.864738) can0 270#9513BEFD00005E09
(1427657655.909641) can0 477#16FF837A87001400
(1427657655.964080) can0 306#15001C0178030000
(1427657655.964585) can0 270#98139BFD00004D09
(1427657655.965308) can0 294#9DFA9CFFFA00B2FE
(1427657656.007084) can0 477#19FF897A87001400
(1427657656.063659) can0 475#8513200000062800
(1427657656.064005) can0 306#150017016A030000
(1427657656.064258) can0 294#61FA9CFFFA00A8FE
(1427657656.064504) can0 270#9B1381FD00001309
(1427657656.103568) can0 477#1CFF917A87001400
(1427657656.163914) can0 475#8713200000062800
(1427657656.164207) can0 306#1400120158030000
(1427657656.164470) can0 294#5DFA9CFFFA00A6FE
(1427657656.164729) can0 270#9B137FFD0000D908
(1427657656.200606) can0 477#1AFF8E7A87001400
(1427657656.264206) can0 475#8513200000062A00
(1427657656.264963) can0 294#3DFA9CFFFA00A5FE
(1427657656.265469) can0 306#15000D0148030000
(1427657656.297492) can0 477#1CFF957A87001400
(1427657656.363889) can0 475#8B13200000062C00
(1427657656.364438) can0 306#1400070138030000
(1427657656.364654) can0 294#E6F99CFFFA00A4FE
(1427657656.394613) can0 477#1AFF977A87001400
(1427657656.463997) can0 475#8313200000062A00
(1427657656.464380) can0 306#1400010125030000
(1427657656.464652) can0 294#D9F99CFFFA00A6FE
(1427657656.464916) can0 270#9C1344FD00003D08
(1427657656.491401) can0 477#1DFF987A87001400
(1427657656.563785) can0 475#8313200000062C00
(1427657656.564140) can0 306#1300FC0015030000
(1427657656.564411) can0 294#04FA9CFFFA00A8FE
(1427657656.564675) can0 270#9D1357FD00001508
(1427657656.588401) can0 477#28FF967A87001400
(1427657656.664072) can0 306#1400F60001030000
(1427657656.664407) can0 294#BDF99CFFFA00B4FE
(1427657656.665369) can0 270#9D1338FD0000D907
(1427657656.685359) can0 477#2DFF947A87001400
(1427657656.764026) can0 475#7F13200000062A00
(1427657656.764345) can0 306#1400EF00ED020000
(1427657656.764599) can0 294#CBF99CFFFA00BCFE
(1427657656.764802) can0 270#9D133EFD00007507
(1427657656.782337) can0 477#2EFF947A87001400
(1427657656.864007) can0 475#8113200000062B00
(1427657656.864358) can0 306#1500EA00DC020000
(1427657656.864611) can0 294#E1F99CFFFA00C3FE
(1427657656.864856) can0 270#9C1348FD00006607
(1427657656.879263) can0 477#32FF947A87001400
(1427657656.963982) can0 475#8513200000062E00
(1427657656.964422) can0 306#1500E500CC020000
(1427657656.964677) can0 294#BBF99CFFFA00C8FE
(1427657656.964930) can0 270#9C1337FD00005007
(1427657656.976272) can0 477#37FF937A87001400
(1427657657.064267) can0 306#1400DF00B9020000
(1427657657.064607) can0 294#CEF99CFFFA00CFFE
(1427657657.065212) can0 270#9C133FFD0000EF06
(1427657657.073236) can0 477#38FF8F7A87001400
(1427657657.164450) can0 475#8713200000062C00
(1427657657.164802) can0 294#A3F99CFFFA00D7FE
(1427657657.165028) can0 270#9C132CFD0000C706
(1427657657.170215) can0 477#44FF8D7A87001400
(1427657657.264047) can0 475#8313200000062B00
(1427657657.264382) can0 306#1400D30095020000
(1427657657.264640) can0 270#9B132FFD00008F06
(1427657657.264843) can0 294#A9F99CFFFA00E2FE
(1427657657.267134) can0 477#4BFF897A87001400
(1427657657.363826) can0 475#8713200000062C00
(1427657657.364149) can0 477#55FF857A87001400
(1427657657.364525) can0 306#1500CD0083020000
(1427657657.364787) can0 294#EDF99CFFFA00EDFE
(1427657657.365041) can0 270#9B134DFD00006606
(1427657657.461110) can0 477#5DFF807A87001400
(1427657657.463805) can0 475#8713200000062A00
(1427657657.464110) can0 306#1500C7006F020000
(1427657657.464392) can0 294#D7F99CFFFA00F8FE
(1427657657.464655) can0 270#9A1343FD00001906
(1427657657.558093) can0 477#61FF7F7A87001400
(1427657657.563759) can0 475#7F13200000062B00
(1427657657.564178) can0 306#1500C2005E020000
(1427657657.564445) can0 294#DDF99CFFFA0002FF
(1427657657.564695) can0 270#991346FD00000406
(1427657657.655061) can0 477#69FF797A87001400
(1427657657.663765) can0 475#8113200000062900
(1427657657.664042) can0 306#1500BC004C020000
(1427657657.664430) can0 294#F6F99CFFFA000CFF
(1427657657.664689) can0 270#991351FD0000B605
(1427657657.752011) can0 477#6FFF747A87001400
(1427657657.763757) can0 475#7F13200000062B00
(1427657657.764154) can0 306#1500B6003A020000
(1427657657.764410) can0 294#38FA9CFFFA0017FF
(1427657657.764658) can0 270#98136EFD0000B605
(1427657657.848992) can0 477#73FF6F7A87001400
(1427657657.863674) can0 475#7A13200000062B00
(1427657657.864123) can0 306#1500B00028020000
(1427657657.864378) can0 294#15FA9CFFFA0021FF
(1427657657.864628) can0 270#97135FFD00007B05
(1427657657.946724) can0 477#78FF6B7A87001400
(1427657657.967877) can0 294#35FA9CFFFA002BFF
(1427657657.968175) can0 270#97136DFD00002D05
(1427657658.043508) can0 477#7DFF6A7A87001400
(1427657658.063828) can0 475#7D13200000062B00
(1427657658.064177) can0 306#1500A60007020000
(1427657658.064451) can0 270#961345FD00001805
(1427657658.064679) can0 294#DAF99CFFFA0033FF
(1427657658.139878) can0 477#82FF677A87001400
(1427657658.163604) can0 475#7B13200000062A00
(1427657658.164017) can0 306#1500A000F6010000
(1427657658.164284) can0 294#EBF99CFFFA003CFF
(1427657658.164536) can0 270#95134CFD0000F304
(1427657658.237846) can0 477#8DFF677A87001400
(1427657658.263741) can0 475#7D13200000062A00
(1427657658.264110) can0 306#15009B00E5010000
(1427657658.264378) can0 294#11FA9CFFFA0043FF
(1427657658.264632) can0 270#95135DFD0000CC04
(1427657658.333872) can0 477#93FF617A87001400
(1427657658.363786) can0 475#7A13200000062700
(1427657658.364204) can0 306#16009500D4010000
(1427657658.364457) can0 294#71FA9CFFFA004CFF
(1427657658.364708) can0 270#951388FD00007D04
(1427657658.430769) can0 477#96FF5A7A87001400
(1427657658.463797) can0 475#7613200000062600
(1427657658.464233) can0 306#16009100C7010000
(1427657658.464490) can0 294#96FA9CFFFA0055FF
(1427657658.464745) can0 270#941398FD00004104
(1427657658.527763) can0 477#9FFF557A87001400
(1427657658.563886) can0 475#7413200000022700
(1427657658.564211) can0 306#16008C00B8010000
(1427657658.564466) can0 294#9AFA9CFFFA0062FF
(1427657658.564717) can0 270#92139AFD00004004
(1427657658.625096) can0 477#ACFF537A87001400
(1427657658.663940) can0 475#7D13200000022200
(1427657658.664249) can0 306#16008700A7010000
(1427657658.664512) can0 294#F4FA9CFFFA0071FF
(1427657658.664768) can0 270#9213C2FD00000704
(1427657658.722930) can0 477#B5FF4B7A87001400
(1427657658.763709) can0 475#7D13200000021E00
(1427657658.764125) can0 306#1500830099010000
(1427657658.764375) can0 294#CDFB9CFFFA007EFF
(1427657658.764628) can0 270#911322FE0000E103
(1427657658.818661) can0 477#C2FF3E7A87001400
(1427657658.863667) can0 475#7613200000021800
(1427657658.864093) can0 306#14007F008F010000
(1427657658.864347) can0 294#B3FC9CFFFA0091FF
(1427657658.864602) can0 270#8F1388FE0000CC03
(1427657658.916439) can0 477#DCFF387A87001400
(1427657658.963628) can0 475#7013200000020E00
(1427657658.963918) can0 306#14007B0082010000
(1427657658.964274) can0 294#C4FD9CFFFA00AEFF
(1427657658.964540) can0 270#8F1302FF0000B703
(1427657659.012593) can0 477#EFFF227A87001400
(1427657659.063806) can0 475#6E13200000020500
(1427657659.064115) can0 306#140079007A010000
(1427657659.064367) can0 294#4DFF9CFFFA00CAFF
(1427657659.064618) can0 270#8B13B0FF0000DE03
(1427657659.109580) can0 477#0100137A87001400
(1427657659.163792) can0 475#7213200000020000
(1427657659.164253) can0 306#1400780077010000
(1427657659.164510) can0 294#E9FF9CFFFA00E6FF
(1427657659.164761) can0 270#8813F6FF00000604
(1427657659.206563) can0 477#1300097A87001400
(1427657659.263802) can0 475#6813200000020600
(1427657659.264100) can0 306#1300770076010000
(1427657659.264465) can0 294#31019CFFFA000400
(1427657659.264716) can0 270#8813870000008B04
(1427657659.303494) can0 477#1B00F57987001400
(1427657659.363934) can0 475#6613200000020800
(1427657659.364274) can0 306#11007A007E010000
(1427657659.364530) can0 294#56019CFFFA001A00
(1427657659.364782) can0 270#841397000000A104
(1427657659.400640) can0 477#1D00F17987001400
(1427657659.463736) can0 475#6013200000020800
(1427657659.464038) can0 306#11007C0085010000
(1427657659.464436) can0 294#08019CFFFA002400
(1427657659.464692) can0 270#8213750000008C04
(1427657659.497477) can0 477#1900F27987001400
(1427657659.563714) can0 475#6213200000020A00
(1427657659.564278) can0 306#10007A007E010000
(1427657659.564539) can0 270#8213AC0000007804
(1427657659.594391) can0 477#2600EA7987001400
(1427657659.663912) can0 475#6413200000020C00
(1427657659.664230) can0 306#1000760073010000
(1427657659.664485) can0 294#C4019CFFFA003400
(1427657659.664735) can0 270#8213C90000007804
(1427657659.691449) can0 477#2800E77987001400
(1427657659.763822) can0 475#6413200000020D00
(1427657659.764169) can0 306#100074006B010000
(1427657659.764423) can0 294#F2019CFFFA003B00
(1427657659.764674) can0 270#8013DD0000006604
(1427657659.788369) can0 477#2B00E47987001400
(1427657659.863918) can0 475#6A13200000020D00
(1427657659.864251) can0 306#1000720065010000
(1427657659.864506) can0 294#F5019CFFFA004000
(1427657659.864760) can0 270#8013DE0000005204
(1427657659.885981) can0 477#2900E27987001400
(1427657659.963802) can0 475#6C13200000020800
(1427657659.964117) can0 306#1000700060010000
(1427657659.964378) can0 294#43019CFFFA003B00
(1427657659.964630) can0 270#80138F0000003F04
(1427657659.982322) can0 477#1A00E67987001400
(1427657660.064685) can0 475#5D13200000020400
(1427657660.065133) can0 270#811358000000DD03
(1427657660.079241) can0 477#1100EF7987001400
(1427657660.164031) can0 475#6613200000020000
(1427657660.164454) can0 306#100066003F010000
(1427657660.164704) can0 294#00009CFFFA001700
(1427657660.164954) can0 270#8113000000005503
(1427657660.176241) can0 477#0700F47987001400
(1427657660.263987) can0 475#6A13200000060000
(1427657660.264427) can0 306#11005E0027010000
(1427657660.264679) can0 294#00009CFFFA000800
(1427657660.264932) can0 270#8313000000000903
(1427657660.273203) can0 477#0500FB7987001400
(1427657660.363916) can0 475#6613200000060000
(1427657660.364326) can0 306#12006E0059010000
(1427657660.364883) can0 294#B7FF9CFFFA000200
(1427657660.365113) can0 270#8413DFFF00002A04
(1427657660.370180) can0 477#0000FC7987001400
(1427657660.463937) can0 475#6813200000060000
(1427657660.464349) can0 306#1300720065010000
(1427657660.464604) can0 294#00009CFFFA00FFFF
(1427657660.464854) can0 270#841300000000B803
(1427657660.467135) can0 477#0500FD7987001400
(1427657660.563913) can0 475#6A13200000060000
(1427657660.564246) can0 477#0600FD7987001400
(1427657660.564650) can0 306#1400680046010000
(1427657660.564908) can0 270#8413000000004303
(1427657660.565112) can0 294#00009CFFFA00FEFF
(1427657660.661096) can0 477#0600FD7987001400
(1427657660.663823) can0 475#6E13200000060000
(1427657660.664254) can0 306#150060002D010000
(1427657660.664509) can0 294#00009CFFFA00FEFF
(1427657660.664758) can0 270#8413000000003003
(1427657660.758069) can0 477#0300FE7987001400
(1427657660.763844) can0 475#6C13200000060000
(1427657660.764135) can0 306#150069004A010000
(1427657660.764391) can0 294#CCFF9CFFFA00FDFF
(1427657660.764643) can0 270#8413E9FF0000B703
(1427657660.855020) can0 477#0600FE7987001400
(1427657660.863743) can0 475#6A13200000060000
(1427657660.864212) can0 306#1500670043010000
(1427657660.864474) can0 294#00009CFFFA00FDFF
(1427657660.864728) can0 270#8413000000005503
(1427657660.951960) can0 477#0600FE7987001400
(1427657660.963746) can0 475#7013200000060000
(1427657660.964031) can0 306#1400620034010000
(1427657660.964431) can0 294#00009CFFFA00FEFF
(1427657660.964688) can0 270#8413000000005703
(1427657661.048964) can0 477#0200FF7987001400
(1427657661.063731) can0 475#6813200000060000
(1427657661.064121) can0 306#140064003B010000
(1427657661.064384) can0 294#E4FF9CFFFA00FDFF
(1427657661.064659) can0 270#8413F3FF00005503
(1427657661.145946) can0 477#0600017A87001400
(1427657661.163705) can0 475#7413200000060000
(1427657661.164001) can0 306#1400620033010000
(1427657661.164363) can0 294#00009CFFFA00FCFF
(1427657661.164611) can0 270#8413000000005703
(1427657661.242871) can0 477#0600FF7987001400
(1427657661.263676) can0 475#6E13200000060000
(1427657661.263974) can0 306#140060002D010000
(1427657661.264343) can0 294#F6FF9CFFFA00FDFF
(1427657661.264596) can0 270#8413FBFF00006B03
(1427657661.340117) can0 477#0300FF7987001400
(1427657661.363911) can0 475#6413200000060000
(1427657661.364194) can0 306#14005F002B010000
(1427657661.364592) can0 294#BEFF9CFFFA00FBFF
(1427657661.364850) can0 270#8413E2FF00001B03
(1427657661.437648) can0 477#0400027A87001400
(1427657661.463871) can0 475#6A13200000060000
(1427657661.464266) can0 306#13005C0021010000
(1427657661.464516) can0 294#D6FF9CFFFA00FBFF
(1427657661.464764) can0 270#8413EDFF00000703
(1427657661.533838) can0 477#0100047A87001400
(1427657661.563848) can0 475#6A13200000060000
(1427657661.564240) can0 306#13005B001E010000
(1427657661.564492) can0 294#57FF9CFFFA00F7FF
(1427657661.564742) can0 270#8513B5FF0000CE02
(1427657661.630782) can0 477#0400037A87001400
(1427657661.663971) can0 475#6013200000060000
(1427657661.664281) can0 306#1400580015010000
(1427657661.664546) can0 294#9EFF9CFFFA00F7FF
(1427657661.664801) can0 270#8513D4FF0000B902
(1427657661.727830) can0 477#0700027A87001400
(1427657661.763965) can0 475#6213200000060000
(1427657661.764301) can0 306#1300530005010000
(1427657661.764557) can0 294#00009CFFFA00FAFF
(1427657661.764809) can0 270#851300000000A602
(1427657661.825683) can0 477#0700FE7987001400
(1427657661.863928) can0 475#6813200000020000
(1427657661.864257) can0 306#12004C00EE000000
(1427657661.864517) can0 294#00009CFFFA00FDFF
(1427657661.864777) can0 270#8413000000006D02
(1427657661.921705) can0 477#0800FF7987001400
(1427657661.963873) can0 475#6A13200000020000
(1427657661.964225) can0 306#13004800E2000000
(1427657661.964486) can0 294#43009CFFFA00FFFF
(1427657661.964736) can0 270#84131E0000008002
(1427657662.019193) can0 477#0B00FE7987001400
(1427657662.063694) can0 475#6C13200000020000
(1427657662.064095) can0 306#12004400D7000000
(1427657662.064364) can0 294#90009CFFFA000500
(1427657662.064614) can0 270#84133F0000008102
(1427657662.115638) can0 477#0F00FC7987001400
(1427657662.163837) can0 475#6213200000020400
(1427657662.164206) can0 306#12004100CD000000
(1427657662.164474) can0 294#E5009CFFFA000A00
(1427657662.165722) can0 270#841365000000A702
(1427657662.212590) can0 477#1100FA7987001400
(1427657662.263993) can0 475#6613200000020800
(1427657662.264331) can0 306#12004100CB000000
(1427657662.264589) can0 294#38019CFFFA001000
(1427657662.264844) can0 270#84138A0000007F02
(1427657662.309560) can0 477#1500F87987001400
(1427657662.363990) can0 475#6E13200000020D00
(1427657662.364339) can0 306#12003500A8000000
(1427657662.364609) can0 294#FA019CFFFA001700
(1427657662.364869) can0 270#8413E00000008401
(1427657662.406522) can0 477#0F00F77987001400
(1427657662.464128) can0 475#6213200000020C00
(1427657662.464493) can0 306#12001E005E000000
(1427657662.464761) can0 294#C4019CFFFA001600
(1427657662.465013) can0 270#8313C90000003601
(1427657662.503487) can0 477#1F00F97987001400
(1427657662.564159) can0 475#6213200000022B00
(1427657662.564485) can0 306#1200240071000000
(1427657662.564741) can0 294#81069CFFFA002D00
(1427657662.564991) can0 270#8313E30200005902
(1427657662.600506) can0 477#3F00D47987001400
(1427657662.664059) can0 475#6013200000025D00
(1427657662.664407) can0 306#1200150044000000
(1427657662.664686) can0 294#750D9CFFFA006500
(1427657662.664940) can0 270#8113FA0500003501
(1427657662.697426) can0 477#8F00DC7987001400
(1427657662.763743) can0 475#5913200000029000
(1427657662.764157) can0 306#11001C0058000000
(1427657662.764411) can0 294#B2139CFFFA00C300
(1427657662.764663) can0 270#7F13BF0800006F01
(1427657662.794420) can0 477#81009A7987001400
(1427657662.863687) can0 475#441320000002A000
(1427657662.864006) can0 306#1100160047000000
(1427657662.864405) can0 294#85169CFFFA00F900
(1427657662.864764) can0 270#7F13000A00000802
(1427657662.891369) can0 477#A100987987001400
(1427657662.963811) can0 475#4913200000029600
(1427657662.964132) can0 306#1100140040000000
(1427657662.964390) can0 294#8C159CFFFA001801
(1427657662.964654) can0 270#741392090000BB01
(1427657662.988323) can0 477#9C00957987001400
(1427657663.063860) can0 475#5913200000027A00
(1427657663.064181) can0 306#1100150042000000
(1427657663.064435) can0 270#7213AA0700004801
(1427657663.064648) can0 294#42119CFFFA000501
(1427657663.085293) can0 477#6300997987001400
(1427657663.164100) can0 475#5913200000025800
(1427657663.164421) can0 306#1100170049000000
(1427657663.164683) can0 294#560C9CFFFA00CD00
(1427657663.164933) can0 270#72137A050000AA01
(1427657663.182288) can0 477#4600B37987001400
(1427657663.264196) can0 475#5B13200000025300
(1427657663.264512) can0 306#1100160045000000
(1427657663.264776) can0 294#FA0B9CFFFA00B200
(1427657663.265031) can0 270#781352050000D001
(1427657663.279258) can0 477#7000C17987001400
(1427657663.363781) can0 475#6013200000027000
(1427657663.364068) can0 306#11001B0055000000
(1427657663.364440) can0 294#BD0F9CFFFA00CC00
(1427657663.364695) can0 270#7713FD0600006F01
(1427657663.376197) can0 477#7300AB7987001400
(1427657663.463770) can0 475#5B13200000027E00
(1427657663.464063) can0 306#11001B0057000000
(1427657663.464467) can0 294#AE119CFFFA00DC00
(1427657663.464738) can0 270#7713DA070000D001
(1427657663.473205) can0 477#8A009E7987001400
(1427657663.563712) can0 475#5B13200000028800
(1427657663.564153) can0 306#12001A0054000000
(1427657663.564406) can0 294#64139CFFFA00F300
(1427657663.564660) can0 270#75139D080000E301
(1427657663.570163) can0 477#AE008F7987001400
(1427657663.663701) can0 475#5513200000029800
(1427657663.664020) can0 306#12001D005B000000
(1427657663.664411) can0 294#5A159CFFFA001C01
(1427657663.664667) can0 270#70137C090000E301
(1427657663.667116) can0 477#BB007E7987001400
(1427657663.763829) can0 475#491320000002A800
(1427657663.764170) can0 306#130021006A000000
(1427657663.764438) can0 270#7013750A00002F02
(1427657663.764650) can0 294#8A179CFFFA005901
(1427657663.765212) can0 477#E3005E7987001400
(1427657663.861103) can0 477#0C01557987001400
(1427657663.863810) can0 475#451320000002AF00
(1427657663.864199) can0 306#130022006C000000
(1427657663.864470) can0 294#F8189CFFFA008501
(1427657663.865599) can0 270#6B13170B00006802
(1427657663.958132) can0 477#3301257987001400
(1427657663.963865) can0 475#471320000002CB00
(1427657663.964255) can0 306#130027007C000000
(1427657663.964511) can0 294#C11C9CFFFA00E601
(1427657663.964768) can0 270#6413C50C0000EF02
(1427657664.055006) can0 477#9001E77887001400
(1427657664.063989) can0 475#3C1320000002DB00
(1427657664.064294) can0 306#14002B0089000000
(1427657664.064559) can0 294#0C1F9CFFFA008602
(1427657664.064809) can0 270#6413CA0D00003B03
(1427657664.152012) can0 477#D801C67887001400
(1427657664.163929) can0 475#2A1320000002E300
(1427657664.164278) can0 306#14003400A5000000
(1427657664.164550) can0 270#5813340E00008503
(1427657664.164769) can0 294#FA1F9CFFFA001903
(1427657664.248941) can0 477#D701997887001400
(1427657664.263719) can0 475#251320000002E400
(1427657664.264172) can0 306#15003600AB000000
(1427657664.264427) can0 294#04209CFFFA006103
(1427657664.264671) can0 270#4B13380E0000AA03
(1427657664.345920) can0 477#A001937887001400
(1427657664.363898) can0 475#2C1320000002D400
(1427657664.364238) can0 306#14003600AB000000
(1427657664.364497) can0 294#8E1D9CFFFA006203
(1427657664.364746) can0 270#4B13200D00004B03
(1427657664.442888) can0 477#4201BB7887001400
(1427657664.463685) can0 475#3C1320000002B300
(1427657664.463974) can0 306#14003400A5000000
(1427657664.464380) can0 294#F8189CFFFA00FD02
(1427657664.464637) can0 270#4A13170B0000EE02
(1427657664.540346) can0 477#DF00FD7887001400
(1427657664.563870) can0 475#4213210000029000
(1427657664.564178) can0 306#14002B0088000000
(1427657664.564434) can0 294#25149CFFFA005502
(1427657664.564684) can0 270#5B13F2080000A202
(1427657664.636810) can0 477#A500307987001400
(1427657664.663814) can0 475#5113210000028600
(1427657664.664120) can0 306#1400250075000000
(1427657664.664536) can0 294#20139CFFFA00AD01
(1427657664.664807) can0 270#5B137F0800000902
(1427657664.733819) can0 477#0001487987001400
(1427657664.763829) can0 475#441321000002B700
(1427657664.764243) can0 306#1400260077000000
(1427657664.764494) can0 294#75199CFFFA00AA01
(1427657664.764742) can0 270#68134F0B00002E02
(1427657664.830775) can0 477#3F01227987001400
(1427657664.863782) can0 475#3A1321000002DD00
(1427657664.864073) can0 306#150022006C000000
(1427657664.864465) can0 294#6E1F9CFFFA00E901
(1427657664.864722) can0 270#6113F60D0000B302
(1427657664.927904) can0 477#B601C67887001400
(1427657664.964005) can0 475#2C13210000020601
(1427657664.964306) can0 306#1500290082000000
(1427657664.964561) can0 294#48259CFFFA00B502
(1427657664.964811) can0 270#61138F1000005D03
(1427657665.024690) can0 477#C401957887001400
(1427657665.063738) can0 475#3013210000020901
(1427657665.064032) can0 306#1600260079000000
(1427657665.064434) can0 294#51259CFFFA000503
(1427657665.064695) can0 270#521393100000EB02
(1427657665.123022) can0 477#AB018E7887001400
(1427657665.163707) can0 475#2913210000020601
(1427657665.163991) can0 306#160023006F000000
(1427657665.164355) can0 294#B3249CFFFA000003
(1427657665.164604) can0 270#49134D100000B202
(1427657665.219977) can0 477#6801A97887001400
(1427657665.263914) can0 475#361321000006E400
(1427657665.264218) can0 306#160022006C000000
(1427657665.264484) can0 294#09209CFFFA00BD02
(1427657665.264696) can0 270#49133B0E00008D02
(1427657665.315610) can0 477#3A00CC7887001400
(1427657665.363870) can0 475#5B13210000064100
(1427657665.364190) can0 306#1600110036000000
(1427657665.364475) can0 294#41089CFFFA009701
(1427657665.364732) can0 270#4E1307030000AE00
(1427657665.412582) can0 477#07009D7987001400
(1427657665.463897) can0 475#5B13220000020000
(1427657665.464333) can0 306#16000A0021000000
(1427657665.464590) can0 294#00009CFFFA009C00
(1427657665.464837) can0 270#7513040000003A00
(1427657665.509529) can0 477#0800C37987001400
(1427657665.564194) can0 475#6013220000060000
(1427657665.564545) can0 306#160003000C000000
(1427657665.564798) can0 294#00009CFFFA003900
(1427657665.565048) can0 270#7513000000000000
(1427657665.606545) can0 477#0800CB7987001400
(1427657665.664069) can0 475#6413220000020000
(1427657665.664404) can0 306#1600020007000000
(1427657665.664955) can0 270#7B13000000003A00
(1427657665.665191) can0 294#00009CFFFA001500
(1427657665.703651) can0 477#0700D07987001400
(1427657665.763981) can0 475#6013220000020000
(1427657665.764332) can0 306#16000A0020000000
(1427657665.764601) can0 294#38009CFFFA000800
(1427657665.764855) can0 270#7D131C0000008700
(1427657665.800520) can0 477#0800D57987001400
(1427657665.863962) can0 475#6613220000020000
(1427657665.864304) can0 306#1500070018000000
(1427657665.864573) can0 294#00009CFFFA000300
(1427657665.864832) can0 270#7D13000000001300
(1427657665.897421) can0 477#0700D97987001400
(1427657665.963923) can0 475#6213220000060000
(1427657665.964261) can0 306#1500010005000000
(1427657665.964529) can0 294#00009CFFFA000100
(1427657665.964784) can0 270#7E13000000000000
(1427657665.994403) can0 477#0700DD7987001400
(1427657666.064176) can0 475#6A13220000060000
(1427657666.064498) can0 306#1500FFFFFCFFFFFF
(1427657666.064912) can0 294#00009CFFFA000000
(1427657666.065176) can0 270#7F13000000000000
(1427657666.091337) can0 477#0600DE7987001400
(1427657666.169151) can0 475#60132200000A0000
(1427657666.169482) can0 306#1600FEFFF7FFFFFF
(1427657666.169739) can0 294#00009CFFFA000000
(1427657666.169991) can0 270#7F13000000000000
(1427657666.188336) can0 477#0600E17987001400
(1427657666.264592) can0 475#5B132200000A0000
(1427657666.264950) can0 306#16000000FEFFFFFF
(1427657666.265220) can0 270#8013000000000000
(1427657666.265443) can0 294#00009CFFFA000000
(1427657666.285300) can0 477#0600E47987001400
(1427657666.364496) can0 475#6213220000000000
(1427657666.364849) can0 306#1600000000000000
(1427657666.365100) can0 294#00009CFFFA000000
(1427657666.365355) can0 270#8013000000000000
(1427657666.382349) can0 477#0500E67987001400
(1427657666.479196) can0 477#0500E87987001400
(1427657666.564249) can0 475#6613220000000000
(1427657666.564589) can0 306#1700000000000000
(1427657666.564854) can0 294#00009CFFFA000000
(1427657666.565118) can0 270#8113000000000000
(1427657666.576211) can0 477#0500EA7987001400
(1427657666.664243) can0 475#7013220000000000
(1427657666.664573) can0 306#1700000000000000
(1427657666.664827) can0 294#00009CFFFA000000
(1427657666.665076) can0 270#8113000000000000
(1427657666.673157) can0 477#0500EC7987001400
(1427657666.764225) can0 475#5713210000000000
(1427657666.764555) can0 306#1800000000000000
(1427657666.764811) can0 294#00009CFFFA000000
(1427657666.765056) can0 270#8113000000000000
(1427657666.770142) can0 477#0500ED7987001400
(1427657666.864019) can0 475#5D13210000000000
(1427657666.864442) can0 306#1800000000000000
(1427657666.864732) can0 294#00009CFFFA000000
(1427657666.865086) can0 270#8213000000000000
(1427657666.867072) can0 477#0500EE7987001400
(1427657666.964105) can0 477#0500F07987001400
(1427657666.964430) can0 475#6413210000000000
(1427657666.964686) can0 306#1800000000000000
(1427657666.964938) can0 294#00009CFFFA000000
(1427657666.965187) can0 270#8213000000000000
(1427657667.061153) can0 477#0500EF7987001400
(1427657667.063914) can0 475#6C13210000000000
(1427657667.064193) can0 306#1700000000000000
(1427657667.064590) can0 294#00009CFFFA000000
(1427657667.064855) can0 270#8213000000000000
(1427657667.158036) can0 477#0500F17987001400
(1427657667.164294) can0 475#6C13210000000000
(1427657667.164590) can0 306#1700000000000000
(1427657667.164847) can0 294#00009CFFFA000000
(1427657667.165098) can0 270#8213000000000000
(1427657667.254996) can0 477#0500F27987001400
(1427657667.264207) can0 475#6413210000000000
(1427657667.264561) can0 306#1700000000000000
(1427657667.264817) can0 294#00009CFFFA000000
(1427657667.265070) can0 270#8213000000000000
(1427657667.351962) can0 477#0500F47987001400
(1427657667.364054) can0 475#5F13210000000000
(1427657667.364380) can0 306#1600000000000000
(1427657667.364650) can0 294#00009CFFFA000000
(1427657667.364916) can0 270#8213000000000000
(1427657667.448912) can0 477#0500F47987001400
(1427657667.464049) can0 475#6613210000000000
(1427657667.464372) can0 306#1700000000000000
(1427657667.464664) can0 294#00009CFFFA000000
(1427657667.464929) can0 270#8313000000000000
(1427657667.545871) can0 477#0500F57987001400
(1427657667.564027) can0 475#6813210000000000
(1427657667.564335) can0 306#1700000000000000
(1427657667.564603) can0 294#00009CFFFA000000
(1427657667.564875) can0 270#8313000000000000
(1427657667.643021) can0 477#0700F57987001400
(1427657667.663945) can0 475#6613210000000000
(1427657667.664249) can0 306#1700000000000000
(1427657667.664504) can0 294#00009CFFFA000000
(1427657667.664756) can0 270#8313000000000000
(1427657667.739842) can0 477#0700F67987001400
(1427657667.764175) can0 475#6413210000000000
(1427657667.764481) can0 306#1700000000000000
(1427657667.764742) can0 294#00009CFFFA000000
(1427657667.764991) can0 270#8313000000000000
(1427657667.836794) can0 477#0700F77987001400
(1427657667.864146) can0 475#6A13210000000000
(1427657667.864483) can0 306#1700000000000000
(1427657667.864741) can0 294#00009CFFFA000000
(1427657667.864991) can0 270#8313000000000000
(1427657667.933806) can0 477#0700F87987001400
(1427657667.964312) can0 475#6E13210000000000
(1427657667.964621) can0 306#1700000000000000
(1427657667.964895) can0 294#00009CFFFA000000
(1427657667.965146) can0 270#8313000000000000
(1427657668.030757) can0 477#0600F97987001400
(1427657668.064076) can0 475#6A13210000000000
(1427657668.064367) can0 306#1700000000000000
(1427657668.064719) can0 294#00009CFFFA000000
(1427657668.064998) can0 270#8313000000000000
(1427657668.127690) can0 477#0600F97987001400
(1427657668.164072) can0 475#5F13210000020000
(1427657668.164384) can0 306#1700000000000000
(1427657668.164636) can0 294#00009CFFFA000000
(1427657668.164885) can0 270#8413000000000000
(1427657668.224679) can0 477#0600FB7987001400
(1427657668.264258) can0 475#6A13210000020000
(1427657668.264576) can0 306#1800000000000000
(1427657668.264833) can0 294#00009CFFFA000000
(1427657668.265087) can0 270#8413000000000000
(1427657668.322804) can0 477#0800FC7987001400
(1427657668.363964) can0 475#7013210000020000
(1427657668.364322) can0 306#1800000000000000
(1427657668.364584) can0 294#B9FF9CFFFA000000
(1427657668.364853) can0 270#8413E0FF00001300
(1427657668.419584) can0 477#0800FA7987001400
(1427657668.463944) can0 475#6613200000020400
(1427657668.464266) can0 306#1700000000000000
(1427657668.464636) can0 294#69FF9CFFFA000100
(1427657668.464889) can0 270#8413BCFF00001300
(1427657668.516281) can0 477#0900FB7987001400
(1427657668.563910) can0 475#6413210000020500
(1427657668.564364) can0 306#1700FFFFFCFFFFFF
(1427657668.564624) can0 294#22FF9CFFFA000200
(1427657668.564884) can0 270#84139DFF00003A00
(1427657668.612537) can0 477#0A00FB7987001400
(1427657668.664044) can0 475#7213200000020800
(1427657668.664373) can0 306#1500FDFFF6FFFFFF
(1427657668.664657) can0 294#D3FE9CFFFA000400
(1427657668.664912) can0 270#84137AFF00006100
(1427657668.709544) can0 477#0B00FA7987001400
(1427657668.764300) can0 306#1500F8FFE6FFFFFF
(1427657668.764762) can0 294#8EFE9CFFFA000800
(1427657668.764973) can0 270#84135BFF0000C100
(1427657668.806570) can0 477#0F00F97987001400
(1427657668.864062) can0 475#6E13200000020C00
(1427657668.864377) can0 306#1500F1FFD0FFFFFF
(1427657668.864629) can0 294#25FE9CFFFA000C00
(1427657668.864891) can0 270#84132DFF0000E800
(1427657668.903463) can0 477#0F00F87987001400
(1427657668.964045) can0 475#6813200000023100
(1427657668.964377) can0 306#1400FCFFF1FFFFFF
(1427657668.964635) can0 294#88F89CFFFA001900
(1427657668.964881) can0 270#8413AEFC0000C100
(1427657669.000508) can0 477#3300F47987001400
(1427657669.063988) can0 475#6413200000025F00
(1427657669.064326) can0 306#1500F7FFE3FFFFFF
(1427657669.064581) can0 294#2FF29CFFFA005400
(1427657669.064836) can0 270#8313DDF900002301
(1427657669.097386) can0 477#4500D97987001400
(1427657669.163787) can0 475#5F13200000028B00
(1427657669.164207) can0 306#1500F7FFE3FFFFFF
(1427657669.164457) can0 294#26EC9CFFFA008400
(1427657669.164707) can0 270#7E132EF700004901
(1427657669.194358) can0 477#9000CC7987001400
(1427657669.263973) can0 475#4F1320000002B900
(1427657669.264289) can0 294#BEE59CFFFA00E200
(1427657669.264498) can0 306#1400F3FFD6FFFFFF
(1427657669.264749) can0 270#7E1356F400008201
(1427657669.291359) can0 477#DA00977987001400
(1427657669.363942) can0 475#381320000002E500
(1427657669.364351) can0 306#1400EAFFBBFFFFFF
(1427657669.364603) can0 294#B2DF9CFFFA007401
(1427657669.364854) can0 270#7413A6F100005402
(1427657669.388322) can0 477#A1015B7987001400
(1427657669.463929) can0 475#2C13200000021401
(1427657669.464243) can0 306#1400DEFF93FFFFFF
(1427657669.464637) can0 294#37D99CFFFA006202
(1427657669.464894) can0 270#5D13C5EE0000C402
(1427657669.485267) can0 477#1002BF7887001400
(1427657669.564110) can0 475#1713200000023B01
(1427657669.564537) can0 306#1400CEFF62FFFFFF
(1427657669.564792) can0 294#42D39CFFFA00C303
(1427657669.565054) can0 270#5D1320EC00005204
(1427657669.582411) can0 477#3A030F7887001400
(1427657669.664133) can0 475#E512200000026801
(1427657669.664450) can0 306#1500BAFF25FFFFFF
(1427657669.664853) can0 294#2CCD9CFFFA00B205
(1427657669.665217) can0 270#35136CE900009B05
(1427657669.679193) can0 477#8104797787001400
(1427657669.764060) can0 475#DB12200000026D01
(1427657669.764382) can0 306#1400ABFFF4FEFFFF
(1427657669.764753) can0 294#12CD9CFFFA007707
(1427657669.766286) can0 270#041360E900007205
(1427657669.776212) can0 477#8004947687001400
(1427657669.864024) can0 475#D412200000025C01
(1427657669.864312) can0 306#14009BFFC3FEFFFF
(1427657669.864564) can0 294#ACCF9CFFFA003808
(1427657669.864812) can0 270#041388EA00009C06
(1427657669.873143) can0 477#DD04677687001400
(1427657669.964028) can0 475#F112210000060101
(1427657669.964452) can0 306#140094FFAEFEFFFF
(1427657669.964702) can0 294#8ADC9CFFFA006D07
(1427657669.964960) can0 270#F1123FF00000D805
(1427657669.970092) can0 477#1F031E7787001400
(1427657670.063909) can0 475#081321000006AE00
(1427657670.064418) can0 306#14008AFF8FFEFFFF
(1427657670.064688) can0 294#19E89CFFFA00B805
(1427657670.064938) can0 270#131361F500002E06
(1427657670.067072) can0 477#6802B97787001400
(1427657670.163961) can0 475#1913210000068300
(1427657670.164294) can0 477#D001FF7787001400
(1427657670.164553) can0 306#140079FF5AFEFFFF
(1427657670.164802) can0 294#D5ED9CFFFA008C04
(1427657670.165001) can0 270#1313EDF700001C06
(1427657670.261081) can0 477#1F016F7887001400
(1427657670.263927) can0 475#3813210000065800
(1427657670.264308) can0 306#140076FF4FFEFFFF
(1427657670.264572) can0 294#FFF39CFFFA005C03
(1427657670.264841) can0 270#3313ABFA00006805
(1427657670.357984) can0 477#8D00047987001400
(1427657670.364117) can0 475#4913220000062600
(1427657670.364393) can0 306#14007CFF61FEFFFF
(1427657670.364644) can0 294#0AFB9CFFFA002102
(1427657670.364894) can0 270#5513CBFD0000B905
(1427657670.454974) can0 477#0D00327987001400
(1427657670.464031) can0 475#5913220000060000
(1427657670.464374) can0 306#140076FF50FEFFFF
(1427657670.464640) can0 294#00009CFFFA000E01
(1427657670.464900) can0 270#551300000000AE04
(1427657670.551954) can0 477#0A00A17987001400
(1427657670.563834) can0 475#5B13220000060000
(1427657670.564225) can0 306#140072FF43FEFFFF
(1427657670.564488) can0 294#00009CFFFA006500
(1427657670.564735) can0 270#6C13000000003605
(1427657670.648918) can0 477#0900AF7987001400
(1427657670.663787) can0 475#6013220000060000
(1427657670.664087) can0 306#14006EFF37FEFFFF
(1427657670.664460) can0 294#00009CFFFA002700
(1427657670.664705) can0 270#781300000000D904
(1427657670.745874) can0 477#0800B77987001400
(1427657670.763728) can0 475#6413220000060000
(1427657670.764177) can0 306#140074FF49FEFFFF
(1427657670.765650) can0 294#00009CFFFA000F00
(1427657670.766493) can0 270#781300000000EB04
(1427657670.842825) can0 477#0800C27987001400
(1427657670.864003) can0 475#6413220000060000
(1427657670.864308) can0 306#14006EFF37FEFFFF
(1427657670.864705) can0 294#00009CFFFA000700
(1427657670.864959) can0 270#7A13000000001405
(1427657670.939820) can0 477#0700C57987001400
(1427657670.964147) can0 475#6013220000060000
(1427657670.964425) can0 306#140072FF42FEFFFF
(1427657670.964681) can0 294#00009CFFFA000400
(1427657670.964930) can0 270#7B1300000000EB04
(1427657671.037560) can0 477#0800C97987001400
(1427657671.064175) can0 475#5D13220000060000
(1427657671.064519) can0 306#140073FF45FEFFFF
(1427657671.065516) can0 270#7B1300000000C204
(1427657671.065790) can0 294#00009CFFFA000300
(1427657671.133769) can0 477#0800CE7987001400
(1427657671.164142) can0 475#5913220000060000
(1427657671.164550) can0 306#140078FF57FEFFFF
(1427657671.164801) can0 294#00009CFFFA000200
(1427657671.165048) can0 270#7C13000000008A04
(1427657671.231178) can0 477#0900D07987001400
(1427657671.264138) can0 475#5D13220000060000
(1427657671.264461) can0 306#130078FF55FEFFFF
(1427657671.264716) can0 294#00009CFFFA000200
(1427657671.264962) can0 270#7D1300000000C304
(1427657671.328363) can0 477#0800D47987001400
(1427657671.364073) can0 475#6613220000060000
(1427657671.364393) can0 306#140079FF59FEFFFF
(1427657671.364652) can0 294#00009CFFFA000200
(1427657671.364900) can0 270#7D13000000009D04
(1427657671.425280) can0 477#0900D77987001400
(1427657671.464041) can0 475#5D13220000060000
(1427657671.464351) can0 306#13007AFF5CFEFFFF
(1427657671.464746) can0 294#00009CFFFA000200
(1427657671.465003) can0 270#7E13000000009D04
(1427657671.521770) can0 477#0900D87987001400
(1427657671.564001) can0 475#6413220000060000
(1427657671.564303) can0 306#14007BFF60FEFFFF
(1427657671.564578) can0 294#00009CFFFA000200
(1427657671.564826) can0 270#7E13000000008B04
(1427657671.618591) can0 477#0800DB7987001400
(1427657671.664000) can0 475#6413220000020000
(1427657671.664425) can0 306#14007DFF67FEFFFF
(1427657671.664674) can0 294#F0FF9CFFFA000200
(1427657671.664920) can0 270#7E13F9FF00008C04
(1427657671.715550) can0 477#0E00DC7987001400
(1427657671.763947) can0 475#6613220000020000
(1427657671.764376) can0 306#14007DFF67FEFFFF
(1427657671.764641) can0 294#7CFF9CFFFA000800
(1427657671.764893) can0 270#7F13C5FF0000B304
(1427657671.812592) can0 477#1300D97987001400
(1427657671.864146) can0 475#6413220000020400
(1427657671.864453) can0 306#14007EFF6AFEFFFF
(1427657671.864705) can0 294#31FF9CFFFA001200
(1427657671.864962) can0 270#7E13A4FF0000C604
(1427657671.909515) can0 477#1A00D77987001400
(1427657671.964125) can0 475#5713220000020500
(1427657671.964428) can0 306#14007FFF6DFEFFFF
(1427657671.964697) can0 294#F4FE9CFFFA001D00
(1427657671.964958) can0 270#7E1389FF0000D604
(1427657672.006476) can0 477#2200D37987001400
(1427657672.063858) can0 475#6613220000020900
(1427657672.064149) can0 306#14007FFF6DFEFFFF
(1427657672.064545) can0 294#8FFE9CFFFA002800
(1427657672.064804) can0 270#7E135CFF0000D804
(1427657672.103467) can0 477#2700D07987001400
(1427657672.164082) can0 475#6613220000020C00
(1427657672.164389) can0 306#140080FF6EFEFFFF
(1427657672.164645) can0 294#47FE9CFFFA003500
(1427657672.164894) can0 270#7D133CFF0000D804
(1427657672.200531) can0 477#2E00CB7987001400
(1427657672.263987) can0 475#5313220000022000
(1427657672.264323) can0 306#14007FFF6CFEFFFF
(1427657672.264581) can0 294#22FB9CFFFA005100
(1427657672.264832) can0 270#7D13D6FD00004705
(1427657672.297398) can0 477#AC00C57987001400
(1427657672.364120) can0 475#4413220000024B00
(1427657672.364467) can0 306#140074FF48FEFFFF
(1427657672.364725) can0 294#15F59CFFFA00F700
(1427657672.364977) can0 270#7B1326FB0000F105
(1427657672.394346) can0 477#4901667987001400
(1427657672.464254) can0 475#2C13220000027700
(1427657672.464557) can0 306#140076FF50FEFFFF
(1427657672.464812) can0 294#E1EE9CFFFA00E601
(1427657672.465062) can0 270#621365F80000FF05
(1427657672.491322) can0 477#D701FA7887001400
(1427657672.564178) can0 475#2E13210000027D00
(1427657672.564618) can0 306#140071FF41FEFFFF
(1427657672.564877) can0 294#EEED9CFFFA00B302
(1427657672.565136) can0 270#6213F9F700004B06
(1427657672.588325) can0 477#ED01A07887001400
(1427657672.664194) can0 475#2913210000027D00
(1427657672.664525) can0 306#14006EFF37FEFFFF
(1427657672.664733) can0 294#85EE9CFFFA002503
(1427657672.664984) can0 270#4C133CF80000A906
(1427657672.685262) can0 477#F1017A7887001400
(1427657672.764075) can0 475#2713210000027E00
(1427657672.764396) can0 306#140069FF27FEFFFF
(1427657672.764659) can0 294#54EE9CFFFA005703
(1427657672.764919) can0 270#461326F80000DE06
(1427657672.782274) can0 477#F9016D7887001400
(1427657672.864116) can0 475#1B13210000027900
(1427657672.864877) can0 306#140062FF12FEFFFF
(1427657672.865161) can0 270#461358F800001907
(1427657672.879177) can0 477#F901617887001400
(1427657672.964118) can0 475#3213210000026800
(1427657672.964423) can0 306#14005DFF01FEFFFF
(1427657672.964676) can0 294#D2F19CFFFA005703
(1427657672.964920) can0 270#4213B3F90000AC06
(1427657672.976157) can0 477#8A017F7887001400
(1427657673.064062) can0 475#4213210000024400
(1427657673.064365) can0 306#14005DFF01FEFFFF
(1427657673.064766) can0 294#92F69CFFFA00B902
(1427657673.065023) can0 270#4C13CFFB0000B106
(1427657673.073121) can0 477#0501C37887001400
(1427657673.164190) can0 475#4713210000023200
(1427657673.164511) can0 306#130058FFF1FDFFFF
(1427657673.164763) can0 294#8DF89CFFFA00ED01
(1427657673.165011) can0 270#4C13B1FC0000C606
(1427657673.170072) can0 477#F400177987001400
(1427657673.264022) can0 475#3A13220000024100
(1427657673.264354) can0 306#140047FFBCFDFFFF
(1427657673.264623) can0 294#04F79CFFFA000302
(1427657673.264874) can0 270#5F1302FC00008207
(1427657673.267090) can0 477#2E01EC7887001400
(1427657673.364104) can0 477#5A01CF7887001400
(1427657673.364435) can0 475#2713220000025000
(1427657673.364687) can0 306#14004DFFD0FDFFFF
(1427657673.364933) can0 294#DDF49CFFFA003302
(1427657673.365177) can0 270#58130DFB00002F07
(1427657673.461162) can0 477#2801DD7887001400
(1427657673.464147) can0 475#4413220000024100
(1427657673.464435) can0 306#140049FFC2FDFFFF
(1427657673.464689) can0 294#A3F69CFFFA002702
(1427657673.464932) can0 270#5813D7FB00004C07
(1427657673.557997) can0 477#0E01EA7887001400
(1427657673.564108) can0 475#3813220000023B00
(1427657673.564395) can0 306#140047FFBEFDFFFF
(1427657673.564647) can0 294#C1F79CFFFA000802
(1427657673.564898) can0 270#561356FC00005B07
(1427657673.655045) can0 477#E8000B7987001400
(1427657673.664032) can0 475#4913220000023200
(1427657673.664328) can0 306#140044FFB3FDFFFF
(1427657673.664581) can0 294#26F99CFFFA00D001
(1427657673.664821) can0 270#5C13F4FC00006107
(1427657673.751936) can0 477#5800357987001400
(1427657673.764054) can0 475#5113220000061000
(1427657673.764364) can0 306#140044FFB4FDFFFF
(1427657673.764632) can0 294#EAFD9CFFFA005201
(1427657673.764903) can0 270#5C1313FF0000F106
(1427657673.848878) can0 477#07009D7987001400
(1427657673.863999) can0 475#5D13220000060000
(1427657673.864318) can0 306#130044FFB3FDFFFF
(1427657673.864574) can0 294#00009CFFFA008900
(1427657673.864820) can0 270#641300000000BC06
(1427657673.945872) can0 477#0700BB7987001400
(1427657673.964001) can0 475#6A13220000060000
(1427657673.964438) can0 306#140044FFB5FDFFFF
(1427657673.964691) can0 294#00009CFFFA003500
(1427657673.964941) can0 270#7913000000005E06
(1427657674.042844) can0 477#0700C67987001400
(1427657674.064204) can0 475#6213220000060000
(1427657674.064532) can0 306#140044FFB2FDFFFF
(1427657674.064785) can0 294#00009CFFFA001500
(1427657674.065036) can0 270#7913000000008406
(1427657674.139832) can0 477#0700C97987001400
(1427657674.164181) can0 475#6C13220000060000
(1427657674.164486) can0 306#140049FFC4FDFFFF
(1427657674.164749) can0 294#00009CFFFA000A00
(1427657674.165007) can0 270#7B13000000004C06
(1427657674.236827) can0 477#0800CF7987001400
(1427657674.264181) can0 475#5B13220000060000
(1427657674.264484) can0 306#13004CFFCCFDFFFF
(1427657674.264742) can0 294#00009CFFFA000600
(1427657674.264993) can0 270#7D13000000000A06
(1427657674.333756) can0 477#0800D27987001400
(1427657674.364126) can0 475#6013220000060000
(1427657674.364523) can0 306#13004DFFD1FDFFFF
(1427657674.364799) can0 294#00009CFFFA000400
(1427657674.365051) can0 270#7D13000000002206
(1427657674.430712) can0 477#0700D37987001400
(1427657674.464116) can0 475#6013220000060000
(1427657674.464406) can0 306#140053FFE1FDFFFF
(1427657674.464663) can0 294#00009CFFFA000300
(1427657674.464907) can0 270#7D1300000000E705
(1427657674.527968) can0 477#0800D67987001400
(1427657674.564082) can0 475#6813220000060000
(1427657674.564419) can0 306#140055FFE8FDFFFF
(1427657674.564683) can0 270#7E13000000009C05
(1427657674.564894) can0 294#00009CFFFA000300
(1427657674.624688) can0 477#0800D97987001400
(1427657674.664017) can0 475#6C13210000060000
(1427657674.664361) can0 306#140059FFF5FDFFFF
(1427657674.664756) can0 294#00009CFFFA000300
(1427657674.665017) can0 270#7E1300000000C405
(1427657674.721603) can0 477#0800DB7987001400
(1427657674.764013) can0 475#6613210000060000
(1427657674.764466) can0 306#14005DFF01FEFFFF
(1427657674.764713) can0 294#00009CFFFA000300
(1427657674.764962) can0 270#7F13000000009C05
(1427657674.819408) can0 477#0000DF7987001400
(1427657674.864011) can0 475#6613210000060000
(1427657674.864331) can0 306#150061FF0DFEFFFF
(1427657674.864726) can0 294#3D009CFFFA00FDFF
(1427657674.864985) can0 270#7F130D0000004E05
(1427657674.915596) can0 477#0200E27987001400
(1427657674.964183) can0 475#6013210000060000
(1427657674.964476) can0 306#140065FF1BFEFFFF
(1427657674.964732) can0 294#7E009CFFFA00F9FF
(1427657674.964991) can0 270#801337000000FE04
(1427657675.012507) can0 477#0500E67987001400
(1427657675.064108) can0 475#6C13210000060000
(1427657675.064452) can0 306#15006BFF2DFEFFFF
(1427657675.064712) can0 294#7A009CFFFA00FAFF
(1427657675.064966) can0 270#8013360000000205
(1427657675.109446) can0 477#0200EA7987001400
(1427657675.164135) can0 475#6C13210000060000
(1427657675.164438) can0 306#150071FF41FEFFFF
(1427657675.164691) can0 294#00009CFFFA00FAFF
(1427657675.164941) can0 270#801300000000DA04
(1427657675.206478) can0 477#0600E87987001400
(1427657675.264157) can0 475#6413210000060000
(1427657675.264475) can0 306#150077FF52FEFFFF
(1427657675.264729) can0 294#00009CFFFA00FDFF
(1427657675.264979) can0 270#8013000000005004
(1427657675.303413) can0 477#0600E67987001400
(1427657675.364063) can0 475#6A13210000060000
(1427657675.364395) can0 306#16007EFF69FEFFFF
(1427657675.364650) can0 294#00009CFFFA00FFFF
(1427657675.364903) can0 270#8013000000005204
(1427657675.400676) can0 477#0700E77987001400
(1427657675.464092) can0 475#6413210000060000
(1427657675.464428) can0 306#150088FF89FEFFFF
(1427657675.464708) can0 294#00009CFFFA00FFFF
(1427657675.464964) can0 270#811300000000F003
(1427657675.497365) can0 477#0800E77987001400
(1427657675.564191) can0 475#5F13210000060000
(1427657675.564540) can0 306#12008FFF9DFEFFFF
(1427657675.564799) can0 294#00009CFFFA000000
(1427657675.565048) can0 270#8113000000008F03
(1427657675.594330) can0 477#0800E97987001400
(1427657675.664227) can0 475#6013210000060000
(1427657675.664527) can0 306#120098FFB9FEFFFF
(1427657675.664780) can0 294#00009CFFFA00FFFF
(1427657675.665030) can0 270#8113000000008F03
(1427657675.691304) can0 477#0900E97987001400
(1427657675.764261) can0 475#6013210000060000
(1427657675.764689) can0 306#1200A4FFE0FEFFFF
(1427657675.764941) can0 294#00009CFFFA000000
(1427657675.765201) can0 270#811300000000E002
(1427657675.788265) can0 477#0700EB7987001400
(1427657675.864223) can0 475#6C13210000060000
(1427657675.864642) can0 306#1300AAFFF2FEFFFF
(1427657675.864891) can0 294#00009CFFFA000000
(1427657675.865147) can0 270#811300000000A702
(1427657675.885237) can0 477#0800EB7987001400
(1427657675.964205) can0 475#6613210000060000
(1427657675.964654) can0 306#1300B6FF18FFFFFF
(1427657675.964916) can0 294#18009CFFFA000000
(1427657675.965120) can0 270#81130A0000006C02
(1427657675.982193) can0 477#0700EC7987001400
(1427657676.064541) can0 475#6A13210000060000
(1427657676.064879) can0 294#00009CFFFA00FFFF
(1427657676.079214) can0 477#0700EE7987001400
(1427657676.164090) can0 475#6A13210000060000
(1427657676.164561) can0 306#1300C8FF51FFFFFF
(1427657676.164817) can0 294#00009CFFFA000000
(1427657676.165072) can0 270#821300000000AB01
(1427657676.176162) can0 477#0700F07987001400
(1427657676.264082) can0 475#6413210000060000
(1427657676.264527) can0 306#1400D5FF79FFFFFF
(1427657676.264793) can0 294#00009CFFFA000000
(1427657676.265049) can0 270#8213000000007001
(1427657676.273121) can0 477#0700F07987001400
(1427657676.363978) can0 475#7213210000060000
(1427657676.364302) can0 306#1300E1FF9FFFFFFF
(1427657676.364562) can0 294#00009CFFFA000000
(1427657676.364815) can0 270#821300000000AF00
(1427657676.370085) can0 477#0700F07987001400
(1427657676.463983) can0 475#6413210000060000
(1427657676.464581) can0 306#1300E8FFB5FFFFFF
(1427657676.465138) can0 270#8213000000008700
(1427657676.467039) can0 477#0700F17987001400
(1427657676.563986) can0 475#6213210000060000
(1427657676.564316) can0 477#0700F37987001400
(1427657676.564723) can0 306#1300F7FFE1FFFFFF
(1427657676.564982) can0 270#8213000000006000
(1427657676.565181) can0 294#00009CFFFA000000
(1427657676.661003) can0 477#0700F37987001400
(1427657676.663961) can0 475#6813210000060000
(1427657676.664253) can0 306#1200FCFFF3FFFFFF
(1427657676.664655) can0 294#00009CFFFA000000
(1427657676.664922) can0 270#8313000000000000
(1427657676.757949) can0 477#0700F47987001400
(1427657676.763920) can0 475#7413210000060000
(1427657676.764222) can0 306#12000000FDFFFFFF
(1427657676.764594) can0 294#00009CFFFA000000
(1427657676.764866) can0 270#8313000000001300
(1427657676.854960) can0 477#0600F47987001400
(1427657676.855485) can0 475#72132100000A0000
(1427657676.855757) can0 294#00009CFFFA000000
(1427657676.856142) can0 270#8313000000000000
(1427657676.951930) can0 477#0600F77987001400
(1427657676.964046) can0 475#6813210000000000
(1427657676.964352) can0 306#1200000002000000
(1427657676.964636) can0 294#00009CFFFA000000
(1427657676.964901) can0 270#8313000000000000
(1427657677.048849) can0 477#0500F77987001400
(1427657677.064297) can0 475#6E13210000000000
(1427657677.064605) can0 306#1200000001000000
(1427657677.064857) can0 294#00009CFFFA000000
(1427657677.065107) can0 270#8313000000000000
(1427657677.145858) can0 477#0500F87987001400
(1427657677.156036) can0 475#6813210000000000
(1427657677.156346) can0 306#1200000000000000
(1427657677.156641) can0 294#00009CFFFA000000
(1427657677.156921) can0 270#8313000000000000
(1427657677.242803) can0 477#0500FA7987001400
(1427657677.256237) can0 475#6413210000000000
(1427657677.256545) can0 306#1100000000000000
(1427657677.256800) can0 294#00009CFFFA000000
(1427657677.257048) can0 270#8413000000000000
(1427657677.339929) can0 477#0500FA7987001400
(1427657677.364686) can0 475#6213210000020000
(1427657677.365003) can0 306#1200000000000000
(1427657677.365257) can0 294#00009CFFFA000000
(1427657677.365505) can0 270#8413000000000000
(1427657677.436753) can0 477#0700FA7987001400
(1427657677.464620) can0 475#6813210000020000
(1427657677.464929) can0 306#1100000000000000
(1427657677.465180) can0 294#00009CFFFA000000
(1427657677.465429) can0 270#8413000000000000
(1427657677.533719) can0 477#0700FB7987001400
(1427657677.564204) can0 475#7813200000020000
(1427657677.564495) can0 306#1200000000000000
(1427657677.564751) can0 294#17009CFFFA000000
(1427657677.565116) can0 270#84130A0000001300
(1427657677.631999) can0 477#0800FB7987001400
(1427657677.664085) can0 475#6813200000020000
(1427657677.664405) can0 306#1200000000000000
(1427657677.664659) can0 294#67009CFFFA000000
(1427657677.664905) can0 270#84132D0000001300
(1427657677.728563) can0 477#0800FB7987001400
(1427657677.764112) can0 475#6813200000020400
(1427657677.764402) can0 306#1300000000000000
(1427657677.764658) can0 294#B7009CFFFA000100
(1427657677.764912) can0 270#8413530000002600
(1427657677.824644) can0 477#0800FB7987001400
(1427657677.864094) can0 475#7013200000020600
(1427657677.866624) can0 306#1200000000000000
(1427657677.921758) can0 477#0900FC7987001400
(1427657677.964375) can0 306#1200000000000000
(1427657677.964664) can0 475#6E13200000020800
(1427657677.965303) can0 294#57019CFFFA000400
(1427657677.965530) can0 270#84139A0000004D00
(1427657678.020055) can0 477#0900FC7987001400
(1427657678.064488) can0 475#6613200000020A00
(1427657678.064821) can0 294#A7019CFFFA000600
(1427657678.065251) can0 306#1100000000000000
(1427657678.065527) can0 270#8413BD0000006000
(1427657678.115523) can0 477#0A00FD7987001400
(1427657678.164388) can0 475#6613200000021700
(1427657678.164719) can0 306#1100000000000000
(1427657678.164990) can0 294#BF039CFFFA000A00
(1427657678.165244) can0 270#8413CD0100008700
(1427657678.212493) can0 477#1900F87987001400
(1427657678.264338) can0 475#6213200000024400
(1427657678.264903) can0 306#110004000E000000
(1427657678.265209) can0 270#8313790400000F01
(1427657678.265494) can0 294#BD099CFFFA002D00
(1427657678.309735) can0 477#3D00F27987001400
(1427657678.364217) can0 475#5F13200000027100
(1427657678.364686) can0 306#1100070017000000
(1427657678.365057) can0 294#37109CFFFA006800
(1427657678.406486) can0 477#8300D27987001400
(1427657678.464104) can0 475#5913200000029F00
(1427657678.464455) can0 306#1100110036000000
(1427657678.464904) can0 294#79169CFFFA00C200
(1427657678.465206) can0 270#7E13FB090000A901
(1427657678.503528) can0 477#C7009A7987001400
(1427657678.564034) can0 475#451320000002C400
(1427657678.564733) can0 306#110018004B000000
(1427657678.564997) can0 294#8B1B9CFFFA004301
(1427657678.600410) can0 477#22016C7987001400
(1427657678.664605) can0 306#1100200067000000
(1427657678.665307) can0 270#72134F0C00006802
(1427657678.665544) can0 294#B51B9CFFFA00B701
(1427657678.697585) can0 477#3E01337987001400
(1427657678.764336) can0 475#361320000002C400
(1427657678.764767) can0 306#12002D008F000000
(1427657678.765019) can0 294#9C1B9CFFFA003502
(1427657678.765275) can0 270#6413440C00006003
(1427657678.794370) can0 477#92010E7987001400
(1427657678.854205) can0 475#381320000002C400
(1427657678.854561) can0 306#13003600AB000000
(1427657678.854829) can0 294#B31B9CFFFA00A602
(1427657678.855090) can0 270#57134E0C00007203
(1427657678.891313) can0 477#B301DA7887001400
(1427657678.954258) can0 475#291320000002C200
(1427657678.954709) can0 306#13004200D1000000
(1427657678.954967) can0 294#5C1B9CFFFA000D03
(1427657678.955349) can0 270#5713270C00005704
(1427657678.988207) can0 477#F6019E7887001400
(1427657679.054224) can0 475#231320000002C400
(1427657679.054579) can0 306#13004F00F8000000
(1427657679.054836) can0 294#801B9CFFFA006D03
(1427657679.055085) can0 270#4C13370C00006A04
(1427657679.085218) can0 477#15027F7887001400
(1427657679.154192) can0 475#291320000002BC00
(1427657679.154537) can0 306#14005B001E010000
(1427657679.154792) can0 294#7C1A9CFFFA00B403
(1427657679.155036) can0 270#4313C30B00006205
(1427657679.182188) can0 477#2B02607887001400
(1427657679.254208) can0 475#301321000002A200
(1427657679.254527) can0 306#140060002C010000
(1427657679.254789) can0 294#11179CFFFA008203
(1427657679.255035) can0 270#43133F0A00007F04
(1427657679.279360) can0 477#E2019C7887001400
(1427657679.354111) can0 475#2C13210000028B00
(1427657679.354521) can0 306#150070005E010000
(1427657679.354779) can0 294#EE139CFFFA006203
(1427657679.355028) can0 270#4C13DA0800009D05
(1427657679.376106) can0 477#D401827887001400
(1427657679.454104) can0 475#2513210000028F00
(1427657679.454447) can0 306#1500770076010000
(1427657679.454704) can0 294#1A149CFFFA006403
(1427657679.454954) can0 270#4813EE080000E705
(1427657679.473081) can0 477#EB01767887001400
(1427657679.554045) can0 475#1F13210000028D00
(1427657679.554353) can0 306#1500810093010000
(1427657679.554721) can0 294#2A149CFFFA007103
(1427657679.554973) can0 270#4813F50800003306
(1427657679.570068) can0 477#0702647887001400
(1427657679.654010) can0 475#2113210000028800
(1427657679.654481) can0 306#15008B00B3010000
(1427657679.654738) can0 294#37139CFFFA008703
(1427657679.655114) can0 270#4313890800007F06
(1427657679.667024) can0 477#0B02587887001400
(1427657679.754023) can0 475#2513210000028600
(1427657679.754310) can0 306#15009300CC010000
(1427657679.754704) can0 294#B7129CFFFA009D03
(1427657679.754961) can0 270#401350080000A706
(1427657679.764020) can0 477#1502487887001400
(1427657679.854017) can0 475#2113210000028400
(1427657679.854427) can0 306#16009A00E3010000
(1427657679.854671) can0 294#BB129CFFFA00B103
(1427657679.854917) can0 270#4013520800000607
(1427657679.860994) can0 477#24023A7887001400
(1427657679.953999) can0 475#1513210000028100
(1427657679.954445) can0 306#1600A300FE010000
(1427657679.954700) can0 294#90129CFFFA00C203
(1427657679.954950) can0 270#3C133F0800008707
(1427657679.957977) can0 477#3902317887001400
(1427657680.053916) can0 475#1B13220000027C00
(1427657680.054211) can0 306#1600AC0019020000
(1427657680.054617) can0 294#EF119CFFFA00D103
(1427657680.054874) can0 270#3913F7070000C207
(1427657680.055310) can0 477#4002247887001400
(1427657680.151933) can0 477#49021A7887001400
(1427657680.154054) can0 475#1D13220000027D00
(1427657680.154366) can0 306#1700B30031020000
(1427657680.154619) can0 294#A1119CFFFA00E003
(1427657680.154864) can0 270#3913D5070000C207
(1427657680.248827) can0 477#4A02127887001400
(1427657680.254080) can0 475#1713220000027B00
(1427657680.254365) can0 306#1700BB0048020000
(1427657680.254740) can0 294#56119CFFFA00F003
(1427657680.254991) can0 270#3713B3070000E807
(1427657680.345794) can0 477#5202057887001400
(1427657680.354278) can0 475#0813220000027700
(1427657680.354562) can0 306#1700C30061020000
(1427657680.354818) can0 294#EB109CFFFA00FB03
(1427657680.355066) can0 270#3513840700005808
(1427657680.442804) can0 477#5A02FF7787001400
(1427657680.454228) can0 475#0C13220000027700
(1427657680.454526) can0 306#1600CA0078020000
(1427657680.454777) can0 294#89109CFFFA000904
(1427657680.455021) can0 270#3513580700005608
(1427657680.539741) can0 477#6402F87787001400
(1427657680.554025) can0 475#1113220000027400
(1427657680.554306) can0 306#1600D1008D020000
(1427657680.554698) can0 294#82109CFFFA001304
(1427657680.554958) can0 270#321355070000CB08
(1427657680.636688) can0 477#6902EC7787001400
(1427657680.654246) can0 475#1513220000027300
(1427657680.654531) can0 306#1500D800A4020000
(1427657680.654782) can0 294#23109CFFFA001D04
(1427657680.655130) can0 270#30132B070000DB08
(1427657680.734620) can0 477#7902E67787001400
(1427657680.754146) can0 475#0F13220000027100
(1427657680.754435) can0 306#1500DE00B8020000
(1427657680.754688) can0 294#C80F9CFFFA002E04
(1427657680.754933) can0 270#3013020700002909
(1427657680.831067) can0 477#5A02DD7787001400
(1427657680.853947) can0 475#1113220000026800
(1427657680.854239) can0 306#1500E500CC020000
(1427657680.854632) can0 294#550E9CFFFA002E04
(1427657680.854886) can0 270#2E135E0600003B09
(1427657680.928068) can0 477#FA010F7887001400
(1427657680.954075) can0 475#1F13220000025800
(1427657680.954421) can0 306#1400E700D4020000
(1427657680.954678) can0 294#4F0C9CFFFA00C703
(1427657680.954927) can0 270#3513770500004309
(1427657681.024613) can0 477#E901377887001400
(1427657681.054096) can0 475#1F13220000025400
(1427657681.054439) can0 306#1400EE00EA020000
(1427657681.054829) can0 270#35134D0500009F09
(1427657681.055050) can0 294#F00B9CFFFA007803
(1427657681.121587) can0 477#E501367887001400
(1427657681.154107) can0 475#2513220000025200
(1427657681.154497) can0 306#1400F300F9020000
(1427657681.154755) can0 294#8C0B9CFFFA005A03
(1427657681.155006) can0 270#3C1321050000BB09
(1427657681.218687) can0 477#B301417887001400
(1427657681.254036) can0 475#2913220000024800
(1427657681.254344) can0 306#1400F60002030000
(1427657681.254714) can0 294#2C0A9CFFFA002003
(1427657681.254968) can0 270#3D13840400009409
(1427657681.315529) can0 477#AB01617887001400
(1427657681.354240) can0 475#2713220000024700
(1427657681.354558) can0 306#1300FC0013030000
(1427657681.354809) can0 294#210A9CFFFA00F502
(1427657681.355057) can0 270#3D137F040000E309
(1427657681.412494) can0 477#B101617887001400
(1427657681.453994) can0 475#2313220000024700
(1427657681.454289) can0 306#1400FF001D030000
(1427657681.454690) can0 294#270A9CFFFA00ED02
(1427657681.454946) can0 270#421382040000030A
(1427657681.509484) can0 477#A201627887001400
(1427657681.553915) can0 475#2713220000024100
(1427657681.554408) can0 306#1400030129030000
(1427657681.554674) can0 294#48099CFFFA00DF02
(1427657681.554925) can0 270#42131F040000060A
(1427657681.606433) can0 477#81016C7887001400
(1427657681.653976) can0 475#2713220000023A00
(1427657681.654374) can0 306#1300050131030000
(1427657681.654626) can0 294#35089CFFFA00B202
(1427657681.654875) can0 270#4213A5030000190A
(1427657681.703425) can0 477#5201857887001400
(1427657681.754167) can0 475#3013220000023500
(1427657681.754489) can0 306#1300070138030000
(1427657681.754742) can0 270#481335030000F709
(1427657681.754951) can0 294#3A079CFFFA007002
(1427657681.801252) can0 477#2101B37887001400
(1427657681.854155) can0 475#3813220000022D00
(1427657681.854465) can0 306#13000A0140030000
(1427657681.854744) can0 294#3C069CFFFA002302
(1427657681.855270) can0 270#4F13C5020000FB09
(1427657681.897369) can0 477#F400D17887001400
(1427657681.954359) can0 475#4013220000022400
(1427657681.954685) can0 306#13000C0147030000
(1427657681.954940) can0 294#38059CFFFA00D201
(1427657681.955190) can0 270#4F1351020000020A
(1427657681.994269) can0 477#C600F37887001400
(1427657682.054303) can0 475#3A13220000021E00
(1427657682.054632) can0 306#12000E014B030000
(1427657682.054888) can0 294#25049CFFFA008801
(1427657682.055138) can0 270#5713D7010000FA09
(1427657682.091244) can0 477#A0000D7987001400
(1427657682.154228) can0 475#4513220000021500
(1427657682.154731) can0 306#13000F0150030000
(1427657682.154995) can0 294#FD029CFFFA003E01
(1427657682.155243) can0 270#621354010000170A
(1427657682.188214) can0 477#78002F7987001400
(1427657682.254223) can0 475#5113220000021000
(1427657682.254542) can0 306#13000F0151030000
(1427657682.254916) can0 294#5D029CFFFA00F700
(1427657682.255171) can0 270#62130C010000F209
(1427657682.285212) can0 477#5700517987001400
(1427657682.354218) can0 475#5713220000020C00
(1427657682.354654) can0 306#14000F0150030000
(1427657682.354917) can0 294#93019CFFFA00B900
(1427657682.355169) can0 270#6713B3000000CF09
(1427657682.382213) can0 477#3C006B7987001400
(1427657682.454173) can0 475#5B13220000020800
(1427657682.454546) can0 306#14000E014B030000
(1427657682.454806) can0 294#20019CFFFA008500
(1427657682.455063) can0 270#6F137F000000BF09
(1427657682.479145) can0 477#2E00887987001400
(1427657682.554157) can0 475#5B13220000020500
(1427657682.554466) can0 306#14000B0142030000
(1427657682.554871) can0 294#03019CFFFA006200
(1427657682.555230) can0 270#6F13730000009709
(1427657682.576084) can0 477#2100947987001400
(1427657682.654134) can0 475#5913220000020400
(1427657682.654482) can0 306#1500070137030000
(1427657682.654736) can0 294#9D009CFFFA004A00
(1427657682.654987) can0 270#7313450000004C09
(1427657682.673107) can0 477#1C009B7987001400
(1427657682.754106) can0 475#6E13220000020000
(1427657682.754534) can0 306#1500050131030000
(1427657682.754788) can0 294#BCFF9CFFFA003300
(1427657682.755036) can0 270#7513E1FF00000909
(1427657682.770061) can0 477#D5FFB17987001400
(1427657682.854056) can0 475#6C13220000020D00
(1427657682.854469) can0 306#15000B0143030000
(1427657682.854750) can0 294#29FE9CFFFA00D9FF
(1427657682.855005) can0 270#75132FFF0000E008
(1427657682.867019) can0 477#AFFFE97987001400
(1427657682.956153) can0 475#6013220000020F00
(1427657682.964095) can0 477#9FFF017A87001400
(1427657683.053998) can0 475#6C13220000021200
(1427657683.054439) can0 306#150009013E030000
(1427657683.054695) can0 294#EAFD9CFFFA0081FF
(1427657683.054945) can0 270#861313FF0000DF08
(1427657683.060937) can0 477#A1FF0F7A87001400
(1427657683.153999) can0 475#6A13220000021100
(1427657683.154424) can0 306#150008013A030000
(1427657683.154678) can0 294#71FD9CFFFA0075FF
(1427657683.154930) can0 270#8613DDFE0000B708
(1427657683.158075) can0 477#A1FF137A87001400
(1427657683.254098) can0 475#6C13220000021000
(1427657683.254441) can0 306#1600050131030000
(1427657683.254699) can0 294#C9FD9CFFFA0076FF
(1427657683.254950) can0 270#881304FF0000A408
(1427657683.255300) can0 477#AAFF147A87001400
(1427657683.351960) can0 477#B1FF127A87001400
(1427657683.354353) can0 475#7013220000021000
(1427657683.354640) can0 306#1600030129030000
(1427657683.354894) can0 294#E4FD9CFFFA007DFF
(1427657683.355147) can0 270#871310FF0000A508
(1427657683.448834) can0 477#B7FF117A87001400
(1427657683.454278) can0 475#7613220000020E00
(1427657683.454570) can0 306#1600000121030000
(1427657683.454856) can0 294#24FE9CFFFA0086FF
(1427657683.455109) can0 270#87132CFF00008408
(1427657683.545802) can0 477#BFFF117A87001400
(1427657683.554301) can0 475#7A13220000020B00
(1427657683.554610) can0 306#1600FE001B030000
(1427657683.554882) can0 294#40FE9CFFFA008EFF
(1427657683.555157) can0 270#881339FF00004808
(1427657683.643551) can0 477#D6FF0C7A87001400
(1427657683.654254) can0 475#7013220000020600
(1427657683.654567) can0 306#1600FB0011030000
(1427657683.654821) can0 294#02FF9CFFFA00A1FF
(1427657683.655069) can0 270#87138FFF00004408
(1427657683.739777) can0 477#EBFF017A87001400
(1427657683.754218) can0 475#6413220000020000
(1427657683.754567) can0 306#1600F80009030000
(1427657683.754839) can0 294#66FF9CFFFA00BEFF
(1427657683.755105) can0 270#8713BBFF00002E08
(1427657683.836729) can0 477#FBFFEF7987001400
(1427657683.854239) can0 475#6413220000020000
(1427657683.854556) can0 306#1600F60001030000
(1427657683.854812) can0 294#35009CFFFA00DBFF
(1427657683.855019) can0 270#8413170000005408
(1427657683.934683) can0 477#1400E17987001400
(1427657683.954214) can0 475#6213220000020400
(1427657683.954533) can0 306#1600F400FA020000
(1427657683.954791) can0 294#95009CFFFA00FDFF
(1427657683.954999) can0 270#8013420000007A08
(1427657684.031107) can0 477#2500D17987001400
(1427657684.055297) can0 306#1600F200F4020000
(1427657684.055584) can0 270#801379000000B408
(1427657684.128153) can0 477#3000C57987001400
(1427657684.154148) can0 475#5F13220000020800
(1427657684.154436) can0 306#1600F100F3020000
(1427657684.154799) can0 294#59019CFFFA003D00
(1427657684.155046) can0 270#7D1399000000B108
(1427657684.224576) can0 477#3700BE7987001400
(1427657684.254126) can0 475#6413220000020B00
(1427657684.254431) can0 306#1500F100F3020000
(1427657684.254829) can0 294#A0019CFFFA005200
(1427657684.255087) can0 270#7B13B9000000DD08
(1427657684.321576) can0 477#4800B67987001400
(1427657684.354377) can0 475#6013210000020C00
(1427657684.354680) can0 306#1500F100F3020000
(1427657684.354948) can0 294#B3019CFFFA006C00
(1427657684.355222) can0 270#7B13C1000000EF08
(1427657684.418533) can0 477#7C00A77987001400
(1427657684.454083) can0 475#4F13210000021A00
(1427657684.454376) can0 306#1500EC00E3020000
(1427657684.454779) can0 294#C4039CFFFA009B00
(1427657684.455037) can0 270#7813AC010000AC08
(1427657684.515466) can0 477#97007B7987001400
(1427657684.554064) can0 475#5513210000021C00
(1427657684.554357) can0 306#1500EA00DB020000
(1427657684.554754) can0 294#22049CFFFA00DF00
(1427657684.555009) can0 270#7213D6010000AE08
(1427657684.612460) can0 477#B200717987001400
(1427657684.654332) can0 475#4413210000022100
(1427657684.654673) can0 306#1500E800D5020000
(1427657684.654954) can0 294#10059CFFFA000E01
(1427657684.655206) can0 270#721340020000E308
(1427657684.709471) can0 477#C1005F7987001400
(1427657684.754228) can0 475#5913210000022600
(1427657684.754540) can0 306#1600E800D5020000
(1427657684.754809) can0 294#89059CFFFA003601
(1427657684.755061) can0 270#6C1375020000C508
(1427657684.806418) can0 477#D800527987001400
(1427657684.854151) can0 475#4513210000022900
(1427657684.854482) can0 306#1600E800D5020000
(1427657684.854738) can0 294#29069CFFFA005B01
(1427657684.854987) can0 270#6913BC020000CE08
(1427657684.903422) can0 477#E700407987001400
(1427657684.954792) can0 306#1500E900D9020000
(1427657684.955084) can0 294#6E069CFFFA007C01
(1427657684.955343) can0 270#6913DB020000E108
(1427657685.000381) can0 477#F700337987001400
(1427657685.054319) can0 475#4413210000022E00
(1427657685.054676) can0 306#1500EA00DC020000
(1427657685.054951) can0 270#6513FB020000F308
(1427657685.055184) can0 294#B7069CFFFA009901
(1427657685.097463) can0 477#0B011F7987001400
(1427657685.154337) can0 475#4913210000023200
(1427657685.154684) can0 306#1500EA00DC020000
(1427657685.154941) can0 294#08079CFFFA00B901
(1427657685.155191) can0 270#61131F030000E108
(1427657685.194524) can0 477#0A01117987001400
(1427657685.254500) can0 475#4213210000022F00
(1427657685.255071) can0 306#1500EC00E1020000
(1427657685.255319) can0 294#9E069CFFFA00C601
(1427657685.291268) can0 477#FA00157987001400
(1427657685.354347) can0 475#4713210000022B00
(1427657685.354700) can0 306#1500EC00E2020000
(1427657685.354960) can0 270#5E13B90200000D09
(1427657685.355166) can0 294#22069CFFFA00B901
(1427657685.388225) can0 477#EB001C7987001400
(1427657685.454264) can0 475#4B13210000022800
(1427657685.454561) can0 306#1500ED00E4020000
(1427657685.454961) can0 294#78059CFFFA00A101
(1427657685.455219) can0 270#60136E020000E108
(1427657685.485255) can0 477#D300277987001400
(1427657685.554286) can0 475#4913210000022400
(1427657685.554727) can0 306#1500ED00E5020000
(1427657685.554981) can0 294#4F059CFFFA007D01
(1427657685.555696) can0 270#60135B020000E308
(1427657685.582144) can0 477#C400387987001400
(1427657685.654165) can0 475#4F13210000022200
(1427657685.654489) can0 306#1600ED00E4020000
(1427657685.654858) can0 294#E3049CFFFA005D01
(1427657685.655110) can0 270#63132B020000D208
(1427657685.679105) can0 477#AF00437987001400
(1427657685.754242) can0 475#5113210000021D00
(1427657685.754575) can0 306#1500ED00E6020000
(1427657685.755049) can0 270#6613BF010000E708
(1427657685.755286) can0 294#EF039CFFFA003901
(1427657685.776240) can0 477#9900537987001400
(1427657685.854147) can0 475#5313210000021700
(1427657685.854577) can0 306#1600ED00E7020000
(1427657685.855286) can0 294#4C039CFFFA001201
(1427657685.855868) can0 270#661377010000D508
(1427657685.873100) can0 477#8000677987001400
(1427657685.954179) can0 475#5913210000021600
(1427657685.954645) can0 306#1600EC00E3020000
(1427657685.954907) can0 270#6B136B0100009E08
(1427657685.955114) can0 294#31039CFFFA00ED00
(1427657685.970047) can0 477#7300737987001400
(1427657686.054110) can0 475#4D13210000021300
(1427657686.054435) can0 306#1600EB00E0020000
(1427657686.054837) can0 294#A4029CFFFA00CF00
(1427657686.055096) can0 270#6E132C010000AE08
(1427657686.067038) can0 477#64007A7987001400
(1427657686.154229) can0 475#5313210000021000
(1427657686.154817) can0 306#1600EA00DC020000
(1427657686.155245) can0 294#80029CFFFA00B200
(1427657686.164030) can0 477#5300897987001400
(1427657686.254610) can0 306#1600E900DA020000
(1427657686.254902) can0 294#FD019CFFFA009300
(1427657686.255174) can0 270#7213E20000007A08
(1427657686.261282) can0 477#40009B7987001400
