(1427657581.728188) can0 477#3400A37988001400
(1427657581.792798) can0 475#53131F0000020800
(1427657581.793058) can0 306#1200F9000C030000
(1427657581.793325) can0 294#3C019CFFFA005B00
(1427657581.793532) can0 270#76138C000000E708
(1427657581.825154) can0 477#3000A77988001400
(1427657581.892805) can0 475#59131F0000020900
(1427657581.893043) can0 306#1200F80006030000
(1427657581.893264) can0 294#49019CFFFA005800
(1427657581.893547) can0 270#771392000000EB08
(1427657581.923458) can0 477#3400AA7988001400
(1427657581.992917) can0 475#62131F0000020800
(1427657581.993257) can0 306#1100F60001030000
(1427657581.993434) can0 294#65019CFFFA005700
(1427657581.993736) can0 270#77139E000000DA08
(1427657582.020319) can0 477#3300A87988001400
(1427657582.092903) can0 475#5F131F0000020800
(1427657582.093207) can0 306#1100F500FC020000
(1427657582.093457) can0 294#4E019CFFFA005500
(1427657582.093709) can0 270#771394000000DA08
(1427657582.116043) can0 477#3000AA7988001400
(1427657582.192826) can0 475#5B131F0000020800
(1427657582.193190) can0 306#1100F300F6020000
(1427657582.193464) can0 294#2D019CFFFA005400
(1427657582.193713) can0 270#771386000000B108
(1427657582.213078) can0 477#2F00AB7988001400
(1427657582.292841) can0 475#6A131F0000020800
(1427657582.293184) can0 306#1100F100F2020000
(1427657582.293445) can0 294#52019CFFFA005100
(1427657582.293698) can0 270#771396000000B508
(1427657582.310182) can0 477#2B00AA7988001400
(1427657582.392787) can0 475#59131F0000020800
(1427657582.393112) can0 306#1100F000ED020000
(1427657582.393369) can0 294#15019CFFFA004F00
(1427657582.393617) can0 270#77137B0000008D08
(1427657582.407001) can0 477#2F00AD7988001400
(1427657582.492720) can0 475#5F131F0000020800
(1427657582.493172) can0 306#1200EE00E7020000
(1427657582.493444) can0 294#33019CFFFA004E00
(1427657582.493716) can0 270#771388000000B408
(1427657582.503934) can0 477#3200AD7988001400
(1427657582.592732) can0 475#5F131F0000020800
(1427657582.593052) can0 306#1200ED00E2020000
(1427657582.593421) can0 294#16019CFFFA004E00
(1427657582.593668) can0 270#77137B0000008D08
(1427657582.600938) can0 477#2E00AB7988001400
(1427657582.692715) can0 475#62131F0000020800
(1427657582.693139) can0 306#1200EA00DD020000
(1427657582.693388) can0 294#2C019CFFFA004E00
(1427657582.693634) can0 270#7713850000007A08
(1427657582.697877) can0 477#2E00AC7988001400
(1427657582.792703) can0 475#55131F0000020800
(1427657582.793123) can0 306#1200E900D8020000
(1427657582.793368) can0 294#2D019CFFFA004E00
(1427657582.793616) can0 270#7813860000006108
(1427657582.794866) can0 477#2F00AF7988001400
(1427657582.891853) can0 477#3000B07988001400
(1427657582.892835) can0 475#57131F0000020800
(1427657582.893120) can0 306#1200E700D1020000
(1427657582.893370) can0 294#6A019CFFFA004D00
(1427657582.893633) can0 270#7813A10000006308
(1427657582.988785) can0 477#3000B07988001400
(1427657582.992775) can0 475#5F131F0000020800
(1427657582.993064) can0 306#1200E500CB020000
(1427657582.993316) can0 294#54019CFFFA004E00
(1427657582.993561) can0 270#7813970000005208
(1427657583.086198) can0 477#3300B17988001400
(1427657583.092789) can0 475#5F131F0000020800
(1427657583.093083) can0 306#1200E300C4020000
(1427657583.093347) can0 294#51019CFFFA005200
(1427657583.093598) can0 270#7813950000003F08
(1427657583.182715) can0 477#3D00AB7988001400
(1427657583.192744) can0 475#57131F0000020C00
(1427657583.193065) can0 306#1200E100BD020000
(1427657583.193317) can0 294#AE019CFFFA005A00
(1427657583.193563) can0 270#7813BF0000002908
(1427657583.279695) can0 477#4000A37988001400
(1427657583.292802) can0 475#5F131F0000020C00
(1427657583.293106) can0 306#1200DF00BB020000
(1427657583.293360) can0 294#C3019CFFFA006700
(1427657583.293563) can0 270#7713C80000002B08
(1427657583.376627) can0 477#5000A47988001400
(1427657583.392886) can0 475#5F131F0000021000
(1427657583.393202) can0 306#1200DE00B5020000
(1427657583.393467) can0 270#7613090100001808
(1427657583.393683) can0 294#56029CFFFA007200
(1427657583.473614) can0 477#6A00937988001400
(1427657583.492668) can0 475#57131F0000021500
(1427657583.492961) can0 306#1300DB00AB020000
(1427657583.493332) can0 294#26039CFFFA009500
(1427657583.493979) can0 270#7613660100001208
(1427657583.570722) can0 477#7300847988001400
(1427657583.592703) can0 475#59131F0000021600
(1427657583.592994) can0 306#1300DA00AB020000
(1427657583.593362) can0 294#49039CFFFA00AE00
(1427657583.593614) can0 270#7113760100003B08
(1427657583.667553) can0 477#7B007E7988001400
(1427657583.692648) can0 475#49131F0000021700
(1427657583.692944) can0 306#1200DB00AE020000
(1427657583.693340) can0 294#35039CFFFA00C000
(1427657583.693595) can0 270#70136D0100002208
(1427657583.764552) can0 477#8400787988001400
(1427657583.792830) can0 475#5B131F0000021800
(1427657583.793136) can0 306#1200DC00B1020000
(1427657583.793398) can0 294#B2039CFFFA00CF00
(1427657583.793662) can0 270#7013A40100003D08
(1427657583.861515) can0 477#8000747988001400
(1427657583.892605) can0 475#51131F0000021800
(1427657583.892900) can0 306#1200DE00B8020000
(1427657583.893286) can0 294#5B039CFFFA00D300
(1427657583.893538) can0 270#6E137D0100004B08
(1427657583.958498) can0 477#8700747988001400
(1427657583.992552) can0 475#4F131F0000021900
(1427657583.992846) can0 306#1300E000BC020000
(1427657583.993219) can0 294#9F039CFFFA00D900
(1427657583.993467) can0 270#6E139B0100004B08
(1427657584.055462) can0 477#97006F7988001400
(1427657584.092719) can0 475#55131F0000021C00
(1427657584.093031) can0 306#1300E000BC020000
(1427657584.093285) can0 294#09049CFFFA00EB00
(1427657584.093532) can0 270#6E13CA0100006108
(1427657584.152427) can0 477#A100617988001400
(1427657584.192748) can0 475#4B131F0000022000
(1427657584.193056) can0 306#1300E000BC020000
(1427657584.193319) can0 294#54049CFFFA00FE00
(1427657584.193568) can0 270#6C13EC0100004B08
(1427657584.249532) can0 477#A400587988001400
(1427657584.292725) can0 475#51131F0000022000
(1427657584.293123) can0 306#1400E100BF020000
(1427657584.293372) can0 294#D1049CFFFA000F01
(1427657584.293617) can0 270#6A13230200008808
(1427657584.346402) can0 477#B400547988001400
(1427657584.393098) can0 475#4F131F0000022300
(1427657584.393412) can0 306#1400E100C0020000
(1427657584.393660) can0 294#01059CFFFA002201
(1427657584.393914) can0 270#6A13390200006208
(1427657584.443351) can0 477#BE00487988001400
(1427657584.493038) can0 475#3E131F0000022400
(1427657584.493389) can0 306#1400E200C3020000
(1427657584.493644) can0 294#42059CFFFA003501
(1427657584.493893) can0 270#6813550200009308
(1427657584.540312) can0 477#C600417988001400
(1427657584.592999) can0 475#49131F0000022200
(1427657584.593365) can0 306#1400E300CA020000
(1427657584.593643) can0 294#11059CFFFA004001
(1427657584.593903) can0 270#6613400200009908
(1427657584.637275) can0 477#C9003F7988001400
(1427657584.693001) can0 475#47131F0000022500
(1427657584.693345) can0 306#1400E500CD020000
(1427657584.693603) can0 294#72059CFFFA004A01
(1427657584.693863) can0 270#66136B0200009408
(1427657584.734244) can0 477#D100397988001400
(1427657584.792976) can0 475#44131F0000022600
(1427657584.793297) can0 306#1300E600D0020000
(1427657584.793553) can0 294#A6059CFFFA005901
(1427657584.793805) can0 270#661382020000B408
(1427657584.831250) can0 477#D400317988001400
(1427657584.892944) can0 475#47131F0000022600
(1427657584.893264) can0 306#1300E800D6020000
(1427657584.893516) can0 294#C6059CFFFA006401
(1427657584.893763) can0 270#641390020000E208
(1427657584.928183) can0 477#D8002C7988001400
(1427657584.982955) can0 475#40131F0000022600
(1427657584.983291) can0 306#1300E800D6020000
(1427657584.983537) can0 294#67059CFFFA006B01
(1427657584.983779) can0 270#641366020000BC08
(1427657585.025561) can0 477#CC00297988001400
(1427657585.082925) can0 475#40131F0000022300
(1427657585.083348) can0 306#1300EA00DC020000
(1427657585.083599) can0 294#2B059CFFFA006001
(1427657585.083857) can0 270#62134C020000CD08
(1427657585.123288) can0 477#B600357988001400
(1427657585.182990) can0 475#4D131F0000022000
(1427657585.183354) can0 306#1300EC00E3020000
(1427657585.183610) can0 270#641304020000D308
(1427657585.183808) can0 294#89049CFFFA004601
(1427657585.220220) can0 477#A900457988001400
(1427657585.282930) can0 475#4D131F0000021D00
(1427657585.283354) can0 306#1300ED00E7020000
(1427657585.283889) can0 294#0D049CFFFA002E01
(1427657585.284135) can0 270#6413CD010000E608
(1427657585.316124) can0 477#A1004D7988001400
(1427657585.382868) can0 475#49131F0000021A00
(1427657585.383375) can0 306#1300ED00E7020000
(1427657585.383625) can0 294#B9039CFFFA001B01
(1427657585.383829) can0 270#6713A70100000809
(1427657585.413033) can0 477#9100517988001400
(1427657585.482816) can0 475#4F131F0000021A00
(1427657585.483165) can0 306#1300ED00E7020000
(1427657585.483430) can0 294#BA039CFFFA000901
(1427657585.483686) can0 270#6A13A7010000D308
(1427657585.510076) can0 477#9000597988001400
(1427657585.582851) can0 475#4D131F0000021900
(1427657585.583375) can0 306#1300ED00E6020000
(1427657585.583630) can0 270#6A13A6010000C008
(1427657585.606957) can0 477#8900607988001400
(1427657585.682770) can0 475#4F131F0000021900
(1427657585.683112) can0 306#1200ED00E4020000
(1427657585.683365) can0 294#A4039CFFFA00F200
(1427657585.683614) can0 270#6B139E010000C008
(1427657585.703963) can0 477#8300627988001400
(1427657585.782727) can0 475#53131F0000021700
(1427657585.783092) can0 306#1200EC00E2020000
(1427657585.783397) can0 270#6C1385010000D508
(1427657585.783595) can0 294#6C039CFFFA00E800
(1427657585.800903) can0 477#7D00687988001400
(1427657585.882734) can0 475#51131F0000021600
(1427657585.883156) can0 306#1100EB00DF020000
(1427657585.883412) can0 294#2B039CFFFA00DD00
(1427657585.883656) can0 270#6C1368010000C108
(1427657585.897897) can0 477#7C006E7988001400
(1427657585.982810) can0 475#59131F0000021600
(1427657585.983238) can0 306#1100EA00DB020000
(1427657585.983497) can0 270#6D136B0100009D08
(1427657585.983696) can0 294#31039CFFFA00D800
(1427657585.994847) can0 477#7C006E7988001400
(1427657586.082837) can0 475#66131F0000021500
(1427657586.083161) can0 306#1100E900D8020000
(1427657586.083414) can0 294#14039CFFFA00CF00
(1427657586.083655) can0 270#6D135E010000A408
(1427657586.091803) can0 477#7600717988001400
(1427657586.182854) can0 475#5B131F0000021500
(1427657586.183245) can0 294#E3029CFFFA00C300
(1427657586.183459) can0 306#1200E800D6020000
(1427657586.183706) can0 270#6D13480100008B08
(1427657586.188939) can0 477#6A00797988001400
(1427657586.282833) can0 475#5B131F0000021200
(1427657586.283159) can0 294#79029CFFFA00BB00
(1427657586.283362) can0 306#1300E700D3020000
(1427657586.283607) can0 270#6F13190100008A08
(1427657586.285703) can0 477#62007A7988001400
(1427657586.382627) can0 475#53131F0000021100
(1427657586.382946) can0 477#5800847988001400
(1427657586.383395) can0 306#1300E700D2020000
(1427657586.383825) can0 270#6F13170100008708
(1427657586.479672) can0 477#5400887988001400
(1427657586.482716) can0 475#60131F0000021000
(1427657586.483055) can0 306#1300E600D0020000
(1427657586.483305) can0 294#4F029CFFFA00A000
(1427657586.483548) can0 270#6F13060100006608
(1427657586.576701) can0 477#5B008D7988001400
(1427657586.582760) can0 475#62131F0000021000
(1427657586.583166) can0 306#1300E400CA020000
(1427657586.583458) can0 294#8F029CFFFA009900
(1427657586.583707) can0 270#7113230100006408
(1427657586.673700) can0 477#51008B7988001400
(1427657586.682892) can0 475#53131F0000020F00
(1427657586.683251) can0 306#1300E300C7020000
(1427657586.683512) can0 294#49029CFFFA009600
(1427657586.683766) can0 270#7213030100006108
(1427657586.770810) can0 477#4900937988001400
(1427657586.782879) can0 475#57131F0000020D00
(1427657586.783358) can0 306#1300E300C7020000
(1427657586.783601) can0 294#FC019CFFFA008A00
(1427657586.783864) can0 270#7213D30000006308
(1427657586.867639) can0 477#4800997988001400
(1427657586.882693) can0 475#59131F0000020C00
(1427657586.883137) can0 306#1200E300C5020000
(1427657586.883396) can0 294#E8019CFFFA008100
(1427657586.883653) can0 270#7313EA0000006008
(1427657586.964580) can0 477#4600997988001400
(1427657586.982825) can0 475#5D131F0000020D00
(1427657586.983291) can0 306#1200E200C2020000
(1427657586.983574) can0 270#7413CF0000005108
(1427657586.983790) can0 294#F7019CFFFA007E00
(1427657587.061485) can0 477#45009C7988001400
(1427657587.082782) can0 475#5B131F0000020D00
(1427657587.083081) can0 306#1200E100C0020000
(1427657587.083610) can0 270#7413F20000003D08
(1427657587.083836) can0 294#20029CFFFA007D00
(1427657587.158507) can0 477#4F00997988001400
(1427657587.182818) can0 475#59131F0000020F00
(1427657587.183170) can0 306#1200E100C0020000
(1427657587.183492) can0 270#74130A0100005008
(1427657587.183694) can0 294#58029CFFFA008400
(1427657587.255485) can0 477#5900967988001400
(1427657587.282789) can0 475#60131F0000021100
(1427657587.283071) can0 306#1200E100C0020000
(1427657587.283315) can0 294#8A029CFFFA008D00
(1427657587.284052) can0 270#7413300100003E08
(1427657587.352409) can0 477#6300927988001400
(1427657587.382962) can0 475#59131F0000021200
(1427657587.383311) can0 306#1200E100BF020000
(1427657587.383578) can0 294#A3029CFFFA009D00
(1427657587.383825) can0 270#7413580100006308
(1427657587.449407) can0 477#6A008B7988001400
(1427657587.482899) can0 475#4B131F0000021500
(1427657587.483232) can0 306#1200E100BF020000
(1427657587.483484) can0 294#E5029CFFFA00AE00
(1427657587.483732) can0 270#7213500100005C08
(1427657587.546313) can0 477#7100837988001400
(1427657587.582677) can0 475#53131F0000021500
(1427657587.583093) can0 306#1100E200C2020000
(1427657587.583441) can0 294#0B039CFFFA00B900
(1427657587.583793) can0 270#71135A0100006208
(1427657587.643324) can0 477#7400807988001400
(1427657587.683031) can0 475#55131F0000021600
(1427657587.683369) can0 306#1100E200C4020000
(1427657587.683623) can0 294#1D039CFFFA00C300
(1427657587.683870) can0 270#71137E0100006008
(1427657587.740302) can0 477#7A007E7988001400
(1427657587.782918) can0 475#55131F0000021700
(1427657587.783223) can0 306#1100E300C6020000
(1427657587.783521) can0 270#7013830100008608
(1427657587.783722) can0 294#7F039CFFFA00CE00
(1427657587.837255) can0 477#8500797988001400
(1427657587.882785) can0 475#57131F0000021A00
(1427657587.883116) can0 306#1100E300C7020000
(1427657587.883366) can0 294#CE039CFFFA00DD00
(1427657587.883610) can0 270#6F13950100007608
(1427657587.934216) can0 477#8C00717988001400
(1427657587.982969) can0 475#51131F0000021B00
(1427657587.983373) can0 306#1000E400C9020000
(1427657587.983634) can0 270#6F13B60100008508
(1427657587.983833) can0 294#05049CFFFA00E700
(1427657588.031227) can0 477#99006C7988001400
(1427657588.082981) can0 475#59131F0000021C00
(1427657588.083300) can0 306#1000E500CB020000
(1427657588.083551) can0 294#FA039CFFFA00F600
(1427657588.083798) can0 270#6E13C40100008A08
(1427657588.128484) can0 477#9900667988001400
(1427657588.183042) can0 475#5F131F0000021B00
(1427657588.183425) can0 306#1000E600D0020000
(1427657588.183682) can0 270#6C13CA010000A008
(1427657588.183881) can0 294#07049CFFFA000001
(1427657588.225123) can0 477#9800647988001400
(1427657588.283219) can0 475#49131F0000021A00
(1427657588.283533) can0 306#1000E800D5020000
(1427657588.283781) can0 294#17049CFFFA000401
(1427657588.284023) can0 270#6C13D1010000CE08
(1427657588.322186) can0 477#9800637988001400
(1427657588.382965) can0 475#4F131F0000021D00
(1427657588.383415) can0 306#1000E900D9020000
(1427657588.383674) can0 294#FB039CFFFA000901
(1427657588.383920) can0 270#6C13C4010000BF08
(1427657588.419331) can0 477#A3005D7988001400
(1427657588.482916) can0 475#53131F0000021D00
(1427657588.483217) can0 306#1000E900DA020000
(1427657588.483574) can0 294#4B049CFFFA001701
(1427657588.483830) can0 270#6B13E8010000BD08
(1427657588.516137) can0 477#A000577988001400
(1427657588.583080) can0 475#47131F0000021B00
(1427657588.583499) can0 306#1000EA00DD020000
(1427657588.583756) can0 270#6B13BA010000AC08
(1427657588.583953) can0 294#E4039CFFFA001401
(1427657588.613006) can0 477#93005D7988001400
(1427657588.682883) can0 475#4B131F0000021900
(1427657588.683301) can0 306#1000EC00E1020000
(1427657588.683551) can0 294#A9039CFFFA000101
(1427657588.683796) can0 270#6A13A0010000AA08
(1427657588.710904) can0 477#8400697988001400
(1427657588.782784) can0 475#4F131F0000021800
(1427657588.783101) can0 306#1000EC00E1020000
(1427657588.783515) can0 294#7F039CFFFA00EF00
(1427657588.783765) can0 270#6C138D010000BE08
(1427657588.806923) can0 477#7B006F7988001400
(1427657588.882768) can0 475#4B131F0000021400
(1427657588.883385) can0 306#1000ED00E5020000
(1427657588.883910) can0 270#6C1344010000CE08
(1427657588.903920) can0 477#66007E7988001400
(1427657588.982767) can0 475#57131F0000021100
(1427657588.983194) can0 306#1000ED00E6020000
(1427657588.983534) can0 294#9D029CFFFA00BF00
(1427657588.983888) can0 270#6F1329010000B008
(1427657589.000898) can0 477#6500867988001400
(1427657589.082762) can0 475#55131F0000021100
(1427657589.083188) can0 306#1100ED00E4020000
(1427657589.083439) can0 294#8F029CFFFA00B000
(1427657589.083689) can0 270#7113230100009E08
(1427657589.097822) can0 477#5D008C7988001400
(1427657589.182721) can0 475#5F131F0000020E00
(1427657589.183146) can0 306#1100EC00E3020000
(1427657589.183482) can0 294#28029CFFFA009F00
(1427657589.183846) can0 270#7113F5000000C508
(1427657589.194822) can0 477#5200937988001400
(1427657589.282693) can0 475#64131F0000020B00
(1427657589.283123) can0 306#1000ED00E4020000
(1427657589.283393) can0 294#F5019CFFFA008A00
(1427657589.283653) can0 270#7213DE000000B308
(1427657589.291807) can0 477#42009B7988001400
(1427657589.382643) can0 475#5D131F0000020B00
(1427657589.383090) can0 306#1000EC00E2020000
(1427657589.383387) can0 294#B8019CFFFA007700
(1427657589.383789) can0 270#7513C30000008C08
(1427657589.388721) can0 477#3A00A47988001400
(1427657589.482598) can0 475#5F131F0000020800
(1427657589.482913) can0 306#1000EB00E0020000
(1427657589.483289) can0 294#57019CFFFA006900
(1427657589.483543) can0 270#7513980000008C08
(1427657589.485679) can0 477#3300A97988001400
(1427657589.582688) can0 477#2D00AF7988001400
(1427657589.583121) can0 475#5F131F0000020800
(1427657589.583380) can0 306#1000EB00DE020000
(1427657589.583678) can0 270#77137D0000007908
(1427657589.583884) can0 294#19019CFFFA005A00
(1427657589.679677) can0 477#2300B87988001400
(1427657589.683008) can0 475#53131F0000020600
(1427657589.683275) can0 306#1000EA00DB020000
(1427657589.683538) can0 294#0B019CFFFA004D00
(1427657589.683787) can0 270#7913760000007608
(1427657589.776631) can0 477#2000BC7988001400
(1427657589.783054) can0 475#5D131F0000020500
(1427657589.783392) can0 306#0F00E800D7020000
(1427657589.783703) can0 270#7913670000006608
(1427657589.783924) can0 294#E9009CFFFA004300
(1427657589.873610) can0 477#1400C37988001400
(1427657589.883027) can0 475#5D131F0000020400
(1427657589.883337) can0 306#0F00E700D4020000
(1427657589.883598) can0 294#85009CFFFA003800
(1427657589.883852) can0 270#7A133B0000003D08
(1427657589.970689) can0 477#0900D07988001400
(1427657589.982933) can0 475#64131F0000020000
(1427657589.983240) can0 306#1000E700D4020000
(1427657589.983599) can0 294#34009CFFFA002500
(1427657589.983858) can0 270#7B13170000001908
(1427657590.067662) can0 477#0000D77988001400
(1427657590.082911) can0 475#6A131F0000020000
(1427657590.083226) can0 306#1000E700D3020000
(1427657590.083507) can0 294#FDFF9CFFFA001100
(1427657590.083771) can0 270#7B13FEFF00000908
(1427657590.164533) can0 477#FAFFE07988001400
(1427657590.182920) can0 475#68131F0000020000
(1427657590.183207) can0 306#1000E600D1020000
(1427657590.183551) can0 294#93FF9CFFFA000200
(1427657590.183916) can0 270#7E13CFFF0000F507
(1427657590.261523) can0 477#F4FFE87988001400
(1427657590.282847) can0 475#6C131F0000020000
(1427657590.283177) can0 306#1100E500CE020000
(1427657590.283429) can0 294#B8FF9CFFFA00F3FF
(1427657590.283688) can0 270#8013E0FF0000CF07
(1427657590.358486) can0 477#FBFFE77988001400
(1427657590.382866) can0 475#68131F0000020000
(1427657590.383169) can0 306#1100E500CB020000
(1427657590.383457) can0 294#E6FF9CFFFA00F5FF
(1427657590.383754) can0 270#8013F4FF0000CD07
(1427657590.455502) can0 477#0400E57988001400
(1427657590.482812) can0 475#68131F0000020000
(1427657590.483232) can0 306#1100E400C8020000
(1427657590.483482) can0 294#47009CFFFA00FFFF
(1427657590.483730) can0 270#81131F000000E207
(1427657590.552399) can0 477#1000E07988001400
(1427657590.582992) can0 475#64131F0000020400
(1427657590.583289) can0 306#1100E300C5020000
(1427657590.583588) can0 294#8B009CFFFA000E00
(1427657590.583861) can0 270#80133D000000F107
(1427657590.649399) can0 477#1E00D97988001400
(1427657590.683006) can0 475#64131F0000020600
(1427657590.683340) can0 306#1100E200C4020000
(1427657590.683594) can0 294#07019CFFFA002300
(1427657590.683840) can0 270#8013750000002C08
(1427657590.746301) can0 477#2C00D07988001400
(1427657590.782928) can0 475#70131F0000020800
(1427657590.783220) can0 306#1100E300C6020000
(1427657590.783494) can0 294#8C019CFFFA003800
(1427657590.783789) can0 270#7D13B00000005408
(1427657590.843263) can0 477#3C00C27988001400
(1427657590.882730) can0 475#60131F0000020C00
(1427657590.884734) can0 306#1200E400C9020000
(1427657590.885096) can0 294#00029CFFFA005600
(1427657590.940675) can0 477#4B00B77988001400
(1427657590.982844) can0 475#60131F0000020D00
(1427657590.983230) can0 306#1200E700D2020000
(1427657590.983512) can0 294#3B029CFFFA007000
(1427657590.983834) can0 270#7C13FD0000008C08
(1427657591.037247) can0 477#5000B17988001400
(1427657591.082889) can0 475#57131F0000021200
(1427657591.083220) can0 306#1200EA00DB020000
(1427657591.083480) can0 270#78132B0100007608
(1427657591.083684) can0 294#A2029CFFFA008100
(1427657591.134178) can0 477#9700A47988001400
(1427657591.182979) can0 475#5D131F0000022200
(1427657591.183323) can0 306#1200E400CA020000
(1427657591.183658) can0 294#CB049CFFFA00CB00
(1427657591.183919) can0 270#7613210200006508
(1427657591.231646) can0 477#AC00737988001400
(1427657591.283076) can0 475#4D131F0000022100
(1427657591.283399) can0 306#1200E600CF020000
(1427657591.283648) can0 294#F7049CFFFA000801
(1427657591.283893) can0 270#6D1335020000C008
(1427657591.328154) can0 477#CA00697988001400
(1427657591.383193) can0 475#47131E0000022600
(1427657591.383555) can0 306#1300E700D4020000
(1427657591.383876) can0 270#6D1370020000BC08
(1427657591.384082) can0 294#7E059CFFFA003901
(1427657591.425107) can0 477#D5004E7988001400
(1427657591.483137) can0 475#49131F0000022A00
(1427657591.483438) can0 306#1300EA00DB020000
(1427657591.483823) can0 270#6813A5020000E108
(1427657591.484024) can0 294#F6059CFFFA006101
(1427657591.522159) can0 477#F0003A7988001400
(1427657591.582922) can0 475#44131E0000022C00
(1427657591.583422) can0 306#1300EB00E0020000
(1427657591.583782) can0 270#6513E0020000F708
(1427657591.583991) can0 294#78069CFFFA008801
(1427657591.619059) can0 477#FC002A7988001400
(1427657591.682925) can0 475#3C131E0000022E00
(1427657591.683321) can0 306#1300EE00E8020000
(1427657591.683598) can0 294#94069CFFFA00A701
(1427657591.683859) can0 270#6513EC0200002809
(1427657591.715979) can0 477#10011F7988001400
(1427657591.782929) can0 475#40131E0000023200
(1427657591.783331) can0 306#1300EF00EC020000
(1427657591.783632) can0 294#5D079CFFFA00C901
(1427657591.784040) can0 270#6113450300003E09
(1427657591.813556) can0 477#25010F7988001400
(1427657591.882878) can0 475#45131F0000023300
(1427657591.883308) can0 306#1300F100F2020000
(1427657591.883572) can0 294#26079CFFFA00E601
(1427657591.883830) can0 270#5C132D0300003D09
(1427657591.909956) can0 477#2301027988001400
(1427657591.982824) can0 475#3E131F0000023300
(1427657591.983218) can0 306#1300F400FB020000
(1427657591.983485) can0 294#42079CFFFA00F101
(1427657591.983828) can0 270#5C13390300007609
(1427657592.007129) can0 477#2801007988001400
(1427657592.082800) can0 475#3C131F0000023400
(1427657592.083110) can0 306#1200F60002030000
(1427657592.083466) can0 294#98079CFFFA00FA01
(1427657592.083717) can0 270#5C135F0300005209
(1427657592.103965) can0 477#3101F87888001400
(1427657592.182803) can0 475#3A131F0000023400
(1427657592.183092) can0 306#1200F80008030000
(1427657592.183489) can0 294#55079CFFFA000802
(1427657592.183927) can0 270#5A13420300007A09
(1427657592.200840) can0 477#3701F17888001400
(1427657592.283004) can0 475#30131F0000023500
(1427657592.283329) can0 294#CE079CFFFA000F02
(1427657592.283533) can0 306#1200F9000C030000
(1427657592.283779) can0 270#5A13770300006F09
(1427657592.297878) can0 477#3C01ED7888001400
(1427657592.382742) can0 475#38131F0000023600
(1427657592.383054) can0 306#1200FB0010030000
(1427657592.383430) can0 294#84079CFFFA001C02
(1427657592.383756) can0 270#5813570300008809
(1427657592.394787) can0 477#4101E57888001400
(1427657592.482696) can0 475#36131F0000023700
(1427657592.483119) can0 306#1200FC0013030000
(1427657592.483369) can0 294#E7079CFFFA002602
(1427657592.483622) can0 270#5713820300009D09
(1427657592.491743) can0 477#4301DF7888001400
(1427657592.582693) can0 475#38131F0000023500
(1427657592.583111) can0 306#1200FE0019030000
(1427657592.583359) can0 294#70079CFFFA002802
(1427657592.583649) can0 270#57134D030000AB09
(1427657592.588738) can0 477#3B01DC7888001400
(1427657592.682901) can0 475#34131F0000023400
(1427657592.683218) can0 306#1200FE001B030000
(1427657592.683469) can0 294#5C079CFFFA001D02
(1427657592.683714) can0 270#571345030000AE09
(1427657592.685693) can0 477#3101E57888001400
(1427657592.782651) can0 477#2601E57888001400
(1427657592.782968) can0 475#3A131F0000023300
(1427657592.783378) can0 306#1200FF001D030000
(1427657592.783849) can0 294#37079CFFFA001202
(1427657592.784061) can0 270#5713340300009809
(1427657592.879683) can0 477#1F01EB7888001400
(1427657592.882850) can0 475#3E131F0000023100
(1427657592.883223) can0 306#1200000120030000
(1427657592.883490) can0 294#F2069CFFFA000102
(1427657592.883752) can0 270#5713160300008A09
(1427657592.976648) can0 477#1901ED7888001400
(1427657592.983075) can0 475#34131F0000022F00
(1427657592.983456) can0 306#1200000120030000
(1427657592.983744) can0 294#B1069CFFFA00F601
(1427657592.984141) can0 270#5813F90200009B09
(1427657593.073618) can0 477#0B01F37888001400
(1427657593.082996) can0 475#3E131F0000022C00
(1427657593.083344) can0 306#1100010123030000
(1427657593.083598) can0 294#6A069CFFFA00E501
(1427657593.083844) can0 270#5913D9020000C109
(1427657593.170648) can0 477#0301FD7888001400
(1427657593.183036) can0 475#3A131F0000022A00
(1427657593.183328) can0 306#1100020127030000
(1427657593.183579) can0 294#12069CFFFA00D001
(1427657593.183909) can0 270#5913B2020000D709
(1427657593.267568) can0 477#0601FF7888001400
(1427657593.282943) can0 475#3C131F0000022B00
(1427657593.283244) can0 306#110003012B030000
(1427657593.283516) can0 294#F9059CFFFA00CA01
(1427657593.283788) can0 270#5B13A7020000D509
(1427657593.364511) can0 477#1001FD7888001400
(1427657593.382924) can0 475#3C131F0000022C00
(1427657593.383227) can0 306#1100020128030000
(1427657593.383491) can0 294#00069CFFFA00CE01
(1427657593.383814) can0 270#5B13AA020000C509
(1427657593.461542) can0 477#FD00FB7888001400
(1427657593.482859) can0 475#36131F0000022A00
(1427657593.483169) can0 306#110003012A030000
(1427657593.483433) can0 294#06069CFFFA00C101
(1427657593.483680) can0 270#5B13AD020000B009
(1427657593.558442) can0 477#F000067988001400
(1427657593.582865) can0 475#40131F0000022600
(1427657593.583193) can0 306#110004012E030000
(1427657593.583465) can0 294#B1059CFFFA00AC01
(1427657593.583743) can0 270#5C1387020000CA09
(1427657593.656549) can0 477#DC00197988001400
(1427657593.682851) can0 475#40131F0000022500
(1427657593.683157) can0 306#1200060132030000
(1427657593.683523) can0 294#2F059CFFFA009201
(1427657593.683760) can0 270#5E134D0200009E09
(1427657593.752361) can0 477#CE001C7988001400
(1427657593.782992) can0 475#45131F0000022200
(1427657593.783313) can0 306#1100060133030000
(1427657593.783588) can0 270#5E1323020000B709
(1427657593.783877) can0 294#D1049CFFFA007C01
(1427657593.849355) can0 477#CC00267988001400
(1427657593.882996) can0 475#49131F0000022100
(1427657593.883313) can0 306#1200060132030000
(1427657593.883566) can0 294#7C049CFFFA006A01
(1427657593.883819) can0 270#6113FE010000B509
(1427657593.946490) can0 477#BF00317988001400
(1427657593.982933) can0 475#42131F0000021F00
(1427657593.983260) can0 306#1200050131030000
(1427657593.983513) can0 294#7A049CFFFA005601
(1427657593.983779) can0 270#6413FD010000B409
(1427657594.043746) can0 477#AB00397988001400
(1427657594.082954) can0 475#47131F0000021D00
(1427657594.083275) can0 306#1200060132030000
(1427657594.083531) can0 294#4D049CFFFA003E01
(1427657594.083777) can0 270#6413E9010000A509
(1427657594.140262) can0 477#A100447988001400
(1427657594.182919) can0 475#44131F0000021A00
(1427657594.183247) can0 306#1200060133030000
(1427657594.183499) can0 294#B0039CFFFA002601
(1427657594.184142) can0 270#6613A3010000B509
(1427657594.237241) can0 477#9E004B7988001400
(1427657594.283032) can0 475#51131F0000021900
(1427657594.283387) can0 306#130005012F030000
(1427657594.283640) can0 294#AB039CFFFA001801
(1427657594.283887) can0 270#6813A1010000A609
(1427657594.334185) can0 477#8C00537988001400
(1427657594.383157) can0 475#4B131F0000021800
(1427657594.383451) can0 306#130004012D030000
(1427657594.383699) can0 294#62039CFFFA000701
(1427657594.384048) can0 270#6813800100009209
(1427657594.431165) can0 477#8700597988001400
(1427657594.483075) can0 475#47131F0000021600
(1427657594.483431) can0 306#130004012C030000
(1427657594.483682) can0 294#6B039CFFFA00F400
(1427657594.483927) can0 270#6913840100007F09
(1427657594.529224) can0 477#8900637988001400
(1427657594.583080) can0 475#4F131F0000021800
(1427657594.583495) can0 306#1300020127030000
(1427657594.583744) can0 294#8A039CFFFA00EF00
(1427657594.584204) can0 270#6B13920100007F09
(1427657594.625125) can0 477#8C005F7988001400
(1427657594.683061) can0 475#55131F0000021800
(1427657594.683484) can0 306#1300010125030000
(1427657594.683735) can0 294#3E039CFFFA00F300
(1427657594.683978) can0 270#6B13710100009609
(1427657594.722069) can0 477#95005E7988001400
(1427657594.783015) can0 475#45131F0000021A00
(1427657594.783433) can0 306#1300010124030000
(1427657594.783683) can0 294#C3039CFFFA00FC00
(1427657594.784123) can0 270#6B13AB0100007B09
(1427657594.819145) can0 477#A1005C7988001400
(1427657594.882964) can0 475#51131F0000021D00
(1427657594.883404) can0 306#1400000121030000
(1427657594.883657) can0 294#51049CFFFA000F01
(1427657594.883902) can0 270#6A13EB0100006E09
(1427657594.916160) can0 477#B0004E7988001400
(1427657594.982932) can0 475#47131F0000021F00
(1427657594.983363) can0 306#1400FF001F030000
(1427657594.983614) can0 294#41049CFFFA002401
(1427657594.983902) can0 270#6A13E30100007C09
(1427657595.013100) can0 477#BA00457988001400
(1427657595.083020) can0 475#44131F0000022200
(1427657595.083389) can0 306#1300FF001D030000
(1427657595.083659) can0 270#6813260200007A09
(1427657595.083874) can0 294#D7049CFFFA003901
(1427657595.110039) can0 477#D100387988001400
(1427657595.182821) can0 475#44131F0000022000
(1427657595.183155) can0 306#1300FE001A030000
(1427657595.183413) can0 294#DF049CFFFA005001
(1427657595.183661) can0 270#65132A0200008A09
(1427657595.206893) can0 477#C700357988001400
(1427657595.282874) can0 475#49131F0000022200
(1427657595.283284) can0 306#1400FE001B030000
(1427657595.283531) can0 294#C1049CFFFA005601
(1427657595.283777) can0 270#65131C0200008F09
(1427657595.303916) can0 477#C400347988001400
(1427657595.382808) can0 475#49131F0000022200
(1427657595.383115) can0 306#1400FE0019030000
(1427657595.383517) can0 294#2D059CFFFA005901
(1427657595.383772) can0 270#64134C0200007B09
(1427657595.400935) can0 477#D400337988001400
(1427657595.482763) can0 475#42131F0000022300
(1427657595.483215) can0 306#1400FE001A030000
(1427657595.483460) can0 294#F6049CFFFA005E01
(1427657595.483704) can0 270#6313340200006709
(1427657595.497856) can0 477#CC002F7988001400
(1427657595.582786) can0 475#44131F0000022300
(1427657595.583248) can0 306#1400FD0018030000
(1427657595.583518) can0 294#DF049CFFFA005F01
(1427657595.583769) can0 270#63132A0200006809
(1427657595.594766) can0 477#D100317988001400
(1427657595.682754) can0 475#47131F0000022300
(1427657595.683051) can0 306#1500FB0012030000
(1427657595.683411) can0 294#25059CFFFA006201
(1427657595.683657) can0 270#6413490200005809
(1427657595.691798) can0 477#C9002F7988001400
(1427657595.782664) can0 475#49131F0000022200
(1427657595.783121) can0 306#1500FB0010030000
(1427657595.783377) can0 294#EB049CFFFA005D01
(1427657595.783630) can0 270#63132F0200005609
(1427657595.788717) can0 477#CA00317988001400
(1427657595.882920) can0 475#47131F0000022000
(1427657595.883323) can0 306#1400FB0011030000
(1427657595.883573) can0 294#C9049CFFFA005001
(1427657595.883818) can0 270#6313200200005609
(1427657595.885809) can0 477#BA003A7988001400
(1427657595.982685) can0 477#BE003C7988001400
(1427657595.983150) can0 475#55131F0000022100
(1427657595.983820) can0 294#A7049CFFFA004901
(1427657595.984128) can0 306#1400FB0012030000
(1427657596.079675) can0 477#C000377988001400
(1427657596.083110) can0 475#4B131F0000022000
(1427657596.083398) can0 306#1500FD0016030000
(1427657596.083650) can0 294#BE049CFFFA004B01
(1427657596.084000) can0 270#65131B0200006A09
(1427657596.176625) can0 477#D500337988001400
(1427657596.183074) can0 475#49131F0000022400
(1427657596.183354) can0 306#1500FC0015030000
(1427657596.183605) can0 294#24059CFFFA005401
(1427657596.183849) can0 270#6513490200006C09
(1427657596.273613) can0 477#D2002C7988001400
(1427657596.283073) can0 475#40131F0000022300
(1427657596.283369) can0 306#1400FD0018030000
(1427657596.283618) can0 294#ED049CFFFA006201
(1427657596.283863) can0 270#6413300200008D09
(1427657596.370654) can0 477#C1002D7988001400
(1427657596.383006) can0 475#47131F0000022000
(1427657596.383286) can0 306#1400000120030000
(1427657596.383532) can0 294#C2049CFFFA005E01
(1427657596.383777) can0 270#63131D0200009109
(1427657596.467478) can0 477#AF003B7988001400
(1427657596.482911) can0 475#4D131F0000021D00
(1427657596.483350) can0 306#1500010124030000
(1427657596.483618) can0 294#27049CFFFA004A01
(1427657596.483878) can0 270#6313D8010000A709
(1427657596.564496) can0 477#9C004A7988001400
(1427657596.582975) can0 475#4F131F0000021A00
(1427657596.583256) can0 306#150003012A030000
(1427657596.583503) can0 294#A4039CFFFA002B01
(1427657596.583749) can0 270#65139E010000A709
(1427657596.662120) can0 477#8200597988001400
(1427657596.682910) can0 475#53131F0000021300
(1427657596.683487) can0 306#150005012F030000
(1427657596.683707) can0 294#F2029CFFFA000501
(1427657596.758431) can0 477#7800647988001400
(1427657596.783079) can0 475#55131F0000021400
(1427657596.783391) can0 306#150005012F030000
(1427657596.783648) can0 294#E7029CFFFA00E800
(1427657596.783895) can0 270#68134A0100009709
(1427657596.855373) can0 477#5E00767988001400
(1427657596.883064) can0 475#55131F0000021000
(1427657596.883391) can0 306#1500060133030000
(1427657596.883642) can0 294#4D029CFFFA00C500
(1427657596.883889) can0 270#6C13050100007109
(1427657596.953215) can0 477#5100857988001400
(1427657596.982992) can0 475#5D131F0000020D00
(1427657596.983338) can0 306#1500060133030000
(1427657596.983602) can0 294#01029CFFFA00A600
(1427657596.983850) can0 270#7013E30000009909
(1427657597.049358) can0 477#54008B7988001400
(1427657597.082964) can0 475#51131F0000020D00
(1427657597.083312) can0 306#150004012E030000
(1427657597.083567) can0 294#E0019CFFFA009700
(1427657597.083816) can0 270#7013D50000007009
(1427657597.146296) can0 477#49008D7988001400
(1427657597.183827) can0 270#7213C90000007009
(1427657597.243236) can0 477#4300957988001400
(1427657597.282920) can0 475#5B131F0000020B00
(1427657597.283290) can0 306#1500020126030000
(1427657597.283548) can0 294#CC019CFFFA007D00
(1427657597.283794) can0 270#7413CC0000005D09
(1427657597.340235) can0 477#2D00A47988001400
(1427657597.382994) can0 475#57131F0000020600
(1427657597.383335) can0 306#1500020126030000
(1427657597.383594) can0 294#E6009CFFFA006600
(1427657597.383842) can0 270#7413660000005F09
(1427657597.437208) can0 477#1F00AE7988001400
(1427657597.483090) can0 475#68131F0000020400
(1427657597.483446) can0 306#1600020128030000
(1427657597.483702) can0 294#A9009CFFFA004C00
(1427657597.483949) can0 270#77134B0000003E09
(1427657597.534259) can0 477#1900BA7988001400
(1427657597.583156) can0 475#5F131F0000020400
(1427657597.583564) can0 306#1700010123030000
(1427657597.583813) can0 294#C9009CFFFA003700
(1427657597.584117) can0 270#7913590000001309
(1427657597.631802) can0 477#1400BF7988001400
(1427657597.683293) can0 475#68131F0000020000
(1427657597.683688) can0 306#1700FE001C030000
(1427657597.683951) can0 270#7913290000001909
(1427657597.684153) can0 294#5C009CFFFA002D00
(1427657597.728496) can0 477#0D00C57988001400
(1427657597.783075) can0 475#66131F0000020000
(1427657597.783507) can0 306#1600FF001D030000
(1427657597.783762) can0 294#DDFF9CFFFA001E00
(1427657597.784012) can0 270#7B13F0FF0000BA08
(1427657597.826525) can0 477#F6FFD37988001400
(1427657597.883091) can0 475#62131F0000020000
(1427657597.883516) can0 306#1600FE001C030000
(1427657597.883770) can0 294#DBFF9CFFFA000100
(1427657597.884020) can0 270#7D13EFFF0000A208
(1427657597.923294) can0 477#F1FFE17988001400
(1427657597.983176) can0 475#6E131F0000020000
(1427657597.983538) can0 306#1600FD0017030000
(1427657597.983791) can0 294#5EFF9CFFFA00F3FF
(1427657597.984044) can0 270#7D13B8FF00006C08
(1427657598.019038) can0 477#EEFFE57988001400
(1427657598.082992) can0 475#7A131F0000020400
(1427657598.083426) can0 306#1600FC0013030000
(1427657598.083682) can0 294#71FF9CFFFA00E7FF
(1427657598.083940) can0 270#8013C0FF00006F08
(1427657598.115950) can0 477#E7FFEB7988001400
(1427657598.182981) can0 475#64131F0000020500
(1427657598.183282) can0 306#1600FA000D030000
(1427657598.183533) can0 294#4FFF9CFFFA00DCFF
(1427657598.183791) can0 270#8113B1FF00005408
(1427657598.213620) can0 477#E5FFF27988001400
(1427657598.283259) can0 475#72131F0000020400
(1427657598.284128) can0 306#1500F80007030000
(1427657598.284407) can0 294#67FF9CFFFA00D6FF
(1427657598.310151) can0 477#E0FFF77988001400
(1427657598.382894) can0 475#68131F0000020400
(1427657598.383592) can0 306#1500F500FF020000
(1427657598.384461) can0 294#29FF9CFFFA00D4FF
(1427657598.384684) can0 270#8313A0FF00002F08
(1427657598.406917) can0 477#DFFFF77988001400
(1427657598.483426) can0 475#70131F0000020800
(1427657598.484119) can0 306#1500F400FA020000
(1427657598.484358) can0 270#831394FF00001F08
(1427657598.504914) can0 477#DEFF007A88001400
(1427657598.582819) can0 475#6A131F0000020500
(1427657598.583153) can0 306#1400F100F2020000
(1427657598.583514) can0 294#1FFF9CFFFA00CBFF
(1427657598.583760) can0 270#83139CFF0000F807
(1427657598.600819) can0 477#DCFF027A88001400
(1427657598.682867) can0 475#5B131F0000020600
(1427657598.683323) can0 306#1400EF00EB020000
(1427657598.683575) can0 294#11FF9CFFFA00CBFF
(1427657598.683824) can0 270#851395FF0000F107
(1427657598.697791) can0 477#DEFF017A88001400
(1427657598.782767) can0 475#68131F0000020800
(1427657598.783109) can0 306#1400EC00E3020000
(1427657598.783480) can0 294#F8FE9CFFFA00CAFF
(1427657598.783729) can0 270#85138AFF0000F307
(1427657598.794752) can0 477#D9FF037A88001400
(1427657598.882901) can0 475#74131F0000020500
(1427657598.883226) can0 306#1400EA00DC020000
(1427657598.883473) can0 294#04FF9CFFFA00C8FF
(1427657598.883730) can0 270#851390FF00009807
(1427657598.891735) can0 477#DFFF077A88001400
(1427657598.983792) can0 270#8513ADFF00009607
(1427657598.989080) can0 477#E2FF037A88001400
(1427657599.082942) can0 475#74131E0000020600
(1427657599.083384) can0 306#1300E500CC020000
(1427657599.083637) can0 294#2BFF9CFFFA00CDFF
(1427657599.083884) can0 270#8513A1FF0000AB07
(1427657599.085623) can0 477#DFFF057A88001400
(1427657599.182618) can0 477#E3FF057A88001400
(1427657599.182907) can0 475#74131E0000020600
(1427657599.183306) can0 306#1300E200C4020000
(1427657599.183722) can0 294#EBFE9CFFFA00CFFF
(1427657599.183935) can0 270#851385FF00009807
(1427657599.279712) can0 477#E6FF067A88001400
(1427657599.283862) can0 306#1200E000BD020000
(1427657599.376620) can0 477#EAFF057A88001400
(1427657599.383017) can0 475#6A131E0000020400
(1427657599.383469) can0 306#1200DD00B5020000
(1427657599.383746) can0 270#8613ADFF00004707
(1427657599.383962) can0 294#46FF9CFFFA00D1FF
(1427657599.473546) can0 477#EAFF047A88001400
(1427657599.482990) can0 475#6E131E0000020400
(1427657599.483297) can0 306#1200DB00AD020000
(1427657599.483575) can0 294#34FF9CFFFA00D6FF
(1427657599.483828) can0 270#8613A5FF00002007
(1427657599.570699) can0 477#E8FF027A88001400
(1427657599.583215) can0 475#5F131E0000020500
(1427657599.583498) can0 306#1200D900A6020000
(1427657599.583756) can0 294#38FF9CFFFA00D7FF
(1427657599.583957) can0 270#8513A7FF00001D07
(1427657599.667464) can0 477#ECFF047A88001400
(1427657599.682907) can0 475#60131E0000020400
(1427657599.683238) can0 306#1200D6009E020000
(1427657599.683492) can0 294#74FF9CFFFA00D9FF
(1427657599.683738) can0 270#8513C2FF00000C07
(1427657599.764648) can0 477#E8FF057A88001400
(1427657599.783495) can0 475#6C131E0000020400
(1427657599.784121) can0 294#42FF9CFFFA00DAFF
(1427657599.784619) can0 270#8513ABFF0000FF06
(1427657599.861488) can0 477#EBFF097A88001400
(1427657599.882931) can0 475#6E131E0000020400
(1427657599.883226) can0 306#1100D20092020000
(1427657599.883625) can0 294#6BFF9CFFFA00DAFF
(1427657599.883883) can0 270#8513BEFF0000E806
(1427657599.958374) can0 477#EDFF067A88001400
(1427657599.983100) can0 475#70131E0000020500
(1427657599.983426) can0 306#1100D0008B020000
(1427657599.983679) can0 294#0FFF9CFFFA00DCFF
(1427657599.983922) can0 270#861395FF0000E806
(1427657600.056181) can0 477#EAFF097A88001400
(1427657600.083071) can0 475#66131E0000020500
(1427657600.083461) can0 306#1200CF0087020000
(1427657600.083723) can0 294#45FF9CFFFA00D9FF
(1427657600.083969) can0 270#8613ACFF0000D206
(1427657600.152323) can0 477#ECFF0A7A88001400
(1427657600.183064) can0 475#66131E0000020500
(1427657600.183392) can0 306#1200CC007F020000
(1427657600.183645) can0 294#3DFF9CFFFA00DAFF
(1427657600.183890) can0 270#8613A9FF0000D106
(1427657600.249286) can0 477#EEFF077A88001400
(1427657600.283294) can0 475#70131E0000020500
(1427657600.284171) can0 306#1100CA0078020000
(1427657600.346703) can0 477#F1FF077A88001400
(1427657600.383044) can0 475#6A131E0000020400
(1427657600.383401) can0 306#1100C80073020000
(1427657600.383686) can0 294#41FF9CFFFA00DFFF
(1427657600.383948) can0 270#8513ABFF0000AB06
(1427657600.443656) can0 477#FDFF037A88001400
(1427657600.483029) can0 475#66131E0000020000
(1427657600.483386) can0 306#1100C70070020000
(1427657600.483655) can0 294#FDFF9CFFFA00E8FF
(1427657600.483906) can0 270#8513FEFF0000BD06
(1427657600.540331) can0 477#0A00FC7988001400
(1427657600.583003) can0 475#66131E0000020000
(1427657600.583360) can0 306#1200C6006B020000
(1427657600.583619) can0 294#86009CFFFA00FAFF
(1427657600.583868) can0 270#84133B000000FC06
(1427657600.637183) can0 477#1600F27988001400
(1427657600.684029) can0 306#1100C50068020000
(1427657600.684657) can0 294#A3009CFFFA001000
(1427657600.734145) can0 477#1F00EB7988001400
(1427657600.783739) can0 294#CE009CFFFA002000
(1427657600.785118) can0 270#82135B0000003307
(1427657600.831090) can0 477#2300E17988001400
(1427657600.883084) can0 475#5D131E0000020600
(1427657600.883495) can0 306#1200C6006C020000
(1427657600.883775) can0 294#EB009CFFFA002A00
(1427657600.884025) can0 270#8013680000001D07
(1427657600.928099) can0 477#2800E07988001400
(1427657600.983084) can0 475#60131E0000020600
(1427657600.983528) can0 306#1200C7006E020000
(1427657600.984013) can0 294#0D019CFFFA003300
(1427657600.984241) can0 270#8013770000004307
(1427657601.025086) can0 477#3400DC7988001400
(1427657601.083059) can0 475#60131E0000020B00
(1427657601.083495) can0 306#1200C6006B020000
(1427657601.083747) can0 294#CB019CFFFA004400
(1427657601.083994) can0 270#8013CC0000003007
(1427657601.122032) can0 477#4600D07988001400
(1427657601.183651) can0 294#42029CFFFA005E00
(1427657601.184730) can0 270#7D13010100004707
(1427657601.219024) can0 477#4F00C57988001400
(1427657601.283013) can0 475#66131E0000021000
(1427657601.283366) can0 306#1200C5006A020000
(1427657601.283623) can0 294#5F029CFFFA007200
(1427657601.283869) can0 270#7B130D0100004507
(1427657601.317247) can0 477#6F00C17988001400
(1427657601.382971) can0 475#59131E0000021F00
(1427657601.383268) can0 306#1200C00059020000
(1427657601.383533) can0 294#87049CFFFA00A300
(1427657601.383806) can0 270#7B13020200001B07
(1427657601.413715) can0 477#9600917988001400
(1427657601.482895) can0 475#5B131E0000022000
(1427657601.483328) can0 306#1200C00059020000
(1427657601.483580) can0 294#94049CFFFA00D900
(1427657601.483829) can0 270#7713080200004107
(1427657601.509904) can0 477#A800887988001400
(1427657601.582945) can0 475#4F131E0000022400
(1427657601.583256) can0 306#1300C1005B020000
(1427657601.583646) can0 294#34059CFFFA000101
(1427657601.584029) can0 270#7113500200006107
(1427657601.606872) can0 477#B600767988001400
(1427657601.682926) can0 475#51131E0000022800
(1427657601.683348) can0 306#1300C2005E020000
(1427657601.683596) can0 294#C2059CFFFA002001
(1427657601.683839) can0 270#71138F0200007807
(1427657601.703948) can0 477#CE006E7988001400
(1427657601.783290) can0 306#1300C2005F020000
(1427657601.783619) can0 294#58069CFFFA004301
(1427657601.783870) can0 270#6D13D10200007307
(1427657601.800853) can0 477#DE005D7988001400
(1427657601.882844) can0 475#4D131E0000022E00
(1427657601.883145) can0 306#1300C30061020000
(1427657601.883535) can0 294#AB069CFFFA006101
(1427657601.883789) can0 270#6A13F60200008B07
(1427657601.897811) can0 477#E300507988001400
(1427657601.983678) can0 270#6A13B7020000C007
(1427657601.994729) can0 477#D900527988001400
(1427657602.082977) can0 475#42131E0000022D00
(1427657602.083293) can0 306#1300CA0079020000
(1427657602.083542) can0 294#66069CFFFA006A01
(1427657602.083791) can0 270#6913D7020000C007
(1427657602.091734) can0 477#DF004B7988001400
(1427657602.182975) can0 475#49131E0000022E00
(1427657602.183302) can0 306#1200CB007C020000
(1427657602.183552) can0 294#B1069CFFFA007701
(1427657602.183806) can0 270#6713F8020000E707
(1427657602.188663) can0 477#EE00467988001400
(1427657602.283115) can0 475#40131E0000023200
(1427657602.283422) can0 306#1200CC007D020000
(1427657602.283671) can0 294#40079CFFFA008C01
(1427657602.283918) can0 270#671338030000F707
(1427657602.285624) can0 477#FF00387988001400
(1427657602.382614) can0 477#0F012B7988001400
(1427657602.383224) can0 475#47131E0000023600
(1427657602.383501) can0 306#1200CC007E020000
(1427657602.383746) can0 294#BE079CFFFA00A401
(1427657602.383997) can0 270#651371030000E607
(1427657602.479592) can0 477#25011E7988001400
(1427657602.483069) can0 475#40131E0000023900
(1427657602.483371) can0 306#1200CC007E020000
(1427657602.483614) can0 294#40089CFFFA00C101
(1427657602.483860) can0 270#611395030000E607
(1427657602.576662) can0 477#3B01047988001400
(1427657602.583112) can0 475#3E131E0000023C00
(1427657602.583380) can0 306#1200CC007D020000
(1427657602.583622) can0 294#5D089CFFFA00E301
(1427657602.583869) can0 270#6113CF030000F607
(1427657602.673528) can0 477#3C01F37888001400
(1427657602.683068) can0 475#36131E0000023D00
(1427657602.683344) can0 306#1200CD0081020000
(1427657602.683594) can0 294#94089CFFFA00FF01
(1427657602.683839) can0 270#5C13DB030000F107
(1427657602.770530) can0 477#4701F37888001400
(1427657602.783038) can0 475#3E131E0000023F00
(1427657602.783310) can0 306#1100CE0084020000
(1427657602.783557) can0 294#FD089CFFFA001002
(1427657602.783801) can0 270#5A13EB0300003108
(1427657602.867452) can0 477#5901ED7888001400
(1427657602.882987) can0 475#36131E0000024200
(1427657602.883295) can0 306#1200CD0083020000
(1427657602.883560) can0 294#77099CFFFA002602
(1427657602.883815) can0 270#5A13340400004108
(1427657602.964425) can0 477#6301DB7888001400
(1427657602.982935) can0 475#30131E0000024300
(1427657602.983361) can0 306#1300CF0089020000
(1427657602.983622) can0 294#BF099CFFFA003902
(1427657602.983875) can0 270#5713350400002E08
(1427657603.061429) can0 477#7301D17888001400
(1427657603.083181) can0 475#32131E0000024600
(1427657603.083475) can0 306#1200CF0088020000
(1427657603.083720) can0 294#190A9CFFFA004B02
(1427657603.083963) can0 270#55137A0400001A08
(1427657603.158399) can0 477#7501C17888001400
(1427657603.183131) can0 475#32131E0000024600
(1427657603.183435) can0 306#1200CE0086020000
(1427657603.183683) can0 294#370A9CFFFA005E02
(1427657603.183935) can0 270#55139F0400002E08
(1427657603.255345) can0 477#8301C37888001400
(1427657603.283173) can0 475#34131E0000024B00
(1427657603.283459) can0 306#1200CE0085020000
(1427657603.283707) can0 294#B90A9CFFFA007402
(1427657603.283949) can0 270#5213BD0400002B08
(1427657603.352317) can0 477#9301B07888001400
(1427657603.382841) can0 475#2A131E0000024F00
(1427657603.383266) can0 306#1200CE0086020000
(1427657603.383524) can0 294#690B9CFFFA008A02
(1427657603.383768) can0 270#4F13080500004E08
(1427657603.449298) can0 477#AB01A27888001400
(1427657603.482985) can0 475#25131E0000025500
(1427657603.483340) can0 306#1100CD0083020000
(1427657603.483605) can0 270#4F13670500001508
(1427657603.483817) can0 294#320C9CFFFA00AB02
(1427657603.546270) can0 477#B401927888001400
(1427657603.583506) can0 475#2A131F0000025700
(1427657603.585252) can0 270#4C13960500003C08
(1427657603.585575) can0 306#1100CE0084020000
(1427657603.643383) can0 477#C8017B7888001400
(1427657603.683405) can0 306#1100CD0083020000
(1427657603.683890) can0 294#370D9CFFFA00F402
(1427657603.684105) can0 270#4613DF0500005008
(1427657603.740200) can0 477#EA01737888001400
(1427657603.783540) can0 306#1100CD0081020000
(1427657603.783991) can0 294#8C0D9CFFFA002003
(1427657603.784401) can0 270#4613040600002708
(1427657603.837149) can0 477#F7015F7888001400
(1427657603.883229) can0 475#25131F0000026200
(1427657603.883531) can0 306#1100CD0083020000
(1427657603.883884) can0 294#050E9CFFFA004503
(1427657603.884139) can0 270#43133A0600004C08
(1427657603.934166) can0 477#F501507888001400
(1427657603.983180) can0 475#1B131F0000026100
(1427657603.983619) can0 306#1100CD0080020000
(1427657603.983866) can0 294#FE0D9CFFFA005803
(1427657603.984111) can0 270#401337060000A608
(1427657604.031121) can0 477#F7014D7888001400
(1427657604.083152) can0 475#1D131F0000026400
(1427657604.083533) can0 306#1200CF0087020000
(1427657604.083806) can0 294#110E9CFFFA006203
(1427657604.084054) can0 270#40133F0600006E08
(1427657604.128931) can0 477#FC014A7888001400
(1427657604.183119) can0 475#27131F0000026000
(1427657604.183580) can0 306#1200D0008C020000
(1427657604.183839) can0 294#A20D9CFFFA006603
(1427657604.184087) can0 270#3F130E0600008208
(1427657604.225029) can0 477#D4014C7888001400
(1427657604.283115) can0 475#25131F0000025900
(1427657604.283414) can0 306#1200D1008D020000
(1427657604.283777) can0 294#3F0C9CFFFA004103
(1427657604.284023) can0 270#3F13700500004D08
(1427657604.322912) can0 477#9901657888001400
(1427657604.383071) can0 475#2C131F0000024B00
(1427657604.383349) can0 306#1200D0008B020000
(1427657604.383737) can0 294#760A9CFFFA00F002
(1427657604.383989) can0 270#3F13A50400001708
(1427657604.419877) can0 477#6801917888001400
(1427657604.483245) can0 475#2E131F0000024700
(1427657604.483557) can0 306#1200D1008E020000
(1427657604.483823) can0 294#1B0A9CFFFA009F02
(1427657604.484080) can0 270#46137D0400002908
(1427657604.515958) can0 477#7301A57888001400
(1427657604.583043) can0 475#30131F0000024A00
(1427657604.583357) can0 306#1200D40096020000
(1427657604.583604) can0 294#B20A9CFFFA008E02
(1427657604.583851) can0 270#4D13C00400007808
(1427657604.613208) can0 477#94019A7888001400
(1427657604.682978) can0 475#30131F0000025000
(1427657604.683263) can0 306#1300D6009D020000
(1427657604.683653) can0 294#420B9CFFFA00A402
(1427657604.683904) can0 270#4D13000500006508
(1427657604.709909) can0 477#B501837888001400
(1427657604.783068) can0 475#15131F0000025900
(1427657604.783406) can0 306#1300D900A6020000
(1427657604.783673) can0 294#A90C9CFFFA00DC02
(1427657604.784186) can0 270#4913A0050000B708
(1427657604.806843) can0 477#EF01647888001400
(1427657604.882921) can0 475#15131F0000026500
(1427657604.883234) can0 306#1300DC00B0020000
(1427657604.883632) can0 294#2E0E9CFFFA003803
(1427657604.883885) can0 270#43134C060000CB08
(1427657604.903871) can0 477#27023F7888001400
(1427657604.982857) can0 475#15131F0000026900
(1427657604.983148) can0 306#1200DE00B8020000
(1427657604.983514) can0 294#DB0E9CFFFA009103
(1427657604.983763) can0 270#4313990600002D09
(1427657605.000783) can0 477#43021D7888001400
(1427657605.082873) can0 475#13131F0000026C00
(1427657605.083272) can0 306#1200E200C4020000
(1427657605.083516) can0 294#2E0F9CFFFA00CD03
(1427657605.083763) can0 270#3713BE0600002A09
(1427657605.097748) can0 477#6302017888001400
(1427657605.183013) can0 475#0C131F0000026C00
(1427657605.183323) can0 306#1200E700D2020000
(1427657605.183572) can0 294#900F9CFFFA000504
(1427657605.183818) can0 270#3113E9060000BF09
(1427657605.194766) can0 477#7502E87788001400
(1427657605.283188) can0 475#08131F0000026900
(1427657605.283523) can0 306#1200EC00E1020000
(1427657605.283774) can0 294#BE0E9CFFFA002304
(1427657605.284021) can0 270#31138C0600008409
(1427657605.291741) can0 477#FF01D97788001400
(1427657605.383197) can0 475#1B131F0000025500
(1427657605.383552) can0 306#1200ED00E5020000
(1427657605.383805) can0 270#2C131E050000C709
(1427657605.384291) can0 294#870B9CFFFA00BA03
(1427657605.388669) can0 477#DE011E7888001400
(1427657605.483179) can0 475#17131F0000025600
(1427657605.483498) can0 306#1300F100F1020000
(1427657605.483766) can0 294#5A0C9CFFFA007003
(1427657605.484027) can0 270#38137C0500008C09
(1427657605.485587) can0 477#F5013A7888001400
(1427657605.584730) can0 477#E201337888001400
(1427657605.679560) can0 477#C0014A7888001400
(1427657605.683102) can0 475#23131F0000024C00
(1427657605.683541) can0 306#1200F9000A030000
(1427657605.683805) can0 294#E30A9CFFFA002F03
(1427657605.684050) can0 270#3B13D60400009409
(1427657605.776546) can0 477#AA01547888001400
(1427657605.783101) can0 475#1D131F0000024600
(1427657605.783388) can0 306#1200FB0012030000
(1427657605.783643) can0 294#F2099CFFFA000603
(1427657605.783967) can0 270#3F136B040000C909
(1427657605.873540) can0 477#8901647888001400
(1427657605.883108) can0 475#1F131F0000024100
(1427657605.883399) can0 306#1200FE001A030000
(1427657605.883778) can0 294#38099CFFFA00D702
(1427657605.884042) can0 270#3F1318040000DE09
(1427657605.970527) can0 477#6D01827888001400
(1427657605.983008) can0 475#36131F0000023C00
(1427657605.983302) can0 306#1200000122030000
(1427657605.983550) can0 294#9F089CFFFA00A202
(1427657605.983801) can0 270#4513D4030000D209
(1427657606.067485) can0 477#4501917888001400
(1427657606.083025) can0 475#27131F0000023600
(1427657606.083309) can0 306#120003012B030000
(1427657606.083702) can0 294#89079CFFFA006F02
(1427657606.083958) can0 270#491359030000DE09
(1427657606.164406) can0 477#2601AE7888001400
(1427657606.183303) can0 475#30131F0000023000
(1427657606.183667) can0 306#1200060133030000
(1427657606.183922) can0 294#C6069CFFFA003502
(1427657606.184171) can0 270#491302030000E209
(1427657606.261418) can0 477#1301C57888001400
(1427657606.283367) can0 475#36131F0000022A00
(1427657606.283661) can0 306#1200070136030000
(1427657606.283923) can0 294#3F069CFFFA000302
(1427657606.284178) can0 270#4F13C60200000F0A
(1427657606.358376) can0 477#F400D97888001400
(1427657606.383146) can0 475#32131F0000022800
(1427657606.383468) can0 306#130008013A030000
(1427657606.383725) can0 294#74059CFFFA00D401
(1427657606.383976) can0 270#54136C020000E809
(1427657606.455320) can0 477#D900ED7888001400
(1427657606.483294) can0 475#3A131F0000022200
(1427657606.483615) can0 306#130009013D030000
(1427657606.483863) can0 294#F3049CFFFA00A101
(1427657606.484109) can0 270#541332020000D809
(1427657606.552292) can0 477#C600017988001400
(1427657606.583101) can0 475#3C131F0000021F00
(1427657606.583419) can0 306#130009013E030000
(1427657606.583674) can0 294#8A049CFFFA007301
(1427657606.585338) can0 270#5A1304020000EF09
(1427657606.649264) can0 477#AE00107988001400
(1427657606.683060) can0 475#49131F0000021C00
(1427657606.683388) can0 306#130009013E030000
(1427657606.683640) can0 294#0F049CFFFA004801
(1427657606.683882) can0 270#5E13CD010000B709
(1427657606.746227) can0 477#9600237988001400
(1427657606.783323) can0 475#4D131F0000021800
(1427657606.784043) can0 294#DC039CFFFA002501
(1427657606.784274) can0 306#140009013C030000
(1427657606.844194) can0 477#9900317988001400
(1427657606.883233) can0 475#49131F0000021700
(1427657606.883821) can0 306#130009013D030000
(1427657606.884049) can0 294#87039CFFFA001001
(1427657606.940200) can0 477#9400387988001400
(1427657606.983264) can0 475#49131F0000021800
(1427657606.983695) can0 306#140009013D030000
(1427657606.983948) can0 294#8A039CFFFA000501
(1427657606.984204) can0 270#651392010000CC09
(1427657607.037162) can0 477#8B003B7988001400
(1427657607.083475) can0 475#4F131F0000021800
(1427657607.083782) can0 306#13000A013F030000
(1427657607.084037) can0 270#651374010000CD09
(1427657607.084233) can0 294#46039CFFFA00FF00
(1427657607.135304) can0 477#9100417988001400
(1427657607.183208) can0 475#4B131F0000021600
(1427657607.184105) can0 306#13000A0140030000
(1427657607.231106) can0 477#8600467988001400
(1427657607.283212) can0 475#53131F0000021400
(1427657607.284363) can0 306#130009013E030000
(1427657607.328193) can0 477#6B00527988001400
(1427657607.383322) can0 475#53131F0000021000
(1427657607.383920) can0 306#13000A013F030000
(1427657607.384161) can0 294#3E029CFFFA00CF00
(1427657607.425088) can0 477#4F00647988001400
(1427657607.483109) can0 475#57131F0000020C00
(1427657607.483439) can0 306#12000A0140030000
(1427657607.483815) can0 294#C0019CFFFA00A600
(1427657607.484064) can0 270#6A13C70000009509
(1427657607.522411) can0 477#4500777988001400
(1427657607.583016) can0 475#57131F0000020A00
(1427657607.583486) can0 306#120009013E030000
(1427657607.583743) can0 294#78019CFFFA008800
(1427657607.583985) can0 270#6F13A7000000AE09
(1427657607.620076) can0 477#4300847988001400
(1427657607.683048) can0 475#59131F0000020A00
(1427657607.683398) can0 306#120009013D030000
(1427657607.683659) can0 294#69019CFFFA007A00
(1427657607.683918) can0 270#6F13A00000009909
(1427657607.715945) can0 477#3D00877988001400
(1427657607.783171) can0 475#57131F0000020C00
(1427657607.783522) can0 306#130008013A030000
(1427657607.784224) can0 270#7113D5000000AC09
(1427657607.784439) can0 294#E0019CFFFA007500
(1427657607.813376) can0 477#4100877988001400
(1427657607.883010) can0 475#5B131F0000020B00
(1427657607.883428) can0 306#130008013A030000
(1427657607.883680) can0 294#DC019CFFFA007400
(1427657607.883932) can0 270#7113D30000009909
(1427657607.909857) can0 477#41008C7988001400
(1427657607.982930) can0 475#5B131F0000020A00
(1427657607.983374) can0 306#130008013B030000
(1427657607.983620) can0 294#9A019CFFFA007200
(1427657607.983870) can0 270#7113B60000009909
(1427657608.006842) can0 477#45008E7988001400
(1427657608.082970) can0 475#53131F0000020C00
(1427657608.083364) can0 306#1300070137030000
(1427657608.083614) can0 294#E7019CFFFA007A00
(1427657608.083863) can0 270#7213D8000000A609
(1427657608.103831) can0 477#4E00887988001400
(1427657608.182901) can0 475#51131F0000020D00
(1427657608.183183) can0 306#1200070136030000
(1427657608.183574) can0 294#09029CFFFA008300
(1427657608.183827) can0 270#7113E70000009709
(1427657608.201846) can0 477#5200867988001400
(1427657608.282866) can0 475#59131F0000020D00
(1427657608.283198) can0 306#1200070136030000
(1427657608.283567) can0 294#F6019CFFFA008900
(1427657608.283812) can0 270#7113DF0000008409
(1427657608.297747) can0 477#4F00847988001400
(1427657608.383107) can0 475#51131F0000020D00
(1427657608.383504) can0 306#1200070137030000
(1427657608.383754) can0 294#FB019CFFFA008B00
(1427657608.383999) can0 270#7113E1000000A709
(1427657608.394739) can0 477#5400887988001400
(1427657608.483244) can0 475#64131F0000020E00
(1427657608.483565) can0 306#1200070136030000
(1427657608.483814) can0 294#26029CFFFA009100
(1427657608.484056) can0 270#7113F40000009F09
(1427657608.491686) can0 477#5A00847988001400
(1427657608.583226) can0 475#51131F0000020F00
(1427657608.583536) can0 306#1200070136030000
(1427657608.583791) can0 294#68029CFFFA009800
(1427657608.584153) can0 270#7113110100009609
(1427657608.588629) can0 477#6300817988001400
(1427657608.683255) can0 475#53131F0000021100
(1427657608.683590) can0 306#1200070137030000
(1427657608.683846) can0 294#B5029CFFFA00A600
(1427657608.684107) can0 270#701334010000A709
(1427657608.685623) can0 477#6F007C7988001400
(1427657608.782859) can0 477#7500717988001400
(1427657608.783749) can0 475#4D131F0000021200
(1427657608.784033) can0 306#120008013A030000
(1427657608.784418) can0 270#6F132F010000D009
(1427657608.879556) can0 477#8400717988001400
(1427657608.883137) can0 475#53131F0000021500
(1427657608.883445) can0 306#130009013D030000
(1427657608.883714) can0 294#10039CFFFA00C400
(1427657608.883987) can0 270#6F135C010000BB09
(1427657608.976547) can0 477#9800627988001400
(1427657608.983685) can0 294#97039CFFFA00E300
(1427657608.984154) can0 270#6E1398010000F909
(1427657609.073502) can0 477#AC00567988001400
(1427657609.083115) can0 475#4D131F0000021D00
(1427657609.083400) can0 306#130009013C030000
(1427657609.083650) can0 294#1D049CFFFA000001
(1427657609.083898) can0 270#6A13D3010000E309
(1427657609.170503) can0 477#C100477988001400
(1427657609.183108) can0 475#47131F0000021F00
(1427657609.183489) can0 306#140009013D030000
(1427657609.183734) can0 294#77049CFFFA002101
(1427657609.184374) can0 270#6A13FB010000DE09
(1427657609.267452) can0 477#B700367988001400
(1427657609.283119) can0 475#55131F0000021E00
(1427657609.283499) can0 306#14000B0142030000
(1427657609.283742) can0 294#5F049CFFFA003901
(1427657609.283989) can0 270#6713F1010000BB09
(1427657609.364421) can0 477#D600297988001400
(1427657609.383267) can0 475#4D131F0000022200
(1427657609.383562) can0 306#140009013E030000
(1427657609.383811) can0 294#DC049CFFFA005601
(1427657609.384054) can0 270#651328020000F009
(1427657609.461577) can0 477#ED002D7988001400
(1427657609.483184) can0 475#47131F0000022700
(1427657609.483505) can0 306#1400080139030000
(1427657609.483756) can0 294#8A059CFFFA007901
(1427657609.484008) can0 270#631376020000C909
(1427657609.558345) can0 477#FB00187988001400
(1427657609.583189) can0 475#47131F0000022700
(1427657609.583482) can0 306#1400080139030000
(1427657609.583729) can0 294#EE059CFFFA009201
(1427657609.583983) can0 270#6313A2020000010A
(1427657609.655351) can0 477#F9000E7988001400
(1427657609.683158) can0 475#3C131F0000022800
(1427657609.683453) can0 306#140008013B030000
(1427657609.683698) can0 294#F5059CFFFA00A201
(1427657609.683947) can0 270#5E13A5020000DA09
(1427657609.752303) can0 477#EA000D7988001400
(1427657609.783089) can0 475#44131F0000022500
(1427657609.783459) can0 306#140009013D030000
(1427657609.783722) can0 294#66059CFFFA009D01
(1427657609.783978) can0 270#5E1366020000EB09
(1427657609.849329) can0 477#D800177988001400
(1427657609.883101) can0 475#47131F0000022100
(1427657609.883433) can0 306#14000A0141030000
(1427657609.883687) can0 294#E0049CFFFA008601
(1427657609.883935) can0 270#5E132A020000020A
(1427657609.946230) can0 477#D200227988001400
(1427657609.983309) can0 475#4D131F0000022000
(1427657609.983631) can0 306#13000B0142030000
(1427657609.983882) can0 294#81049CFFFA007101
(1427657609.984126) can0 270#611300020000F309
(1427657610.043178) can0 477#BF00277988001400
(1427657610.083318) can0 475#4F131F0000021D00
(1427657610.083722) can0 306#13000B0143030000
(1427657610.083973) can0 294#2A049CFFFA005801
(1427657610.084216) can0 270#6313D9010000DD09
(1427657610.140181) can0 477#B700327988001400
(1427657610.183331) can0 475#40131F0000021D00
(1427657610.183741) can0 306#13000A0141030000
(1427657610.184000) can0 294#35049CFFFA004701
(1427657610.184245) can0 270#6313DE010000DB09
(1427657610.238408) can0 477#AC00397988001400
(1427657610.283413) can0 475#4F131F0000021B00
(1427657610.283720) can0 306#12000B0142030000
(1427657610.283969) can0 294#D7039CFFFA003201
(1427657610.284214) can0 270#6513B4010000E209
(1427657610.334088) can0 477#A100417988001400
(1427657610.383226) can0 475#47131F0000021800
(1427657610.383507) can0 306#12000A0141030000
(1427657610.383894) can0 294#A0039CFFFA001E01
(1427657610.384155) can0 270#67139C010000DE09
(1427657610.431038) can0 477#90004E7988001400
(1427657610.483176) can0 475#4F131F0000021700
(1427657610.483462) can0 306#12000A013F030000
(1427657610.483831) can0 294#4A039CFFFA000A01
(1427657610.484085) can0 270#671376010000F109
(1427657610.528011) can0 477#8D00527988001400
(1427657610.583175) can0 475#44131F0000021600
(1427657610.583555) can0 306#120009013C030000
(1427657610.583818) can0 294#45039CFFFA00FC00
(1427657610.584058) can0 270#691373010000B709
(1427657610.625052) can0 477#8500587988001400
(1427657610.683131) can0 475#5B131F0000021500
(1427657610.683531) can0 306#120008013A030000
(1427657610.683781) can0 294#03039CFFFA00ED00
(1427657610.684019) can0 270#6B1356010000BF09
(1427657610.721976) can0 477#7800627988001400
(1427657610.783091) can0 475#51131F0000021300
(1427657610.783379) can0 306#1200070138030000
(1427657610.783783) can0 294#BE029CFFFA00DC00
(1427657610.784039) can0 270#6B13370100009309
(1427657610.819093) can0 477#6C00687988001400
(1427657610.883059) can0 475#55131F0000021000
(1427657610.883501) can0 306#1200060134030000
(1427657610.883751) can0 294#63029CFFFA00C400
(1427657610.883999) can0 270#6C130F0100009609
(1427657610.915881) can0 477#5A007B7988001400
(1427657610.983200) can0 475#5D131F0000020D00
(1427657610.983524) can0 306#1300050130030000
(1427657610.984690) can0 270#6F13DE0000008809
(1427657610.984961) can0 294#F4019CFFFA00A800
(1427657611.012886) can0 477#4500887988001400
(1427657611.083212) can0 475#59131F0000020900
(1427657611.083540) can0 306#140004012C030000
(1427657611.083788) can0 294#79019CFFFA008800
(1427657611.084036) can0 270#6F13A70000007209
(1427657611.109789) can0 477#3200997988001400
(1427657611.183157) can0 475#55131F0000020400
(1427657611.183474) can0 306#1400020127030000
(1427657611.183727) can0 294#AB009CFFFA006500
(1427657611.183971) can0 270#73134C0000003909
(1427657611.206809) can0 477#1900AD7988001400
(1427657611.282943) can0 475#62131F0000020000
(1427657611.283239) can0 306#1400000122030000
(1427657611.283632) can0 294#44009CFFFA003A00
(1427657611.283883) can0 270#77131E000000DA08
(1427657611.303810) can0 477#0000BD7988001400
(1427657611.383145) can0 475#66131F0000060000
(1427657611.383479) can0 306#1400FE001A030000
(1427657611.384143) can0 294#ADFF9CFFFA001200
(1427657611.384577) can0 270#7713DBFF00009008
(1427657611.400931) can0 477#EBFFCC7988001400
(1427657611.483435) can0 306#1400FC0015030000
(1427657611.484237) can0 294#01FF9CFFFA00EBFF
(1427657611.484682) can0 270#7C138FFF00005508
(1427657611.497857) can0 477#D8FFDF7988001400
(1427657611.583139) can0 475#66131F0000060C00
(1427657611.583470) can0 306#1400FA000E030000
(1427657611.583866) can0 294#47FE9CFFFA00C7FF
(1427657611.584216) can0 270#81133CFF00004208
(1427657611.594700) can0 477#BEFFF07988001400
(1427657611.683347) can0 475#6A131F0000060E00
(1427657611.683655) can0 294#CEFD9CFFFA00A5FF
(1427657611.683862) can0 306#1400F70006030000
(1427657611.684114) can0 270#811306FF00000908
(1427657611.691680) can0 477#AFFF047A88001400
(1427657611.783288) can0 475#6E131F0000061300
(1427657611.783582) can0 306#1400F400FC020000
(1427657611.783832) can0 294#37FD9CFFFA008AFF
(1427657611.784077) can0 270#8513C3FE0000F807
(1427657611.788649) can0 477#9DFF137A88001400
(1427657611.883219) can0 475#74131F0000061500
(1427657611.883574) can0 306#1400F000F0020000
(1427657611.883839) can0 294#F8FC9CFFFA0070FF
(1427657611.884094) can0 270#8A13A7FE0000C107
(1427657611.885553) can0 477#94FF277A88001400
(1427657611.982580) can0 477#80FF2E7A88001400
(1427657611.983208) can0 475#72131F0000061900
(1427657611.983483) can0 306#1300ED00E6020000
(1427657611.983759) can0 294#8DFC9CFFFA005DFF
(1427657611.984020) can0 270#8A1377FE0000BE07
(1427657612.079532) can0 477#76FF417A88001400
(1427657612.083169) can0 475#72131F0000021C00
(1427657612.083453) can0 306#1300EA00DB020000
(1427657612.083707) can0 294#0BFC9CFFFA0046FF
(1427657612.083954) can0 270#8C133EFE00007207
(1427657612.176501) can0 477#69FF4C7A88001400
(1427657612.183141) can0 475#78131F0000021F00
(1427657612.183419) can0 306#1400E600D0020000
(1427657612.183666) can0 294#8EFB9CFFFA0031FF
(1427657612.183907) can0 270#901306FE00004C07
(1427657612.273525) can0 477#66FF547A88001400
(1427657612.283138) can0 475#6E131F0000022200
(1427657612.283545) can0 306#1400E200C3020000
(1427657612.283801) can0 294#4AFB9CFFFA0024FF
(1427657612.284051) can0 270#9013E8FD00004A07
(1427657612.370522) can0 477#6AFF5C7A88001400
(1427657612.383126) can0 475#76131F0000022100
(1427657612.383536) can0 306#1400DD00B5020000
(1427657612.383790) can0 294#2AFB9CFFFA001BFF
(1427657612.384033) can0 270#9213DAFD0000FF06
(1427657612.467403) can0 477#71FF5C7A88001400
(1427657612.483268) can0 475#7F131F0000022100
(1427657612.483623) can0 306#1400D800A5020000
(1427657612.483879) can0 294#3DFB9CFFFA001DFF
(1427657612.484126) can0 270#9313E2FD0000EC06
(1427657612.564400) can0 477#74FF5A7A88001400
(1427657612.583287) can0 475#7B131F0000022200
(1427657612.583581) can0 306#1400D40096020000
(1427657612.583832) can0 294#66FB9CFFFA0021FF
(1427657612.584080) can0 270#9313F4FD0000C606
(1427657612.661373) can0 477#71FF5A7A88001400
(1427657612.683244) can0 475#7F131F0000022400
(1427657612.683541) can0 306#1400D0008A020000
(1427657612.683793) can0 294#EBFA9CFFFA0024FF
(1427657612.684040) can0 270#9313BEFD00009E06
(1427657612.758327) can0 477#73FF617A88001400
(1427657612.783279) can0 475#7D131F0000022300
(1427657612.783875) can0 294#C8FA9CFFFA0025FF
(1427657612.784112) can0 306#1300CC007E020000
(1427657612.855673) can0 477#7CFF5F7A88001400
(1427657612.883141) can0 475#85131F0000022200
(1427657612.883478) can0 306#1300C80071020000
(1427657612.883732) can0 294#41FB9CFFFA002CFF
(1427657612.883980) can0 270#9413E4FD00005206
(1427657612.952295) can0 477#81FF5D7A88001400
(1427657612.983133) can0 475#74131F0000022200
(1427657612.983450) can0 306#1300C40065020000
(1427657612.983700) can0 294#83FB9CFFFA0036FF
(1427657612.983947) can0 270#941301FE00004E06
(1427657613.049174) can0 477#8CFF5A7A88001400
(1427657613.083438) can0 475#7D131F0000022000
(1427657613.083753) can0 306#1300C00058020000
(1427657613.084009) can0 294#BEFB9CFFFA0042FF
(1427657613.084256) can0 270#93131CFE00001706
(1427657613.146188) can0 477#95FF567A88001400
(1427657613.183334) can0 475#76131F0000021C00
(1427657613.183619) can0 306#1300BB0049020000
(1427657613.184013) can0 294#DDFB9CFFFA004FFF
(1427657613.184264) can0 270#931329FE0000DB05
(1427657613.243151) can0 477#9EFF507A88001400
(1427657613.283318) can0 475#7F131F0000021C00
(1427657613.283764) can0 306#1300B7003D020000
(1427657613.284015) can0 294#18FC9CFFFA005EFF
(1427657613.284261) can0 270#921344FE0000DD05
(1427657613.340306) can0 477#A4FF497A88001400
(1427657613.383354) can0 475#7A131F0000021700
(1427657613.383752) can0 306#1300B30031020000
(1427657613.384003) can0 294#54FC9CFFFA006AFF
(1427657613.384251) can0 270#90135EFE00007905
(1427657613.437428) can0 477#ADFF467A88001400
(1427657613.483254) can0 475#74131F0000021600
(1427657613.483709) can0 306#1200AF0023020000
(1427657613.483971) can0 294#93FC9CFFFA0075FF
(1427657613.484217) can0 270#90137AFE00006605
(1427657613.535038) can0 477#B4FF407A88001400
(1427657613.583244) can0 475#76131F0000021600
(1427657613.583620) can0 306#1200AB0018020000
(1427657613.583891) can0 294#E8FC9CFFFA0082FF
(1427657613.584137) can0 270#9013A0FE00007905
(1427657613.631033) can0 477#BAFF3A7A88001400
(1427657613.683212) can0 475#74131F0000021400
(1427657613.683521) can0 306#1200A8000D020000
(1427657613.683885) can0 294#2FFD9CFFFA008BFF
(1427657613.684132) can0 270#8E13BFFE00004005
(1427657613.728019) can0 477#C8FF367A88001400
(1427657613.783158) can0 475#7F131F0000021100
(1427657613.783469) can0 306#1200A40003020000
(1427657613.783878) can0 294#AFFD9CFFFA009AFF
(1427657613.784136) can0 270#8E13F8FE00004005
(1427657613.825167) can0 477#D4FF2D7A88001400
(1427657613.883126) can0 475#74131F0000020B00
(1427657613.883447) can0 306#1200A300FD010000
(1427657613.883697) can0 294#72FE9CFFFA00ACFF
(1427657613.883951) can0 270#8C134FFF00001605
(1427657613.921947) can0 477#EAFF237A88001400
(1427657613.983118) can0 475#6E131F0000020400
(1427657613.983559) can0 306#1300A000F6010000
(1427657613.983823) can0 294#3CFF9CFFFA00C7FF
(1427657613.984087) can0 270#8A13A8FF00002905
(1427657614.018941) can0 477#0400167A88001400
(1427657614.083122) can0 475#68131F0000020000
(1427657614.083547) can0 306#13009F00F2010000
(1427657614.083778) can0 294#9A009CFFFA00ECFF
(1427657614.084031) can0 270#8A1344000000C205
(1427657614.116866) can0 477#2000F97988001400
(1427657614.183068) can0 475#6C131F0000020C00
(1427657614.183351) can0 306#13009E00EF010000
(1427657614.183745) can0 294#F3019CFFFA001C00
(1427657614.183996) can0 270#8513DD000000EB05
(1427657614.212884) can0 477#4100E37988001400
(1427657614.283053) can0 475#5B131F0000021800
(1427657614.283455) can0 306#13009C00EA010000
(1427657614.283700) can0 294#AE039CFFFA005300
(1427657614.283946) can0 270#8013A2010000E505
(1427657614.309834) can0 477#6500C37988001400
(1427657614.383021) can0 475#55131F0000021F00
(1427657614.383302) can0 306#13009C00E9010000
(1427657614.383698) can0 294#9B049CFFFA009100
(1427657614.383951) can0 270#80130B0200000906
(1427657614.406803) can0 477#8900AD7988001400
(1427657614.482985) can0 475#5B131F0000022700
(1427657614.483411) can0 306#12009C00EA010000
(1427657614.483662) can0 294#A9059CFFFA00CD00
(1427657614.483912) can0 270#7A13830200003306
(1427657614.503784) can0 477#A600967988001400
(1427657614.583155) can0 475#57131F0000022E00
(1427657614.583738) can0 306#12009D00ED010000
(1427657614.583972) can0 294#08079CFFFA000901
(1427657614.600729) can0 477#C4007F7988001400
(1427657614.683291) can0 475#4B131F0000023700
(1427657614.683624) can0 306#12009F00F3010000
(1427657614.683876) can0 294#EB079CFFFA004201
(1427657614.684167) can0 270#7413840300006806
(1427657614.697818) can0 477#E0006C7988001400
(1427657614.783169) can0 475#49131F0000023D00
(1427657614.783615) can0 306#1100A100F8010000
(1427657614.783868) can0 294#B0089CFFFA007501
(1427657614.784116) can0 270#6D13DC0300007D06
(1427657614.794682) can0 477#FB004D7988001400
(1427657614.883297) can0 475#3E131F0000024200
(1427657614.883617) can0 306#1100A300FE010000
(1427657614.883868) can0 294#84099CFFFA00A301
(1427657614.884112) can0 270#68133A0400008706
(1427657614.891621) can0 477#14013C7988001400
(1427657614.983285) can0 475#44131F0000024200
(1427657614.983601) can0 306#1100A60008020000
(1427657614.983869) can0 294#A5099CFFFA00C801
(1427657614.984137) can0 270#681349040000C506
(1427657614.988568) can0 477#1C012B7988001400
(1427657615.083257) can0 475#38131F0000024500
(1427657615.083548) can0 306#1100A90010020000
(1427657615.083791) can0 294#AB099CFFFA00E301
(1427657615.084041) can0 270#63134B040000C206
(1427657615.085567) can0 477#24011C7988001400
(1427657615.182539) can0 477#1E01167988001400
(1427657615.183153) can0 475#40131F0000024300
(1427657615.183426) can0 306#1100AB0016020000
(1427657615.183736) can0 294#86099CFFFA00F101
(1427657615.183990) can0 270#60133B040000EA06
(1427657615.279711) can0 477#1A01187988001400
(1427657615.283243) can0 475#44131F0000024000
(1427657615.283703) can0 306#1100AE0021020000
(1427657615.283958) can0 294#22099CFFFA00F101
(1427657615.284208) can0 270#60130E0400001207
(1427657615.376470) can0 477#2201147988001400
(1427657615.383233) can0 475#3C131F0000024100
(1427657615.383524) can0 306#1100B2002D020000
(1427657615.383774) can0 294#9E099CFFFA00F101
(1427657615.384026) can0 270#6013450400003707
(1427657615.473484) can0 477#2B010F7988001400
(1427657615.483353) can0 475#3A131F0000024200
(1427657615.483665) can0 306#1100B50036020000
(1427657615.483941) can0 294#40099CFFFA00FA01
(1427657615.484188) can0 270#5E131C0400003507
(1427657615.570425) can0 477#3301077988001400
(1427657615.583622) can0 475#44131F0000024200
(1427657615.583920) can0 306#1100B80040020000
(1427657615.584183) can0 294#63099CFFFA000502
(1427657615.584457) can0 270#5E132B0400007107
(1427657615.667416) can0 477#4001FE7888001400
(1427657615.683723) can0 306#1200BC004B020000
(1427657615.684307) can0 294#CC099CFFFA001602
(1427657615.684519) can0 270#5D135A0400005C07
(1427657615.764344) can0 477#4E01F17888001400
(1427657615.783510) can0 475#3A131F0000024700
(1427657615.783853) can0 306#1200BF0057020000
(1427657615.784110) can0 294#E2099CFFFA002B02
(1427657615.784360) can0 270#5A13630400009407
(1427657615.861378) can0 477#5801E97888001400
(1427657615.883454) can0 475#36131F0000024600
(1427657615.883773) can0 306#1100C30061020000
(1427657615.884024) can0 294#FB099CFFFA003E02
(1427657615.884272) can0 270#5A136F040000CC07
(1427657615.958345) can0 477#3201DF7888001400
(1427657615.984100) can0 475#44131F0000024000
(1427657615.984896) can0 294#EC089CFFFA003202
(1427657616.055346) can0 477#2201F77888001400
(1427657616.083537) can0 475#3C131F0000023A00
(1427657616.083897) can0 294#28089CFFFA001202
(1427657616.084402) can0 306#1200C80071020000
(1427657616.084915) can0 270#5A139F030000D207
(1427657616.153801) can0 477#1801037988001400
(1427657616.183401) can0 475#44131F0000023800
(1427657616.183724) can0 306#1300CA0079020000
(1427657616.184096) can0 294#09089CFFFA00F201
(1427657616.184348) can0 270#5A1391030000E507
(1427657616.249229) can0 477#0301077988001400
(1427657616.283390) can0 475#3A131F0000023300
(1427657616.283864) can0 306#1300CD0080020000
(1427657616.284121) can0 294#32079CFFFA00D401
(1427657616.284371) can0 270#5C1332030000E507
(1427657616.346153) can0 477#F2000C7988001400
(1427657616.373399) can0 475#40131F0000023000
(1427657616.373831) can0 306#1300CD0082020000
(1427657616.375314) can0 294#C0069CFFFA00B601
(1427657616.376072) can0 270#5E13FF020000E607
(1427657616.443723) can0 477#E200227988001400
(1427657616.473975) can0 294#18069CFFFA009801
(1427657616.474539) can0 270#5E13B50200000B08
(1427657616.540108) can0 477#D8002C7988001400
(1427657616.573320) can0 475#4B131F0000022800
(1427657616.573617) can0 306#1300D0008D020000
(1427657616.574014) can0 294#B1059CFFFA007C01
(1427657616.574270) can0 270#621387020000FC07
(1427657616.637059) can0 477#C400347988001400
(1427657616.673369) can0 475#49131F0000022500
(1427657616.673660) can0 306#1300D20093020000
(1427657616.674005) can0 294#48059CFFFA005F01
(1427657616.674258) can0 270#641358020000FA07
(1427657616.734050) can0 477#B600427988001400
(1427657616.773245) can0 475#4D131F0000022200
(1427657616.773715) can0 306#1300D40097020000
(1427657616.773969) can0 294#E5049CFFFA004301
(1427657616.774212) can0 270#64132D0200001408
(1427657616.831032) can0 477#A8004E7988001400
(1427657616.873238) can0 475#47131F0000021F00
(1427657616.873554) can0 306#1300D5009A020000
(1427657616.874114) can0 294#6A049CFFFA002901
(1427657616.874344) can0 270#6713F60100000F08
(1427657616.927959) can0 477#9C00577988001400
(1427657616.973187) can0 475#47131F0000021D00
(1427657616.973659) can0 306#1300D5009B020000
(1427657616.973919) can0 294#32049CFFFA001101
(1427657616.974167) can0 270#6A13DD010000FC07
(1427657617.025465) can0 477#8900617988001400
(1427657617.073161) can0 475#4B131F0000021800
(1427657617.073478) can0 306#1400D600A0020000
(1427657617.073929) can0 294#60039CFFFA00F700
(1427657617.074195) can0 270#6A137F0100000D08
(1427657617.121970) can0 477#7B00717988001400
(1427657617.173178) can0 475#51131F0000021800
(1427657617.173597) can0 306#1400D800A3020000
(1427657617.173860) can0 294#7E039CFFFA00DE00
(1427657617.174114) can0 270#6D138D0100001208
(1427657617.219070) can0 477#8000747988001400
(1427657617.273161) can0 475#4F131F0000021800
(1427657617.273604) can0 306#1500D800A4020000
(1427657617.273904) can0 294#7F039CFFFA00D600
(1427657617.274305) can0 270#6E138D0100001208
(1427657617.315868) can0 477#8700787988001400
(1427657617.373266) can0 475#51131F0000021A00
(1427657617.373588) can0 306#1400D800A2020000
(1427657617.373841) can0 294#BE039CFFFA00DD00
(1427657617.374091) can0 270#6E13A90100001408
(1427657617.412891) can0 477#9100737988001400
(1427657617.473098) can0 475#55131F0000021A00
(1427657617.473504) can0 306#1400D800A5020000
(1427657617.473766) can0 294#C5039CFFFA00E400
(1427657617.474216) can0 270#6E13AC0100001208
(1427657617.509804) can0 477#8900727988001400
(1427657617.573067) can0 475#53131F0000021A00
(1427657617.573450) can0 306#1400DA00A8020000
(1427657617.573720) can0 294#CD039CFFFA00E600
(1427657617.573969) can0 270#6E13B00100002708
(1427657617.606807) can0 477#8900747988001400
(1427657617.673236) can0 475#51131F0000021C00
(1427657617.673568) can0 306#1300DB00AC020000
(1427657617.673819) can0 294#12049CFFFA00E700
(1427657617.674176) can0 270#6E13CF0100002308
(1427657617.703745) can0 477#9E00717988001400
(1427657617.773253) can0 475#4F131F0000022100
(1427657617.773591) can0 306#1300DA00AB020000
(1427657617.773843) can0 294#B2049CFFFA00FF00
(1427657617.774104) can0 270#6E13160200001108
(1427657617.800813) can0 477#B200637988001400
(1427657617.873193) can0 475#4F131F0000022400
(1427657617.873666) can0 306#1300D900A9020000
(1427657617.874204) can0 294#08059CFFFA001F01
(1427657617.874421) can0 270#6C133C0200004B08
(1427657617.897713) can0 477#C500577988001400
(1427657617.973398) can0 475#49131F0000022900
(1427657617.973737) can0 306#1300DA00A9020000
(1427657617.973990) can0 294#EB059CFFFA004601
(1427657617.974232) can0 270#6C13A10200005F08
(1427657617.994644) can0 477#E1003E7988001400
(1427657618.073323) can0 475#3C131F0000022F00
(1427657618.073765) can0 306#1400DA00AA020000
(1427657618.074229) can0 270#6813180300005508
(1427657618.074458) can0 294#F7069CFFFA007401
(1427657618.091631) can0 477#FE002C7988001400
(1427657618.173280) can0 475#47131F0000023500
(1427657618.173614) can0 306#1300DA00AA020000
(1427657618.173883) can0 294#93079CFFFA00A701
(1427657618.174145) can0 270#63135D0300004908
(1427657618.188653) can0 477#2501197988001400
(1427657618.273219) can0 475#38131F0000023900
(1427657618.273579) can0 306#1300DB00AD020000
(1427657618.273834) can0 294#5D089CFFFA00DA01
(1427657618.274177) can0 270#6313B7030000A308
(1427657618.285547) can0 477#3C01FD7888001400
(1427657618.373054) can0 475#2E131F0000023E00
(1427657618.373381) can0 306#1300DC00B1020000
(1427657618.373753) can0 294#F9089CFFFA000B02
(1427657618.374002) can0 270#5C13FC0300009E08
(1427657618.382543) can0 477#5B01EA7888001400
(1427657618.473248) can0 475#2C131F0000024600
(1427657618.473578) can0 294#040A9CFFFA003F02
(1427657618.473785) can0 306#1200DD00B4020000
(1427657618.474135) can0 270#5613730400007808
(1427657618.479466) can0 477#7A01D57888001400
(1427657618.573169) can0 475#2E131F0000024800
(1427657618.573494) can0 306#1200DD00B8020000
(1427657618.573864) can0 294#600A9CFFFA007B02
(1427657618.574117) can0 270#5113A5040000D708
(1427657618.576444) can0 477#9001BC7888001400
(1427657618.673204) can0 475#21131F0000024D00
(1427657618.673536) can0 477#B3019D7888001400
(1427657618.673983) can0 306#1300E100C0020000
(1427657618.674297) can0 270#5113FE040000F708
(1427657618.674502) can0 294#E10A9CFFFA00A802
(1427657618.770397) can0 477#C5018A7888001400
(1427657618.773391) can0 475#27131F0000025000
(1427657618.773676) can0 306#1300E400C8020000
(1427657618.773929) can0 294#7D0B9CFFFA00D602
(1427657618.774175) can0 270#4A1332050000FA08
(1427657618.867369) can0 477#D701767888001400
(1427657618.873307) can0 475#2A131F0000025400
(1427657618.873619) can0 306#1400E600D0020000
(1427657618.874218) can0 294#D30B9CFFFA00FF02
(1427657618.874440) can0 270#46135F0500001E09
(1427657618.964355) can0 477#E901647888001400
(1427657618.973288) can0 475#17131F0000025500
(1427657618.973609) can0 306#1300E900DA020000
(1427657618.973862) can0 294#160C9CFFFA002203
(1427657618.974106) can0 270#46136E0500005409
(1427657619.061375) can0 477#FA015A7888001400
(1427657619.073042) can0 475#1D131F0000025600
(1427657619.073476) can0 306#1400EC00E5020000
(1427657619.073742) can0 294#810C9CFFFA003F03
(1427657619.074031) can0 270#42136C0500007A09
(1427657619.158474) can0 477#0E024B7888001400
(1427657619.173041) can0 475#15131F0000025A00
(1427657619.173431) can0 306#1300EF00EE020000
(1427657619.173696) can0 294#B40C9CFFFA005C03
(1427657619.173944) can0 270#3F13A40500007909
(1427657619.255262) can0 477#1302327888001400
(1427657619.273200) can0 475#11131F0000025C00
(1427657619.273500) can0 306#1300F300F8020000
(1427657619.273765) can0 294#120D9CFFFA007A03
(1427657619.274036) can0 270#3F13CE050000AD09
(1427657619.352259) can0 477#2302327888001400
(1427657619.373269) can0 475#15131F0000025C00
(1427657619.373578) can0 306#1300F60006030000
(1427657619.373839) can0 294#E00C9CFFFA009503
(1427657619.374084) can0 270#3B13B8050000C309
(1427657619.449227) can0 477#3002237888001400
(1427657619.473627) can0 475#17131F0000025D00
(1427657619.474161) can0 294#380D9CFFFA00AA03
(1427657619.474688) can0 270#3713DF050000ED09
(1427657619.546278) can0 477#44020F7888001400
(1427657619.573412) can0 475#17131F0000025C00
(1427657619.573752) can0 306#1300FF001F030000
(1427657619.574005) can0 294#360D9CFFFA00C103
(1427657619.574254) can0 270#3713DE0500004B0A
(1427657619.643137) can0 477#4902057888001400
(1427657619.673382) can0 475#1F131F0000025D00
(1427657619.673809) can0 306#130003012D030000
(1427657619.674065) can0 294#170D9CFFFA00D603
(1427657619.674463) can0 270#3413D00500004C0A
(1427657619.740100) can0 477#5902FC7788001400
(1427657619.773379) can0 475#23131F0000025E00
(1427657619.773718) can0 306#130007013A030000
(1427657619.773979) can0 294#110D9CFFFA00EB03
(1427657619.774228) can0 270#3213CD050000850A
(1427657619.837046) can0 477#6802EF7788001400
(1427657619.873312) can0 475#17131F0000025E00
(1427657619.873851) can0 306#13000B0147030000
(1427657619.874205) can0 270#3213D5050000BA0A
(1427657619.874427) can0 294#210D9CFFFA000004
(1427657619.934053) can0 477#6302E27788001400
(1427657619.973322) can0 475#11131F0000025D00
(1427657619.973740) can0 306#1300100156030000
(1427657619.973992) can0 294#400D9CFFFA000C04
(1427657619.974652) can0 270#2E13E3050000CC0A
(1427657620.031010) can0 477#7302DD7788001400
(1427657620.073263) can0 475#0E131F0000025C00
(1427657620.073606) can0 306#1300140162030000
(1427657620.073861) can0 294#5A0D9CFFFA001E04
(1427657620.074151) can0 270#2D13EE050000170B
(1427657620.127964) can0 477#6C02D37788001400
(1427657620.173229) can0 475#06131F0000025A00
(1427657620.173635) can0 306#130018016F030000
(1427657620.173882) can0 294#180D9CFFFA002504
(1427657620.174139) can0 270#2D13D1050000020B
(1427657620.225764) can0 477#7102D17788001400
(1427657620.273368) can0 475#08131F0000025C00
(1427657620.273720) can0 306#13001C017B030000
(1427657620.273988) can0 270#2B13AF050000140B
(1427657620.274304) can0 294#CC0C9CFFFA002504
(1427657620.321919) can0 477#6E02CF7788001400
(1427657620.373343) can0 475#0E131F0000025900
(1427657620.373677) can0 306#1300200187030000
(1427657620.373930) can0 294#C20C9CFFFA002304
(1427657620.374181) can0 270#2B13AA0500003C0B
(1427657620.419796) can0 477#6E02CF7788001400
(1427657620.473540) can0 475#15131F0000025600
(1427657620.473894) can0 306#1300240193030000
(1427657620.474246) can0 294#8A0C9CFFFA001E04
(1427657620.474510) can0 270#2B1392050000A20B
(1427657620.516808) can0 477#6C02D27788001400
(1427657620.573142) can0 475#0C131F0000025700
(1427657620.573556) can0 306#130027019F030000
(1427657620.573801) can0 294#2A0C9CFFFA001A04
(1427657620.574046) can0 270#2B1367050000C20B
(1427657620.612804) can0 477#6402D17788001400
(1427657620.673092) can0 475#0A13200000025300
(1427657620.673405) can0 306#13002C01AD030000
(1427657620.673777) can0 294#B80B9CFFFA000D04
(1427657620.674027) can0 270#2C1334050000C10B
(1427657620.709787) can0 477#5502D07788001400
(1427657620.773275) can0 475#1113200000025100
(1427657620.773604) can0 306#12003001BA030000
(1427657620.773871) can0 294#670B9CFFFA00FD03
(1427657620.774124) can0 270#2C1310050000D70B
(1427657620.806733) can0 477#4C02D97788001400
(1427657620.873292) can0 475#1513200000025000
(1427657620.873923) can0 306#12003401C6030000
(1427657620.874298) can0 294#160B9CFFFA00EF03
(1427657620.874518) can0 270#2C13EC040000DA0B
(1427657620.903758) can0 477#3C02DC7788001400
(1427657620.973288) can0 475#1313200000024D00
(1427657620.973605) can0 306#12003701D0030000
(1427657620.973865) can0 294#150B9CFFFA00E203
(1427657620.974116) can0 270#2D13EC040000100C
(1427657621.000693) can0 477#4102E07788001400
(1427657621.073436) can0 475#0F13200000024D00
(1427657621.073740) can0 306#12003B01DB030000
(1427657621.073994) can0 294#AC0A9CFFFA00D703
(1427657621.074331) can0 270#2D13BD040000380C
(1427657621.097829) can0 477#2C02E27788001400
(1427657621.173365) can0 475#0A13200000024900
(1427657621.173662) can0 306#13003F01E7030000
(1427657621.173912) can0 294#760A9CFFFA00C003
(1427657621.174160) can0 270#2E13A50400005B0C
(1427657621.194651) can0 477#2202EC7788001400
(1427657621.273393) can0 475#1113200000024600
(1427657621.273717) can0 306#13004401F6030000
(1427657621.273981) can0 270#30136C0400005E0C
(1427657621.274219) can0 294#F5099CFFFA00A303
(1427657621.291620) can0 477#0E02FC7787001400
(1427657621.373384) can0 475#1113200000024400
(1427657621.373686) can0 306#1200480101040000
(1427657621.373939) can0 294#B9099CFFFA008903
(1427657621.374188) can0 270#301351040000710C
(1427657621.388576) can0 477#0902047887001400
(1427657621.473332) can0 475#1713200000024000
(1427657621.473624) can0 306#12004A010C040000
(1427657621.473873) can0 294#06099CFFFA007703
(1427657621.474123) can0 270#331302040000C30C
(1427657621.485546) can0 477#FE01097887001400
(1427657621.573279) can0 475#1D13200000023E00
(1427657621.573597) can0 306#12004E0116040000
(1427657621.573874) can0 294#E0089CFFFA005F03
(1427657621.574126) can0 270#3513F1030000B20C
(1427657621.582541) can0 477#EB01117887001400
(1427657621.673252) can0 475#1B13200000023C00
(1427657621.673606) can0 306#1200510121040000
(1427657621.673859) can0 294#5A089CFFFA004603
(1427657621.674106) can0 270#3513B5030000EA0C
(1427657621.679443) can0 477#D8011F7887001400
(1427657621.773244) can0 475#1B13200000023A00
(1427657621.773660) can0 306#120055012D040000
(1427657621.774183) can0 294#3D089CFFFA002603
(1427657621.774416) can0 270#3813A9030000EA0C
(1427657621.776438) can0 477#C4012F7887001400
(1427657621.873226) can0 475#1F13200000023800
(1427657621.873557) can0 477#C101337887001400
(1427657621.874136) can0 306#1200580134040000
(1427657621.874726) can0 270#3A139F030000EE0C
(1427657621.970575) can0 477#A5013D7887001400
(1427657621.973371) can0 475#1713200000023400
(1427657621.973651) can0 306#12005B013E040000
(1427657621.973937) can0 294#8D079CFFFA00FA02
(1427657621.974192) can0 270#3A135A030000F90C
(1427657622.067399) can0 477#AC01457887001400
(1427657622.073364) can0 475#1F13200000023600
(1427657622.073672) can0 306#12005D0145040000
(1427657622.073924) can0 294#6E079CFFFA00E602
(1427657622.074174) can0 270#3C134C030000F00C
(1427657622.164364) can0 477#8401477887001400
(1427657622.173325) can0 475#1B13200000022E00
(1427657622.173621) can0 306#120060014D040000
(1427657622.173884) can0 294#AE069CFFFA00C402
(1427657622.174134) can0 270#3E13F7020000380D
(1427657622.261387) can0 477#5301647887001400
(1427657622.273116) can0 475#2513200000022900
(1427657622.273501) can0 306#1300620154040000
(1427657622.273769) can0 294#A6059CFFFA008102
(1427657622.274031) can0 270#3E1382020000F40C
(1427657622.358356) can0 477#18018B7887001400
(1427657622.373256) can0 475#2E13200000022300
(1427657622.373614) can0 306#1300640159040000
(1427657622.373891) can0 294#D4049CFFFA003002
(1427657622.374162) can0 270#461325020000F60C
(1427657622.455225) can0 477#E200B67887001400
(1427657622.473375) can0 475#4013200000021B00
(1427657622.473691) can0 306#120066015E040000
(1427657622.473969) can0 294#E2039CFFFA00D301
(1427657622.474221) can0 270#5013B9010000140D
(1427657622.552218) can0 477#AC00DD7887001400
(1427657622.573446) can0 475#4413200000021300
(1427657622.573745) can0 306#1300670163040000
(1427657622.573998) can0 294#A7029CFFFA007A01
(1427657622.574243) can0 270#50132D010000020D
(1427657622.649500) can0 477#76000B7987001400
(1427657622.673478) can0 475#4F13200000020D00
(1427657622.673794) can0 306#1300680164040000
(1427657622.674045) can0 294#47029CFFFA001C01
(1427657622.674332) can0 270#5813030100001F0D
(1427657622.746141) can0 477#5700327987001400
(1427657622.773442) can0 475#4513200000020A00
(1427657622.773919) can0 306#1300670162040000
(1427657622.774185) can0 294#5D019CFFFA00D300
(1427657622.774386) can0 270#63139B000000DF0C
(1427657622.843131) can0 477#38004F7987001400
(1427657622.873382) can0 475#4713200000020800
(1427657622.873903) can0 306#130065015D040000
(1427657622.874197) can0 270#631367000000800C
(1427657622.874490) can0 294#E8009CFFFA009500
(1427657622.940087) can0 477#1000667987001400
(1427657622.973378) can0 475#5313200000020000
(1427657622.973661) can0 306#120064015A040000
(1427657622.974035) can0 294#29009CFFFA005700
(1427657622.974289) can0 270#6B13120000003E0C
(1427657623.037266) can0 477#F5FF927987001400
(1427657623.073373) can0 475#6213200000020000
(1427657623.073775) can0 306#1200630153040000
(1427657623.074026) can0 294#AEFF9CFFFA001C00
(1427657623.074274) can0 270#7313DBFF0000090C
(1427657623.134384) can0 477#D1FFA27987001400
(1427657623.173272) can0 475#6013200000020400
(1427657623.173721) can0 306#120060014D040000
(1427657623.173976) can0 294#20FF9CFFFA00ECFF
(1427657623.174222) can0 270#73139CFF0000E10B
(1427657623.230994) can0 477#BEFFBA7987001400
(1427657623.273561) can0 475#5F13200000020900
(1427657623.274116) can0 294#7DFE9CFFFA00B9FF
(1427657623.274314) can0 270#791354FF0000E40B
(1427657623.328896) can0 477#AFFFDB7987001400
(1427657623.373265) can0 475#7013200000020C00
(1427657623.373593) can0 306#11005C013D040000
(1427657623.374000) can0 294#5EFE9CFFFA0098FF
(1427657623.374354) can0 270#7F1346FF00009D0B
(1427657623.424957) can0 477#99FFEF7987001400
(1427657623.473396) can0 475#6613200000020C00
(1427657623.473730) can0 306#1000580131040000
(1427657623.473980) can0 294#40FE9CFFFA007AFF
(1427657623.474229) can0 270#7F1339FF00005D0B
(1427657623.522745) can0 477#8BFFFA7987001400
(1427657623.573238) can0 475#7813200000020E00
(1427657623.573557) can0 306#1000550127040000
(1427657623.573968) can0 294#80FD9CFFFA0062FF
(1427657623.574620) can0 270#8413E3FE00002A0B
(1427657623.619133) can0 477#87FF0D7A87001400
(1427657623.673330) can0 475#6E13200000021000
(1427657623.673672) can0 306#1000500117040000
(1427657623.673936) can0 294#E2FD9CFFFA0052FF
(1427657623.674185) can0 270#87130FFF0000290B
(1427657623.716189) can0 477#82FF107A87001400
(1427657623.773144) can0 475#7813200000021100
(1427657623.773454) can0 306#10004B010A040000
(1427657623.773850) can0 294#61FD9CFFFA004CFF
(1427657623.774104) can0 270#8713D6FE0000040B
(1427657623.813130) can0 477#70FF1A7A87001400
(1427657623.873346) can0 475#7013200000021300
(1427657623.873849) can0 306#11004801FF030000
(1427657623.874144) can0 294#F8FC9CFFFA0039FF
(1427657623.909771) can0 477#79FF287A87001400
(1427657623.973348) can0 475#70131F0000021200
(1427657623.973674) can0 306#11004201EC030000
(1427657623.973930) can0 294#66FD9CFFFA003AFF
(1427657623.974177) can0 270#8B13D8FE00008E0A
(1427657624.006758) can0 477#64FF257A87001400
(1427657624.073320) can0 475#7A131F0000021900
(1427657624.073654) can0 306#11004101E8030000
(1427657624.073906) can0 294#B1FC9CFFFA001CFF
(1427657624.074160) can0 270#8B1388FE00008F0A
(1427657624.103733) can0 477#50FF417A87001400
(1427657624.173507) can0 475#81131F0000021C00
(1427657624.173816) can0 306#12003E01E1030000
(1427657624.174067) can0 294#EAFB9CFFFA0001FF
(1427657624.174268) can0 270#8F132FFE0000840A
(1427657624.200698) can0 477#3FFF4A7A87001400
(1427657624.273417) can0 475#83131F0000021C00
(1427657624.273749) can0 306#13003A01D4030000
(1427657624.274001) can0 294#FEFB9CFFFA00ECFE
(1427657624.274246) can0 270#931338FE0000490A
(1427657624.297667) can0 477#45FF587A87001400
(1427657624.373439) can0 475#74131F0000021F00
(1427657624.373756) can0 306#13003701CA030000
(1427657624.374006) can0 294#67FB9CFFFA00DFFE
(1427657624.374207) can0 270#9313F5FD00001D0A
(1427657624.394685) can0 477#35FF5E7A87001400
(1427657624.473381) can0 475#7B131F0000021F00
(1427657624.473829) can0 306#13003201BA030000
(1427657624.474050) can0 294#7DFB9CFFFA00D8FE
(1427657624.474313) can0 270#9413FFFD00000C0A
(1427657624.491574) can0 477#34FF697A87001400
(1427657624.573402) can0 475#7B131F0000022200
(1427657624.573737) can0 294#1CFB9CFFFA00CCFE
(1427657624.573960) can0 306#13002E01B0030000
(1427657624.574221) can0 270#9513D4FD0000F809
(1427657624.588547) can0 477#2AFF747A87001400
(1427657624.673366) can0 475#7D131F0000021F00
(1427657624.673693) can0 294#9AFB9CFFFA00CCFE
(1427657624.673903) can0 306#130029019F030000
(1427657624.674152) can0 270#95130CFE0000A909
(1427657624.685501) can0 477#3AFF797A87001400
(1427657624.773346) can0 475#7B131F0000022000
(1427657624.773668) can0 306#1300260194030000
(1427657624.773921) can0 294#86FB9CFFFA00D0FE
(1427657624.774166) can0 270#981303FE0000AC09
(1427657624.782494) can0 477#43FF777A87001400
(1427657624.873304) can0 475#81131F0000022000
(1427657624.873674) can0 306#1300220189030000
(1427657624.874113) can0 270#9713FEFD00007209
(1427657624.874327) can0 294#7AFB9CFFFA00D4FE
(1427657624.879460) can0 477#3FFF727A87001400
(1427657624.973299) can0 475#7D131F0000022000
(1427657624.973708) can0 306#13001E017D030000
(1427657624.973960) can0 294#3CFB9CFFFA00DFFE
(1427657624.974210) can0 270#9713E2FD00007009
(1427657624.976590) can0 477#46FF757A87001400
(1427657625.073413) can0 477#4EFF6D7A87001400
(1427657625.073732) can0 475#7A131F0000021D00
(1427657625.073991) can0 306#13001A016E030000
(1427657625.074193) can0 294#CFFB9CFFFA00EDFE
(1427657625.074441) can0 270#971323FE00001F09
(1427657625.170349) can0 477#55FF757A87001400
(1427657625.173408) can0 475#7D131F0000021D00
(1427657625.173737) can0 306#1300170165030000
(1427657625.173991) can0 294#04FC9CFFFA00F0FE
(1427657625.174240) can0 270#97133AFE00001009
(1427657625.267423) can0 477#53FF6E7A87001400
(1427657625.273242) can0 475#81131F0000021D00
(1427657625.273638) can0 306#130013015B030000
(1427657625.273883) can0 294#B1FB9CFFFA00F8FE
(1427657625.274136) can0 270#971316FE0000FE08
(1427657625.364322) can0 477#59FF6F7A87001400
(1427657625.373347) can0 475#7A131F0000021C00
(1427657625.373649) can0 306#1200100152030000
(1427657625.374222) can0 294#DAFB9CFFFA00FDFE
(1427657625.374456) can0 270#961328FE0000E708
(1427657625.461262) can0 477#78FF6B7A87001400
(1427657625.473384) can0 475#78131F0000021600
(1427657625.473674) can0 306#12000D0147030000
(1427657625.473926) can0 294#A6FC9CFFFA000FFF
(1427657625.474173) can0 270#961382FE0000BE08
(1427657625.558261) can0 477#97FF577A87001400
(1427657625.573464) can0 475#6C131F0000021100
(1427657625.573767) can0 306#1200090139030000
(1427657625.574034) can0 294#6FFD9CFFFA0037FF
(1427657625.574283) can0 270#9613DCFE00009508
(1427657625.655217) can0 477#B3FF3C7A87001400
(1427657625.673414) can0 475#68131F0000020D00
(1427657625.673745) can0 306#120005012E030000
(1427657625.673999) can0 294#4AFE9CFFFA0065FF
(1427657625.674249) can0 270#93133DFF00009008
(1427657625.752162) can0 477#C9FF2E7A87001400
(1427657625.773530) can0 475#70131F0000020800
(1427657625.773847) can0 306#1200020125030000
(1427657625.774101) can0 294#A9FE9CFFFA008BFF
(1427657625.774346) can0 270#8D1367FF00007008
(1427657625.849168) can0 477#DAFF217A87001400
(1427657625.873439) can0 475#72131F0000020500
(1427657625.874097) can0 306#1300000120030000
(1427657625.874505) can0 270#8D1393FF00006D08
(1427657625.946135) can0 477#E5FF167A87001400
(1427657625.973469) can0 475#6C131F0000020000
(1427657625.973752) can0 306#1300FE001C030000
(1427657625.974108) can0 294#C5FF9CFFFA00C6FF
(1427657625.974354) can0 270#8913E5FF00009608
(1427657626.043122) can0 477#0000087A87001400
(1427657626.073450) can0 475#66131F0000020000
(1427657626.073754) can0 306#1300FD0014030000
(1427657626.074010) can0 294#3A009CFFFA00E6FF
