(1427659861.534168) can0 475#6E131F0000000000
(1427659861.534343) can0 306#1300000000000000
(1427659861.534514) can0 294#00009CFFFA000000
(1427659861.534730) can0 270#9013000000000000
(1427659861.567614) can0 477#0500497A77001400
(1427659861.634137) can0 475#7D131E0000000000
(1427659861.634319) can0 306#1300000000000000
(1427659861.634495) can0 294#00009CFFFA000000
(1427659861.634711) can0 270#9013000000000000
(1427659861.664576) can0 477#0500497A77001400
(1427659861.733951) can0 475#70131E0000000000
(1427659861.734335) can0 306#1400000000000000
(1427659861.734594) can0 294#00009CFFFA000000
(1427659861.734846) can0 270#9013000000000000
(1427659861.761546) can0 477#05004A7A77001400
(1427659861.833805) can0 475#78131E0000000000
(1427659861.834149) can0 306#1400000000000000
(1427659861.834399) can0 294#00009CFFFA000000
(1427659861.834638) can0 270#9013000000000000
(1427659861.858529) can0 477#05004A7A77001400
(1427659861.933784) can0 475#72131E0000000000
(1427659861.934236) can0 306#1400000000000000
(1427659861.934485) can0 294#00009CFFFA000000
(1427659861.934726) can0 270#9013000000000000
(1427659861.955522) can0 477#0500497A77001400
(1427659862.033999) can0 475#74131E0000000000
(1427659862.034329) can0 306#1300000000000000
(1427659862.034578) can0 294#00009CFFFA000000
(1427659862.034823) can0 270#9013000000000000
(1427659862.052481) can0 477#05004A7A77001400
(1427659862.133891) can0 475#74131E0000000000
(1427659862.134204) can0 306#1300000000000000
(1427659862.134455) can0 294#00009CFFFA000000
(1427659862.134708) can0 270#9013000000000000
(1427659862.149436) can0 477#05004A7A77001400
(1427659862.233838) can0 475#76131E0000000000
(1427659862.234264) can0 306#1200000000000000
(1427659862.234537) can0 270#9013000000000000
(1427659862.234742) can0 294#00009CFFFA000000
(1427659862.246386) can0 477#05004B7A77001400
(1427659862.333854) can0 475#72131E0000000000
(1427659862.334196) can0 306#1200000000000000
(1427659862.334463) can0 294#00009CFFFA000000
(1427659862.334717) can0 270#9013000000000000
(1427659862.343381) can0 477#0500497A77001400
(1427659862.433859) can0 475#7B131E0000000000
(1427659862.434250) can0 306#1200000000000000
(1427659862.434460) can0 294#00009CFFFA000000
(1427659862.434709) can0 270#9013000000000000
(1427659862.440336) can0 477#05004A7A77001400
(1427659862.533792) can0 475#7A131E0000000000
(1427659862.534091) can0 306#1200000000000000
(1427659862.534340) can0 294#00009CFFFA000000
(1427659862.534586) can0 270#9013000000000000
(1427659862.537301) can0 477#05004B7A77001400
(1427659862.633806) can0 475#6E131E0000000000
(1427659862.634353) can0 306#1200000000000000
(1427659862.634613) can0 294#00009CFFFA000000
(1427659862.634812) can0 477#05004B7A77001400
(1427659862.635057) can0 270#9013000000000000
(1427659862.739677) can0 477#05004A7A77001400
(1427659862.828207) can0 477#05004B7A77001400
(1427659862.833906) can0 475#70131E0000000000
(1427659862.834326) can0 306#1300000000000000
(1427659862.834603) can0 294#00009CFFFA000000
(1427659862.834866) can0 270#9113000000000000
(1427659862.925375) can0 477#05004C7A77001400
(1427659862.933980) can0 475#7D131E0000000000
(1427659862.934391) can0 306#1300000000000000
(1427659862.934729) can0 294#00009CFFFA000000
(1427659862.934986) can0 270#9113000000000000
(1427659863.022142) can0 477#05004B7A77001400
(1427659863.033905) can0 475#76131E0000000000
(1427659863.034265) can0 306#1300000000000000
(1427659863.034520) can0 294#00009CFFFA000000
(1427659863.034769) can0 270#9113000000000000
(1427659863.119151) can0 477#05004B7A77001400
(1427659863.133845) can0 475#78131E0000000000
(1427659863.134160) can0 306#1200000000000000
(1427659863.134414) can0 294#00009CFFFA000000
(1427659863.134659) can0 270#9113000000000000
(1427659863.216106) can0 477#05004C7A77001400
(1427659863.233882) can0 475#74131E0000000000
(1427659863.234300) can0 306#1200000000000000
(1427659863.234588) can0 294#00009CFFFA000000
(1427659863.234851) can0 270#9113000000000000
(1427659863.313110) can0 477#05004B7A77001400
(1427659863.333834) can0 475#7A131E0000000000
(1427659863.334191) can0 306#1300000000000000
(1427659863.334474) can0 294#00009CFFFA000000
(1427659863.335089) can0 270#9113000000000000
(1427659863.410032) can0 477#05004C7A77001400
(1427659863.433842) can0 475#76131E0000000000
(1427659863.434229) can0 306#1400000000000000
(1427659863.434512) can0 294#00009CFFFA000000
(1427659863.434778) can0 270#9113000000000000
(1427659863.507018) can0 477#05004C7A77001400
(1427659863.534278) can0 475#76131E0000000000
(1427659863.534663) can0 306#1500000000000000
(1427659863.534947) can0 294#00009CFFFA000000
(1427659863.535214) can0 270#9113000000000000
(1427659863.603971) can0 477#05004C7A77001400
(1427659863.634235) can0 475#72131E0000000000
(1427659863.634529) can0 306#1500000000000000
(1427659863.634774) can0 294#00009CFFFA000000
(1427659863.635019) can0 270#9113000000000000
(1427659863.700942) can0 477#05004D7A77001400
(1427659863.734211) can0 475#7A131E0000000000
(1427659863.734544) can0 306#1600000000000000
(1427659863.734801) can0 294#00009CFFFA000000
(1427659863.735043) can0 270#9113000000000000
(1427659863.797918) can0 477#05004D7A77001400
(1427659863.834435) can0 475#78131E0000000000
(1427659863.834730) can0 306#1500000000000000
(1427659863.834980) can0 294#00009CFFFA000000
(1427659863.835225) can0 270#9113000000000000
(1427659863.895081) can0 477#05004D7A77001400
(1427659863.934122) can0 475#76131E0000000000
(1427659863.934486) can0 306#1500000000000000
(1427659863.934744) can0 294#00009CFFFA000000
(1427659863.934988) can0 270#9113000000000000
(1427659863.991861) can0 477#05004D7A77001400
(1427659864.034142) can0 475#74131E0000000000
(1427659864.034473) can0 306#1500000000000000
(1427659864.034725) can0 270#9113000000000000
(1427659864.034927) can0 294#00009CFFFA000000
(1427659864.088800) can0 477#05004E7A77001400
(1427659864.134087) can0 475#7A131E0000000000
(1427659864.134441) can0 306#1500000000000000
(1427659864.134693) can0 294#00009CFFFA000000
(1427659864.134940) can0 270#9113000000000000
(1427659864.185782) can0 477#05004E7A77001400
(1427659864.234330) can0 475#74131E0000000000
(1427659864.234628) can0 306#1600000000000000
(1427659864.234874) can0 294#00009CFFFA000000
(1427659864.235119) can0 270#9113000000000000
(1427659864.282764) can0 477#05004E7A77001400
(1427659864.334462) can0 475#76131E0000000000
(1427659864.334774) can0 306#1600000000000000
(1427659864.335027) can0 294#00009CFFFA000000
(1427659864.335275) can0 270#9113000000000000
(1427659864.380015) can0 477#05004E7A77001400
(1427659864.434319) can0 475#6C131E0000000000
(1427659864.434731) can0 306#1600000000000000
(1427659864.434981) can0 294#00009CFFFA000000
(1427659864.435231) can0 270#9113000000000000
(1427659864.477203) can0 477#05004E7A77001400
(1427659864.534175) can0 475#70131E0000000000
(1427659864.534483) can0 306#1700000000000000
(1427659864.534728) can0 294#00009CFFFA000000
(1427659864.534972) can0 270#9113000000000000
(1427659864.573682) can0 477#05004F7A77001400
(1427659864.634238) can0 475#72131E0000000000
(1427659864.634674) can0 306#1700000000000000
(1427659864.634924) can0 294#00009CFFFA000000
(1427659864.635169) can0 270#9113000000000000
(1427659864.671931) can0 477#05004F7A77001400
(1427659864.734143) can0 475#70131E0000000000
(1427659864.734506) can0 306#1700000000000000
(1427659864.734757) can0 294#00009CFFFA000000
(1427659864.735002) can0 270#9113000000000000
(1427659864.767584) can0 477#05004F7A77001400
(1427659864.834137) can0 475#78131E0000000000
(1427659864.834523) can0 306#1800000000000000
(1427659864.834775) can0 294#00009CFFFA000000
(1427659864.835021) can0 270#9113000000000000
(1427659864.864714) can0 477#05004F7A77001400
(1427659864.934077) can0 475#7B131E0000000000
(1427659864.934407) can0 306#1700000000000000
(1427659864.934786) can0 294#00009CFFFA000000
(1427659864.935041) can0 270#9113000000000000
(1427659864.961513) can0 477#05004F7A77001400
(1427659865.033994) can0 475#78131E0000000000
(1427659865.034417) can0 306#1800000000000000
(1427659865.034684) can0 294#00009CFFFA000000
(1427659865.034936) can0 270#9113000000000000
(1427659865.058521) can0 477#05004F7A77001400
(1427659865.133959) can0 475#78131E0000000000
(1427659865.134280) can0 306#1800000000000000
(1427659865.135075) can0 270#9113000000000000
(1427659865.135325) can0 294#00009CFFFA000000
(1427659865.155820) can0 477#05004F7A77001400
(1427659865.233967) can0 475#7D131E0000000000
(1427659865.234407) can0 306#1800000000000000
(1427659865.234685) can0 270#9113000000000000
(1427659865.234890) can0 294#00009CFFFA000000
(1427659865.252438) can0 477#0500507A77001400
(1427659865.333940) can0 475#7B131E0000000000
(1427659865.334255) can0 306#1800000000000000
(1427659865.334504) can0 294#00009CFFFA000000
(1427659865.334748) can0 270#9113000000000000
(1427659865.349418) can0 477#05004F7A77001400
(1427659865.433939) can0 475#70131E0000000000
(1427659865.434288) can0 306#1700000000000000
(1427659865.434588) can0 294#00009CFFFA000000
(1427659865.434835) can0 270#9113000000000000
(1427659865.446396) can0 477#0500507A77001400
(1427659865.533895) can0 475#7B131E0000000000
(1427659865.534208) can0 306#1700000000000000
(1427659865.534483) can0 294#00009CFFFA000000
(1427659865.534737) can0 270#9213000000000000
(1427659865.543379) can0 477#0500517A77001400
(1427659865.633811) can0 475#6A131E0000000000
(1427659865.634113) can0 306#1700000000000000
(1427659865.634479) can0 294#00009CFFFA000000
(1427659865.634735) can0 270#9113000000000000
(1427659865.640269) can0 477#0500517A77001400
(1427659865.733836) can0 475#74131E0000000000
(1427659865.734151) can0 306#1700000000000000
(1427659865.734428) can0 294#00009CFFFA000000
(1427659865.734681) can0 270#9113000000000000
(1427659865.737245) can0 477#0500517A77001400
(1427659865.834061) can0 475#76131E0000000000
(1427659865.834438) can0 306#1700000000000000
(1427659865.834659) can0 294#00009CFFFA000000
(1427659865.834909) can0 270#9213000000000000
(1427659865.835300) can0 477#0500517A77001400
(1427659865.931244) can0 477#0500517A77001400
(1427659865.934034) can0 475#68131E0000000000
(1427659865.934344) can0 306#1700000000000000
(1427659865.934616) can0 294#00009CFFFA000000
(1427659865.934865) can0 270#9213000000000000
(1427659866.028194) can0 477#0500517A77001400
(1427659866.033994) can0 475#70131E0000000000
(1427659866.034329) can0 306#1700000000000000
(1427659866.034627) can0 270#9213000000000000
(1427659866.034834) can0 294#00009CFFFA000000
(1427659866.125206) can0 477#0500517A77001400
(1427659866.133922) can0 475#7B131E0000000000
(1427659866.134206) can0 306#1600000000000000
(1427659866.134453) can0 294#00009CFFFA000000
(1427659866.134700) can0 270#9213000000000000
(1427659866.222253) can0 477#0500517A77001400
(1427659866.234131) can0 475#70131E0000000000
(1427659866.234554) can0 306#1600000000000000
(1427659866.234820) can0 270#9213000000000000
(1427659866.235022) can0 294#00009CFFFA000000
(1427659866.319137) can0 477#0500517A77001400
(1427659866.333864) can0 475#6C131E0000000000
(1427659866.334152) can0 306#1600000000000000
(1427659866.334405) can0 294#00009CFFFA000000
(1427659866.334650) can0 270#9213000000000000
(1427659866.416193) can0 477#0500537A77001400
(1427659866.433807) can0 475#74131E0000000000
(1427659866.434175) can0 306#1500000000000000
(1427659866.434558) can0 270#9213000000000000
(1427659866.434783) can0 294#00009CFFFA000000
(1427659866.513087) can0 477#0500527A77001400
(1427659866.533865) can0 475#7A131E0000000000
(1427659866.534232) can0 306#1500000000000000
(1427659866.534498) can0 294#00009CFFFA000000
(1427659866.534757) can0 270#9213000000000000
(1427659866.610106) can0 477#0500527A77001400
(1427659866.633957) can0 475#7A131E0000000000
(1427659866.634302) can0 306#1400000000000000
(1427659866.634683) can0 270#9213000000000000
(1427659866.634902) can0 294#00009CFFFA000000
(1427659866.707006) can0 477#0500527A77001400
(1427659866.733827) can0 475#72131E0000000000
(1427659866.734262) can0 306#1400000000000000
(1427659866.734521) can0 294#00009CFFFA000000
(1427659866.734783) can0 270#9213000000000000
(1427659866.804120) can0 477#0500537A77001400
(1427659866.833929) can0 475#7B131E0000000000
(1427659866.834289) can0 306#1400000000000000
(1427659866.834665) can0 294#00009CFFFA000000
(1427659866.834887) can0 270#9213000000000000
(1427659866.900918) can0 477#0500537A77001400
(1427659866.933768) can0 475#7F131E0000000000
(1427659866.934205) can0 306#1400000000000000
(1427659866.934464) can0 294#00009CFFFA000000
(1427659866.934727) can0 270#9213000000000000
(1427659866.997934) can0 477#0500547A77001400
(1427659867.033877) can0 475#87131E0000000000
(1427659867.034232) can0 306#1500000000000000
(1427659867.034611) can0 294#00009CFFFA000000
(1427659867.034992) can0 270#9213000000000000
(1427659867.094873) can0 477#0500537A77001400
(1427659867.133857) can0 475#76131E0000000000
(1427659867.134211) can0 306#1500000000000000
(1427659867.134476) can0 294#00009CFFFA000000
(1427659867.134744) can0 270#9213000000000000
(1427659867.191853) can0 477#0500547A77001400
(1427659867.234420) can0 475#76131E0000000000
(1427659867.234888) can0 294#00009CFFFA000000
(1427659867.235124) can0 306#1600000000000000
(1427659867.288861) can0 477#0500537A77001400
(1427659867.334061) can0 475#72131E0000000000
(1427659867.334414) can0 306#1600000000000000
(1427659867.334683) can0 294#00009CFFFA000000
(1427659867.334947) can0 270#9213000000000000
(1427659867.385799) can0 477#0500547A77001400
(1427659867.424312) can0 475#72131E0000000000
(1427659867.424678) can0 306#1500000000000000
(1427659867.424944) can0 294#00009CFFFA000000
(1427659867.425202) can0 270#9213000000000000
(1427659867.482795) can0 477#0500547A77001400
(1427659867.524290) can0 475#6E131E0000000000
(1427659867.524650) can0 306#1500000000000000
(1427659867.524918) can0 294#00009CFFFA000000
(1427659867.525178) can0 270#9213000000000000
(1427659867.580794) can0 477#0500547A77001400
(1427659867.624284) can0 475#7A131E0000000000
(1427659867.624732) can0 306#1400000000000000
(1427659867.624997) can0 294#00009CFFFA000000
(1427659867.625257) can0 270#9213000000000000
(1427659867.677151) can0 477#0500547A77001400
(1427659867.724224) can0 475#78131E0000000000
(1427659867.724589) can0 306#1500000000000000
(1427659867.724857) can0 294#00009CFFFA000000
(1427659867.725115) can0 270#9213000000000000
(1427659867.773678) can0 477#0500547A77001400
(1427659867.824191) can0 475#78131E0000000000
(1427659867.824555) can0 306#1500000000000000
(1427659867.824822) can0 294#00009CFFFA000000
(1427659867.825082) can0 270#9213000000000000
(1427659867.871798) can0 477#0500547A77001400
(1427659867.924167) can0 475#78131E0000000000
(1427659867.924556) can0 306#1500000000000000
(1427659867.924824) can0 294#00009CFFFA000000
(1427659867.925082) can0 270#9213000000000000
(1427659867.967620) can0 477#0500547A77001400
(1427659868.024063) can0 475#78131E0000000000
(1427659868.024428) can0 306#1500000000000000
(1427659868.024697) can0 294#00009CFFFA000000
(1427659868.024958) can0 270#9213000000000000
(1427659868.064596) can0 477#0500557A77001400
(1427659868.124041) can0 475#6A131E0000000000
(1427659868.124418) can0 306#1600000000000000
(1427659868.124688) can0 294#00009CFFFA000000
(1427659868.124950) can0 270#9213000000000000
(1427659868.161542) can0 477#0500557A77001400
(1427659868.224044) can0 475#74131E0000000000
(1427659868.224612) can0 306#1700000000000000
(1427659868.224846) can0 294#00009CFFFA000000
(1427659868.225111) can0 270#9213000000000000
(1427659868.258534) can0 477#0500547A77001400
(1427659868.324034) can0 475#7D131E0000000000
(1427659868.324397) can0 306#1700000000000000
(1427659868.324673) can0 294#00009CFFFA000000
(1427659868.324937) can0 270#9213000000000000
(1427659868.355488) can0 477#0500547A77001400
(1427659868.424039) can0 475#74131E0000000000
(1427659868.424470) can0 306#1700000000000000
(1427659868.424731) can0 294#00009CFFFA000000
(1427659868.425000) can0 270#9213000000000000
(1427659868.452489) can0 477#0500557A77001400
(1427659868.524005) can0 475#7A131E0000000000
(1427659868.524374) can0 306#1700000000000000
(1427659868.524643) can0 294#00009CFFFA000000
(1427659868.524917) can0 270#9213000000000000
(1427659868.549442) can0 477#0500567A77001400
(1427659868.623972) can0 475#7F131E0000000000
(1427659868.624312) can0 306#1700000000000000
(1427659868.624564) can0 294#00009CFFFA000000
(1427659868.624809) can0 270#9213000000000000
(1427659868.646366) can0 477#0500557A77001400
(1427659868.723903) can0 475#76131E0000000000
(1427659868.724237) can0 306#1600000000000000
(1427659868.724525) can0 294#00009CFFFA000000
(1427659868.724775) can0 270#9213000000000000
(1427659868.743517) can0 477#0500567A77001400
(1427659868.823938) can0 475#78131E0000000000
(1427659868.824249) can0 306#1600000000000000
(1427659868.824500) can0 294#00009CFFFA000000
(1427659868.824748) can0 270#9213000000000000
(1427659868.840280) can0 477#0500567A77001400
(1427659868.923864) can0 475#72131E0000000000
(1427659868.924166) can0 306#1500000000000000
(1427659868.924574) can0 294#00009CFFFA000000
(1427659868.924829) can0 270#9213000000000000
(1427659868.937275) can0 477#0500567A77001400
(1427659869.024066) can0 475#7D131E0000000000
(1427659869.024369) can0 306#1600000000000000
(1427659869.024620) can0 294#00009CFFFA000000
(1427659869.024868) can0 270#9213000000000000
(1427659869.034241) can0 477#0500557A77001400
(1427659869.124074) can0 475#74131E0000000000
(1427659869.124370) can0 306#1600000000000000
(1427659869.124632) can0 294#00009CFFFA000000
(1427659869.124886) can0 270#9213000000000000
(1427659869.131166) can0 477#0500577A77001400
(1427659869.224569) can0 294#00009CFFFA000000
(1427659869.225207) can0 270#9313000000000000
(1427659869.228697) can0 477#0500567A77001400
(1427659869.323963) can0 475#6E131E0000000000
(1427659869.324301) can0 306#1600000000000000
(1427659869.324552) can0 294#00009CFFFA000000
(1427659869.324797) can0 270#9313000000000000
(1427659869.325201) can0 477#0500577A77001400
(1427659869.422135) can0 477#0500577A77001400
(1427659869.423879) can0 475#7D131E0000000000
(1427659869.424185) can0 306#1600000000000000
(1427659869.424480) can0 294#00009CFFFA000000
(1427659869.424743) can0 270#9313000000000000
(1427659869.519098) can0 477#0500577A77001400
(1427659869.523922) can0 475#7D131E0000000000
(1427659869.524245) can0 306#1600000000000000
(1427659869.524511) can0 294#00009CFFFA000000
(1427659869.524767) can0 270#9313000000000000
(1427659869.616074) can0 477#0500587A77001400
(1427659869.623861) can0 475#76131E0000000000
(1427659869.624287) can0 306#1600000000000000
(1427659869.624571) can0 294#00009CFFFA000000
(1427659869.624824) can0 270#9313000000000000
(1427659869.713065) can0 477#0500587A77001400
(1427659869.724072) can0 475#74131E0000000000
(1427659869.724381) can0 306#1700000000000000
(1427659869.724657) can0 294#00009CFFFA000000
(1427659869.724903) can0 270#9313000000000000
(1427659869.809999) can0 477#0500587A77001400
(1427659869.824061) can0 475#7F131E0000000000
(1427659869.824357) can0 306#1700000000000000
(1427659869.824630) can0 294#00009CFFFA000000
(1427659869.824882) can0 270#9313000000000000
(1427659869.907024) can0 477#0500597A77001400
(1427659869.924000) can0 475#6C131E0000000000
(1427659869.924293) can0 306#1700000000000000
(1427659869.924579) can0 294#00009CFFFA000000
(1427659869.924842) can0 270#9313000000000000
(1427659870.004092) can0 477#0500597A77001400
(1427659870.024742) can0 294#00009CFFFA000000
(1427659870.025029) can0 270#9313000000000000
(1427659870.100884) can0 477#0500597A77001400
(1427659870.123994) can0 475#7B131E0000000000
(1427659870.124296) can0 306#1700000000000000
(1427659870.124546) can0 294#00009CFFFA000000
(1427659870.124792) can0 270#9313000000000000
(1427659870.197874) can0 477#0500597A77001400
(1427659870.223953) can0 475#76131E0000000000
(1427659870.224242) can0 306#1700000000000000
(1427659870.224502) can0 294#00009CFFFA000000
(1427659870.224748) can0 270#9313000000000000
(1427659870.294843) can0 477#0500597A77001400
(1427659870.324169) can0 475#7D131E0000000000
(1427659870.324467) can0 306#1700000000000000
(1427659870.324715) can0 294#00009CFFFA000000
(1427659870.324973) can0 270#9313000000000000
(1427659870.391821) can0 477#0500597A77001400
(1427659870.424157) can0 475#70131E0000000000
(1427659870.424453) can0 306#1700000000000000
(1427659870.424706) can0 294#00009CFFFA000000
(1427659870.424954) can0 270#9313000000000000
(1427659870.489288) can0 477#0500597A77001400
(1427659870.524310) can0 475#78131E0000000000
(1427659870.524603) can0 306#1600000000000000
(1427659870.525374) can0 270#9313000000000000
(1427659870.525642) can0 294#00009CFFFA000000
(1427659870.586298) can0 477#05005A7A77001400
(1427659870.624333) can0 475#74131E0000000000
(1427659870.624622) can0 306#1600000000000000
(1427659870.624870) can0 294#00009CFFFA000000
(1427659870.625117) can0 270#9313000000000000
(1427659870.683539) can0 477#05005A7A77001400
(1427659870.724264) can0 475#7A131E0000000000
(1427659870.724597) can0 306#1500000000000000
(1427659870.724851) can0 294#00009CFFFA000000
(1427659870.725098) can0 270#9313000000000000
(1427659870.779673) can0 477#05005A7A77001400
(1427659870.824309) can0 475#7B131E0000000000
(1427659870.824598) can0 306#1500000000000000
(1427659870.824851) can0 294#00009CFFFA000000
(1427659870.825098) can0 270#9313000000000000
(1427659870.877917) can0 477#0500597A77001400
(1427659870.924253) can0 475#76131E0000000000
(1427659870.924544) can0 306#1500000000000000
(1427659870.924795) can0 294#00009CFFFA000000
(1427659870.925042) can0 270#9313000000000000
(1427659870.974925) can0 477#0500597A77001400
(1427659871.024246) can0 475#7A131E0000000000
(1427659871.024535) can0 306#1500000000000000
(1427659871.024790) can0 294#00009CFFFA000000
(1427659871.025039) can0 270#9313000000000000
(1427659871.070684) can0 477#0500597A77001400
(1427659871.124198) can0 475#81131E0000000000
(1427659871.124523) can0 306#1500000000000000
(1427659871.124790) can0 294#00009CFFFA000000
(1427659871.125037) can0 270#9313000000000000
(1427659871.170824) can0 477#0500597A77001400
(1427659871.223917) can0 475#74131E0000000000
(1427659871.224577) can0 306#1500000000000000
(1427659871.224848) can0 270#9313000000000000
(1427659871.264576) can0 477#05005A7A77001400
(1427659871.324083) can0 475#7A131E0000000000
(1427659871.324386) can0 306#1400000000000000
(1427659871.324641) can0 294#00009CFFFA000000
(1427659871.324894) can0 270#9313000000000000
(1427659871.361486) can0 477#0500597A77001400
(1427659871.424031) can0 475#7B131E0000000000
(1427659871.424345) can0 306#1400000000000000
(1427659871.424597) can0 294#00009CFFFA000000
(1427659871.424842) can0 270#9313000000000000
(1427659871.458485) can0 477#05005A7A77001400
(1427659871.523998) can0 475#7A131E0000000000
(1427659871.524786) can0 306#1300000000000000
(1427659871.525017) can0 294#00009CFFFA000000
(1427659871.555473) can0 477#0500597A77001400
(1427659871.624224) can0 475#76131E0000000000
(1427659871.624744) can0 294#00009CFFFA000000
(1427659871.624988) can0 306#1300000000000000
(1427659871.652404) can0 477#05005B7A77001400
(1427659871.750952) can0 477#05005B7A77001400
(1427659871.823905) can0 475#6C131E0000000000
(1427659871.824277) can0 306#1200000000000000
(1427659871.824531) can0 294#00009CFFFA000000
(1427659871.824775) can0 270#9313000000000000
(1427659871.846328) can0 477#05005B7A77001400
(1427659871.923894) can0 475#74131E0000000000
(1427659871.924244) can0 306#1200000000000000
(1427659871.924494) can0 294#00009CFFFA000000
(1427659871.924739) can0 270#9313000000000000
(1427659871.943309) can0 477#05005B7A77001400
(1427659872.023931) can0 475#76131E0000000000
(1427659872.024254) can0 306#1300000000000000
(1427659872.024507) can0 294#00009CFFFA000000
(1427659872.024754) can0 270#9313000000000000
(1427659872.040255) can0 477#05005C7A77001400
(1427659872.124166) can0 475#6E131E0000000000
(1427659872.124476) can0 294#00009CFFFA000000
(1427659872.124681) can0 306#1400000000000000
(1427659872.124932) can0 270#9313000000000000
(1427659872.137253) can0 477#05005B7A77001400
(1427659872.224108) can0 475#7D131E0000000000
(1427659872.224432) can0 306#1400000000000000
(1427659872.224684) can0 294#00009CFFFA000000
(1427659872.224890) can0 270#9313000000000000
(1427659872.234235) can0 477#05005C7A77001400
(1427659872.324148) can0 475#78131E0000000000
(1427659872.324475) can0 306#1400000000000000
(1427659872.324725) can0 294#00009CFFFA000000
(1427659872.324971) can0 270#9313000000000000
(1427659872.331235) can0 477#05005C7A77001400
(1427659872.424077) can0 475#7D131E0000000000
(1427659872.424363) can0 306#1400000000000000
(1427659872.424612) can0 294#00009CFFFA000000
(1427659872.425499) can0 270#9313000000000000
(1427659872.428143) can0 477#05005C7A77001400
(1427659872.524006) can0 475#81131E0000000000
(1427659872.524304) can0 306#1500000000000000
(1427659872.524554) can0 294#00009CFFFA000000
(1427659872.524800) can0 270#9313000000000000
(1427659872.525203) can0 477#05005C7A77001400
(1427659872.622238) can0 477#05005B7A77001400
(1427659872.623945) can0 475#78131E0000000000
(1427659872.624390) can0 306#1500000000000000
(1427659872.624649) can0 294#00009CFFFA000000
(1427659872.624909) can0 270#9313000000000000
(1427659872.719072) can0 477#05005C7A77001400
(1427659872.723964) can0 475#7B131E0000000000
(1427659872.724335) can0 306#1500000000000000
(1427659872.724595) can0 294#00009CFFFA000000
(1427659872.724878) can0 270#9313000000000000
(1427659872.815994) can0 477#05005D7A77001400
(1427659872.824134) can0 475#7A131E0000000000
(1427659872.824455) can0 306#1400000000000000
(1427659872.824705) can0 294#00009CFFFA000000
(1427659872.824949) can0 270#9313000000000000
(1427659872.913042) can0 477#05005D7A77001400
(1427659872.924324) can0 475#7A131E0000000000
(1427659872.924622) can0 306#1400000000000000
(1427659872.924870) can0 294#00009CFFFA000000
(1427659872.925118) can0 270#9313000000000000
(1427659873.009943) can0 477#05005C7A77001400
(1427659873.024286) can0 475#7B131E0000000000
(1427659873.024584) can0 306#1400000000000000
(1427659873.024838) can0 294#00009CFFFA000000
(1427659873.025087) can0 270#9413000000000000
(1427659873.106998) can0 477#05005D7A77001400
(1427659873.124192) can0 475#70131E0000000000
(1427659873.124546) can0 306#1400000000000000
(1427659873.124814) can0 294#00009CFFFA000000
(1427659873.125061) can0 270#9413000000000000
(1427659873.203927) can0 477#05005C7A77001400
(1427659873.224294) can0 475#7B131E0000000000
(1427659873.224640) can0 306#1400000000000000
(1427659873.224902) can0 294#00009CFFFA000000
(1427659873.225165) can0 270#9413000000000000
(1427659873.300927) can0 477#05005D7A77001400
(1427659873.324199) can0 475#72131E0000000000
(1427659873.324508) can0 306#1400000000000000
(1427659873.324757) can0 294#00009CFFFA000000
(1427659873.325007) can0 270#9313000000000000
(1427659873.397814) can0 477#05005D7A77001400
(1427659873.424161) can0 475#72131E0000000000
(1427659873.424480) can0 306#1400000000000000
(1427659873.424730) can0 294#00009CFFFA000000
(1427659873.424975) can0 270#9413000000000000
(1427659873.494855) can0 477#05005D7A77001400
(1427659873.524233) can0 475#78131E0000000000
(1427659873.525004) can0 306#1400000000000000
(1427659873.525331) can0 294#00009CFFFA000000
(1427659873.591782) can0 477#05005D7A77001400
(1427659873.624173) can0 475#78131E0000000000
(1427659873.624510) can0 306#1500000000000000
(1427659873.624879) can0 294#00009CFFFA000000
(1427659873.625126) can0 270#9413000000000000
(1427659873.689606) can0 477#05005E7A77001400
(1427659873.724300) can0 475#7B131E0000000000
(1427659873.724644) can0 306#1500000000000000
(1427659873.724896) can0 294#00009CFFFA000000
(1427659873.725144) can0 270#9413000000000000
(1427659873.785934) can0 477#05005E7A77001400
(1427659873.824455) can0 475#74131E0000000000
(1427659873.825145) can0 306#1500000000000000
(1427659873.882872) can0 477#05005E7A77001400
(1427659873.979641) can0 477#05005E7A77001400
(1427659874.024341) can0 475#7B131E0000000000
(1427659874.024654) can0 294#00009CFFFA000000
(1427659874.024860) can0 306#1400000000000000
(1427659874.025109) can0 270#9413000000000000
(1427659874.076607) can0 477#05005E7A77001400
(1427659874.124270) can0 475#6E131E0000000000
(1427659874.124577) can0 306#1400000000000000
(1427659874.124973) can0 294#00009CFFFA000000
(1427659874.125227) can0 270#9413000000000000
(1427659874.174879) can0 477#05005E7A77001400
(1427659874.224216) can0 475#7A131E0000000000
(1427659874.224514) can0 306#1300000000000000
(1427659874.224765) can0 294#00009CFFFA000000
(1427659874.225009) can0 270#9413000000000000
(1427659874.270716) can0 477#05005F7A77001400
(1427659874.323983) can0 475#72131E0000000000
(1427659874.324295) can0 306#1400000000000000
(1427659874.324688) can0 294#00009CFFFA000000
(1427659874.325617) can0 270#9413000000000000
(1427659874.367571) can0 477#05005F7A77001400
(1427659874.424108) can0 475#7A131E0000000000
(1427659874.424410) can0 306#1400000000000000
(1427659874.424670) can0 294#00009CFFFA000000
(1427659874.424917) can0 270#9413000000000000
(1427659874.464532) can0 477#05005E7A77001400
(1427659874.524147) can0 475#74131E0000000000
(1427659874.524465) can0 306#1500000000000000
(1427659874.524716) can0 294#00009CFFFA000000
(1427659874.524963) can0 270#9413000000000000
(1427659874.561679) can0 477#0500607A77001400
(1427659874.624136) can0 475#7A131E0000000000
(1427659874.624430) can0 306#1500000000000000
(1427659874.624681) can0 294#00009CFFFA000000
(1427659874.624924) can0 270#9413000000000000
(1427659874.658435) can0 477#05005F7A77001400
(1427659874.724023) can0 475#72131E0000000000
(1427659874.724361) can0 306#1500000000000000
(1427659874.724626) can0 294#00009CFFFA000000
(1427659874.724874) can0 270#9413000000000000
(1427659874.755433) can0 477#05005F7A77001400
(1427659874.824014) can0 475#78131E0000000000
(1427659874.824315) can0 306#1500000000000000
(1427659874.824562) can0 294#00009CFFFA000000
(1427659874.824804) can0 270#9413000000000000
(1427659874.852423) can0 477#05005F7A77001400
(1427659874.924019) can0 475#74131D0000000000
(1427659874.924340) can0 306#1500000000000000
(1427659874.924589) can0 294#00009CFFFA000000
(1427659874.924832) can0 270#9413000000000000
(1427659874.949417) can0 477#05005F7A77001400
(1427659875.023981) can0 475#7A131E0000000000
(1427659875.024332) can0 306#1400000000000000
(1427659875.024597) can0 294#00009CFFFA000000
(1427659875.024847) can0 270#9413000000000000
(1427659875.046304) can0 477#0500607A77001400
(1427659875.123952) can0 475#6A131E0000000000
(1427659875.124264) can0 306#1400000000000000
(1427659875.124530) can0 294#00009CFFFA000000
(1427659875.124794) can0 270#9413000000000000
(1427659875.143306) can0 477#0500607A77001400
(1427659875.224377) can0 306#1400000000000000
(1427659875.224804) can0 294#00009CFFFA000000
(1427659875.225626) can0 270#9413000000000000
(1427659875.240259) can0 477#0500607A77001400
(1427659875.324134) can0 475#74131D0000000000
(1427659875.324470) can0 306#1500000000000000
(1427659875.324724) can0 294#00009CFFFA000000
(1427659875.324968) can0 270#9413000000000000
(1427659875.337242) can0 477#0500607A77001400
(1427659875.424149) can0 475#74131E0000000000
(1427659875.424421) can0 306#1500000000000000
(1427659875.424669) can0 294#00009CFFFA000000
(1427659875.424910) can0 270#9413000000000000
(1427659875.434193) can0 477#0500617A77001400
(1427659875.524236) can0 306#1500000000000000
(1427659875.524694) can0 294#00009CFFFA000000
(1427659875.525131) can0 270#9413000000000000
(1427659875.531184) can0 477#0500617A77001400
(1427659875.623993) can0 475#7A131E0000000000
(1427659875.624356) can0 306#1500000000000000
(1427659875.624605) can0 294#00009CFFFA000000
(1427659875.624852) can0 270#9413000000000000
(1427659875.628153) can0 477#05005F7A77001400
(1427659875.723986) can0 475#7B131D0000000000
(1427659875.724302) can0 306#1500000000000000
(1427659875.724550) can0 294#00009CFFFA000000
(1427659875.724799) can0 270#9413000000000000
(1427659875.725241) can0 477#0500617A77001400
(1427659875.822425) can0 477#0500617A77001400
(1427659875.823950) can0 475#7B131D0000000000
(1427659875.824286) can0 306#1600000000000000
(1427659875.824780) can0 294#00009CFFFA000000
(1427659875.825001) can0 270#9413000000000000
(1427659875.919068) can0 477#0500617A77001400
(1427659875.924076) can0 475#7F131D0000000000
(1427659875.924394) can0 306#1600000000000000
(1427659875.924985) can0 294#00009CFFFA000000
(1427659875.925213) can0 270#9413000000000000
(1427659876.016043) can0 477#0500627A77001400
(1427659876.024353) can0 475#7A131D0000000000
(1427659876.024695) can0 306#1600000000000000
(1427659876.024960) can0 294#00009CFFFA000000
(1427659876.025220) can0 270#9413000000000000
(1427659876.112991) can0 477#0500617A77001400
(1427659876.124095) can0 475#72131E0000000000
(1427659876.124427) can0 306#1600000000000000
(1427659876.124704) can0 294#00009CFFFA000000
(1427659876.125496) can0 270#9413000000000000
(1427659876.209953) can0 477#0500617A77001400
(1427659876.224310) can0 475#7B131D0000000000
(1427659876.224610) can0 306#1700000000000000
(1427659876.224859) can0 294#00009CFFFA000000
(1427659876.225109) can0 270#9413000000000000
(1427659876.307339) can0 477#0500617A77001400
(1427659876.324225) can0 475#78131D0000000000
(1427659876.324543) can0 306#1700000000000000
(1427659876.324824) can0 294#00009CFFFA000000
(1427659876.325070) can0 270#9413000000000000
(1427659876.403872) can0 477#0500617A77001400
(1427659876.424243) can0 475#7F131D0000000000
(1427659876.424556) can0 306#1600000000000000
(1427659876.424805) can0 294#00009CFFFA000000
(1427659876.425049) can0 270#9413000000000000
(1427659876.501049) can0 477#0500627A77001400
(1427659876.524189) can0 475#76131D0000000000
(1427659876.524493) can0 306#1600000000000000
(1427659876.524752) can0 294#00009CFFFA000000
(1427659876.524995) can0 270#9413000000000000
(1427659876.597840) can0 477#0500627A77001400
(1427659876.624229) can0 475#70131D0000000000
(1427659876.624521) can0 306#1500000000000000
(1427659876.624777) can0 294#00009CFFFA000000
(1427659876.625035) can0 270#9413000000000000
(1427659876.694763) can0 477#0500617A77001400
(1427659876.724212) can0 475#74131D0000000000
(1427659876.724527) can0 306#1500000000000000
(1427659876.724790) can0 294#00009CFFFA000000
(1427659876.725058) can0 270#9413000000000000
(1427659876.791749) can0 477#0500617A77001400
(1427659876.824372) can0 475#78131D0000000000
(1427659876.824689) can0 306#1500000000000000
(1427659876.824941) can0 294#00009CFFFA000000
(1427659876.825187) can0 270#9413000000000000
(1427659876.888776) can0 477#0500627A77001400
(1427659876.924394) can0 475#7B131D0000000000
(1427659876.924711) can0 306#1500000000000000
(1427659876.924961) can0 294#00009CFFFA000000
(1427659876.925212) can0 270#9413000000000000
(1427659876.985696) can0 477#0500627A77001400
(1427659877.024336) can0 475#85131D0000000000
(1427659877.024634) can0 306#1400000000000000
(1427659877.024892) can0 294#00009CFFFA000000
(1427659877.025139) can0 270#9413000000000000
(1427659877.083671) can0 477#0500627A77001400
(1427659877.124124) can0 475#70131D0000000000
(1427659877.124428) can0 306#1500000000000000
(1427659877.124814) can0 294#00009CFFFA000000
(1427659877.125066) can0 270#9413000000000000
(1427659877.180833) can0 477#0500627A77001400
(1427659877.224984) can0 294#00009CFFFA000000
(1427659877.225438) can0 270#9413000000000000
(1427659877.277749) can0 477#0500627A77001400
(1427659877.324080) can0 475#7A131D0000000000
(1427659877.324383) can0 306#1600000000000000
(1427659877.324781) can0 294#00009CFFFA000000
(1427659877.325033) can0 270#9413000000000000
(1427659877.374752) can0 477#0500627A77001400
(1427659877.424015) can0 475#7A131D0000000000
(1427659877.424479) can0 306#1500000000000000
(1427659877.424733) can0 294#00009CFFFA000000
(1427659877.424981) can0 270#9413000000000000
(1427659877.470596) can0 477#0500627A77001400
(1427659877.523961) can0 475#72131D0000000000
(1427659877.524425) can0 306#1500000000000000
(1427659877.524679) can0 294#00009CFFFA000000
(1427659877.524937) can0 270#9413000000000000
(1427659877.567521) can0 477#0500637A77001400
(1427659877.624226) can0 475#7F131D0000000000
(1427659877.624508) can0 306#1400000000000000
(1427659877.624757) can0 294#00009CFFFA000000
(1427659877.625007) can0 270#9413000000000000
(1427659877.664481) can0 477#0500627A77001400
(1427659877.724110) can0 475#70131D0000000000
(1427659877.724456) can0 306#1400000000000000
(1427659877.724713) can0 294#00009CFFFA000000
(1427659877.724960) can0 270#9413000000000000
(1427659877.761532) can0 477#0500627A77001400
(1427659877.824075) can0 475#78131D0000000000
(1427659877.824389) can0 306#1400000000000000
(1427659877.824641) can0 294#00009CFFFA000000
(1427659877.824887) can0 270#9413000000000000
(1427659877.858457) can0 477#0500637A77001400
(1427659877.924133) can0 475#7F131D0000000000
(1427659877.924444) can0 306#1400000000000000
(1427659877.924698) can0 294#00009CFFFA000000
(1427659877.924946) can0 270#9413000000000000
(1427659877.955454) can0 477#0500617A77001400
(1427659878.024047) can0 475#7A131D0000000000
(1427659878.024357) can0 306#1500000000000000
(1427659878.024609) can0 294#00009CFFFA000000
(1427659878.024860) can0 270#9413000000000000
(1427659878.052345) can0 477#0500637A77001400
(1427659878.123989) can0 475#7A131D0000000000
(1427659878.124326) can0 306#1500000000000000
(1427659878.124581) can0 294#00009CFFFA000000
(1427659878.124834) can0 270#9413000000000000
(1427659878.149298) can0 477#0500627A77001400
(1427659878.224008) can0 475#78131D0000000000
(1427659878.224358) can0 306#1500000000000000
(1427659878.224626) can0 294#00009CFFFA000000
(1427659878.224887) can0 270#9413000000000000
(1427659878.246310) can0 477#0500627A77001400
(1427659878.323999) can0 475#76131D0000000000
(1427659878.324297) can0 306#1500000000000000
(1427659878.324652) can0 294#00009CFFFA000000
(1427659878.324913) can0 270#9413000000000000
(1427659878.343271) can0 477#0500637A77001400
(1427659878.424180) can0 475#76131D0000000000
(1427659878.424487) can0 306#1600000000000000
(1427659878.424736) can0 294#00009CFFFA000000
(1427659878.424983) can0 270#9413000000000000
(1427659878.440403) can0 477#0500647A77001400
(1427659878.524186) can0 475#7B131D0000000000
(1427659878.524479) can0 306#1600000000000000
(1427659878.524726) can0 294#00009CFFFA000000
(1427659878.524978) can0 270#9513000000000000
(1427659878.537184) can0 477#0500637A77001400
(1427659878.624181) can0 475#76131D0000000000
(1427659878.624505) can0 306#1600000000000000
(1427659878.624781) can0 294#00009CFFFA000000
(1427659878.625041) can0 270#9513000000000000
(1427659878.634228) can0 477#0500657A77001400
(1427659878.724069) can0 475#7B131D0000000000
(1427659878.724431) can0 306#1700000000000000
(1427659878.724684) can0 294#00009CFFFA000000
(1427659878.724932) can0 270#9513000000000000
(1427659878.731129) can0 477#0500647A77001400
(1427659878.824045) can0 475#74131D0000000000
(1427659878.824388) can0 306#1600000000000000
(1427659878.824645) can0 294#00009CFFFA000000
(1427659878.824897) can0 270#9513000000000000
(1427659878.828082) can0 477#0500647A77001400
(1427659878.924086) can0 475#7A131D0000000000
(1427659878.924389) can0 306#1600000000000000
(1427659878.924637) can0 294#00009CFFFA000000
(1427659878.924883) can0 270#9513000000000000
(1427659878.925319) can0 477#0500647A77001400
(1427659879.022090) can0 477#0500657A77001400
(1427659879.024222) can0 475#81131D0000000000
(1427659879.024508) can0 306#1600000000000000
(1427659879.024772) can0 294#00009CFFFA000000
(1427659879.025058) can0 270#9513000000000000
(1427659879.119054) can0 477#0500657A77001400
(1427659879.124524) can0 475#7B131D0000000000
(1427659879.124825) can0 294#00009CFFFA000000
(1427659879.125031) can0 306#1600000000000000
(1427659879.125283) can0 270#9513000000000000
(1427659879.216054) can0 477#0500657A77001400
(1427659879.224388) can0 475#70131D0000000000
(1427659879.224772) can0 306#1600000000000000
(1427659879.225051) can0 294#00009CFFFA000000
(1427659879.225316) can0 270#9513000000000000
(1427659879.312983) can0 477#0500667A77001400
(1427659879.324360) can0 475#76131D0000000000
(1427659879.324669) can0 306#1500000000000000
(1427659879.324918) can0 294#00009CFFFA000000
(1427659879.325163) can0 270#9513000000000000
(1427659879.409945) can0 477#0500657A77001400
(1427659879.424333) can0 475#78131D0000000000
(1427659879.424641) can0 306#1500000000000000
(1427659879.424895) can0 294#00009CFFFA000000
(1427659879.425140) can0 270#9513000000000000
(1427659879.506932) can0 477#0500657A77001400
(1427659879.524306) can0 475#7D131D0000000000
(1427659879.524611) can0 306#1600000000000000
(1427659879.524867) can0 294#00009CFFFA000000
(1427659879.525117) can0 270#9513000000000000
(1427659879.603887) can0 477#0500667A77001400
(1427659879.624270) can0 475#6E131D0000000000
(1427659879.624579) can0 306#1600000000000000
(1427659879.624837) can0 294#00009CFFFA000000
(1427659879.625086) can0 270#9513000000000000
(1427659879.700877) can0 477#0500657A77001400
(1427659879.724254) can0 475#78131D0000000000
(1427659879.724550) can0 306#1600000000000000
(1427659879.725782) can0 270#9513000000000000
(1427659879.726059) can0 294#00009CFFFA000000
(1427659879.797784) can0 477#0500657A77001400
(1427659879.824163) can0 475#7B131D0000000000
(1427659879.824479) can0 306#1600000000000000
(1427659879.824746) can0 294#00009CFFFA000000
(1427659879.824992) can0 270#9513000000000000
(1427659879.894764) can0 477#0500677A77001400
(1427659879.924280) can0 475#7B131D0000000000
(1427659879.924600) can0 306#1600000000000000
(1427659879.924850) can0 294#00009CFFFA000000
(1427659879.925098) can0 270#9513000000000000
(1427659879.992846) can0 477#0500667A77001400
(1427659880.024441) can0 475#78131D0000000000
(1427659880.024729) can0 306#1600000000000000
(1427659880.024981) can0 294#00009CFFFA000000
(1427659880.025227) can0 270#9513000000000000
(1427659880.088711) can0 477#0500677A77001400
(1427659880.124407) can0 475#76131D0000000000
(1427659880.124705) can0 306#1600000000000000
(1427659880.124952) can0 294#00009CFFFA000000
(1427659880.126095) can0 270#9513000000000000
(1427659880.185698) can0 477#0500677A77001400
(1427659880.224389) can0 475#7D131D0000000000
(1427659880.224677) can0 306#1600000000000000
(1427659880.224926) can0 294#00009CFFFA000000
(1427659880.225173) can0 270#9513000000000000
(1427659880.282674) can0 477#0500677A77001400
(1427659880.324307) can0 475#7B131D0000000000
(1427659880.324649) can0 306#1700000000000000
(1427659880.324914) can0 294#00009CFFFA000000
(1427659880.325186) can0 270#9513000000000000
(1427659880.379912) can0 477#0500677A77001400
(1427659880.424370) can0 475#7D131D0000000000
(1427659880.424694) can0 306#1700000000000000
(1427659880.424948) can0 294#00009CFFFA000000
(1427659880.425194) can0 270#9513000000000000
(1427659880.477016) can0 477#0500677A77001400
(1427659880.524110) can0 475#7F131D0000000000
(1427659880.524494) can0 306#1600000000000000
(1427659880.524768) can0 294#00009CFFFA000000
(1427659880.525016) can0 270#9513000000000000
(1427659880.574743) can0 477#0500677A77001400
(1427659880.624229) can0 475#7B131D0000000000
(1427659880.624520) can0 306#1600000000000000
(1427659880.624773) can0 294#00009CFFFA000000
(1427659880.625018) can0 270#9513000000000000
(1427659880.671618) can0 477#0500677A77001400
(1427659880.724256) can0 475#78131D0000000000
(1427659880.724541) can0 306#1600000000000000
(1427659880.724789) can0 294#00009CFFFA000000
(1427659880.725035) can0 270#9513000000000000
(1427659880.767511) can0 477#0500687A77001400
(1427659880.824206) can0 475#81131D0000000000
(1427659880.824498) can0 306#1600000000000000
(1427659880.824749) can0 294#00009CFFFA000000
(1427659880.824999) can0 270#9513000000000000
(1427659880.864475) can0 477#0500677A77001400
(1427659880.924162) can0 475#74131D0000000000
(1427659880.924477) can0 306#1500000000000000
(1427659880.924732) can0 294#00009CFFFA000000
(1427659880.924977) can0 270#9513000000000000
(1427659880.961455) can0 477#0500677A77001400
(1427659881.024157) can0 475#7A131D0000000000
(1427659881.024453) can0 306#1500000000000000
(1427659881.024705) can0 294#00009CFFFA000000
(1427659881.024954) can0 270#9513000000000000
(1427659881.058428) can0 477#0500687A77001400
(1427659881.123962) can0 475#7A131D0000000000
(1427659881.124380) can0 306#1500000000000000
(1427659881.124634) can0 294#00009CFFFA000000
(1427659881.124888) can0 270#9513000000000000
(1427659881.155390) can0 477#0500687A77001400
(1427659881.224049) can0 475#81131D0000000000
(1427659881.224390) can0 306#1500000000000000
(1427659881.224652) can0 294#00009CFFFA000000
(1427659881.224913) can0 270#9513000000000000
(1427659881.252358) can0 477#0500687A77001400
(1427659881.324178) can0 475#7A131D0000000000
(1427659881.324465) can0 306#1500000000000000
(1427659881.324717) can0 294#00009CFFFA000000
(1427659881.324964) can0 270#9513000000000000
(1427659881.349302) can0 477#0500687A77001400
(1427659881.424142) can0 475#85131D0000000000
(1427659881.424560) can0 306#1500000000000000
(1427659881.424831) can0 294#00009CFFFA000000
(1427659881.425083) can0 270#9513000000000000
(1427659881.446295) can0 477#0500687A77001400
(1427659881.524308) can0 475#7A131D0000000000
(1427659881.525097) can0 294#00009CFFFA000000
(1427659881.525332) can0 306#1400000000000000
(1427659881.543278) can0 477#0500687A77001400
(1427659881.624182) can0 475#70131D0000000000
(1427659881.624491) can0 306#1400000000000000
(1427659881.624741) can0 294#00009CFFFA000000
(1427659881.624988) can0 270#9513000000000000
(1427659881.640200) can0 477#0500697A77001400
(1427659881.724220) can0 475#70131D0000000000
(1427659881.724642) can0 306#1400000000000000
(1427659881.724889) can0 294#00009CFFFA000000
(1427659881.725136) can0 270#9513000000000000
(1427659881.737186) can0 477#0500697A77001400
(1427659881.824191) can0 475#78131D0000000000
(1427659881.824490) can0 306#1400000000000000
(1427659881.824738) can0 294#00009CFFFA000000
(1427659881.824986) can0 270#9513000000000000
(1427659881.834141) can0 477#0500687A77001400
(1427659881.924068) can0 475#76131D0000000000
(1427659881.924481) can0 306#1500000000000000
(1427659881.924729) can0 294#00009CFFFA000000
(1427659881.924976) can0 270#9513000000000000
(1427659881.931107) can0 477#0500677A77001400
(1427659882.024112) can0 475#76131D0000000000
(1427659882.024559) can0 306#1500000000000000
(1427659882.024810) can0 294#00009CFFFA000000
(1427659882.025061) can0 270#9513000000000000
(1427659882.028062) can0 477#0500697A77001400
(1427659882.124147) can0 475#74131D0000000000
(1427659882.124523) can0 306#1500000000000000
(1427659882.124767) can0 294#00009CFFFA000000
(1427659882.125012) can0 270#9513000000000000
(1427659882.125440) can0 477#0500687A77001400
(1427659882.222065) can0 477#0500687A77001400
(1427659882.224266) can0 475#7D131D0000000000
(1427659882.224568) can0 306#1500000000000000
(1427659882.224828) can0 294#00009CFFFA000000
(1427659882.225075) can0 270#9513000000000000
(1427659882.319227) can0 477#0500697A77001400
(1427659882.324511) can0 475#74131D0000000000
(1427659882.324803) can0 306#1400000000000000
(1427659882.325082) can0 294#00009CFFFA000000
(1427659882.325358) can0 270#9513000000000000
(1427659882.415981) can0 477#0500697A77001400
(1427659882.424438) can0 475#72131D0000000000
(1427659882.424775) can0 306#1400000000000000
(1427659882.425037) can0 294#00009CFFFA000000
(1427659882.425293) can0 270#9513000000000000
(1427659882.512926) can0 477#0500697A77001400
(1427659882.525474) can0 306#1400000000000000
(1427659882.525759) can0 270#9513000000000000
(1427659882.609912) can0 477#05006A7A77001400
(1427659882.624470) can0 475#7D131D0000000000
(1427659882.624795) can0 306#1400000000000000
(1427659882.625062) can0 294#00009CFFFA000000
(1427659882.625310) can0 270#9513000000000000
(1427659882.706903) can0 477#05006A7A77001400
(1427659882.724205) can0 475#7F131D0000000000
(1427659882.724479) can0 306#1400000000000000
(1427659882.724730) can0 294#00009CFFFA000000
(1427659882.724979) can0 270#9613000000000000
(1427659882.803820) can0 477#05006A7A77001400
(1427659882.824342) can0 475#7A131D0000000000
(1427659882.824646) can0 306#1400000000000000
(1427659882.824895) can0 294#00009CFFFA000000
(1427659882.825139) can0 270#9613000000000000
(1427659882.901263) can0 477#05006A7A77001400
(1427659882.924520) can0 475#7A131D0000000000
(1427659882.924813) can0 306#1500000000000000
(1427659882.925063) can0 294#00009CFFFA000000
(1427659882.925315) can0 270#9613000000000000
(1427659882.998864) can0 477#05006A7A77001400
(1427659883.024556) can0 475#7B131D0000000000
(1427659883.024835) can0 306#1500000000000000
(1427659883.025086) can0 294#00009CFFFA000000
(1427659883.025332) can0 270#9613000000000000
(1427659883.094732) can0 477#05006A7A77001400
(1427659883.124579) can0 475#74131D0000000000
(1427659883.124890) can0 306#1500000000000000
(1427659883.125142) can0 294#00009CFFFA000000
(1427659883.125388) can0 270#9513000000000000
(1427659883.192339) can0 477#0500697A77001400
(1427659883.224511) can0 475#7D131D0000000000
(1427659883.224942) can0 306#1500000000000000
(1427659883.225192) can0 294#00009CFFFA000000
(1427659883.225706) can0 270#9513000000000000
(1427659883.289768) can0 477#05006A7A77001400
(1427659883.324489) can0 475#7B131D0000000000
(1427659883.324798) can0 306#1500000000000000
(1427659883.325364) can0 270#9613000000000000
(1427659883.325609) can0 294#00009CFFFA000000
(1427659883.385699) can0 477#05006A7A77001400
(1427659883.424441) can0 475#76131D0000000000
(1427659883.424752) can0 306#1500000000000000
(1427659883.425011) can0 294#00009CFFFA000000
(1427659883.425261) can0 270#9613000000000000
(1427659883.482639) can0 477#05006B7A77001400
(1427659883.524495) can0 475#7D131D0000000000
(1427659883.524815) can0 306#1400000000000000
(1427659883.525063) can0 294#00009CFFFA000000
(1427659883.525312) can0 270#9613000000000000
(1427659883.580726) can0 477#05006A7A77001400
(1427659883.624363) can0 475#7F131D0000000000
(1427659883.624664) can0 306#1400000000000000
(1427659883.624918) can0 294#00009CFFFA000000
(1427659883.625166) can0 270#9613000000000000
(1427659883.677012) can0 477#05006A7A77001400
(1427659883.724420) can0 475#76131D0000000000
(1427659883.724694) can0 306#1400000000000000
(1427659883.724940) can0 294#00009CFFFA000000
(1427659883.725185) can0 270#9613000000000000
(1427659883.774031) can0 477#05006A7A77001400
(1427659883.824314) can0 475#7A131D0000000000
(1427659883.824639) can0 306#1400000000000000
(1427659883.824883) can0 294#00009CFFFA000000
(1427659883.825141) can0 270#9613000000000000
(1427659883.870914) can0 477#05006B7A77001400
(1427659883.924347) can0 475#78131D0000000000
(1427659883.924665) can0 306#1500000000000000
(1427659883.924914) can0 294#00009CFFFA000000
(1427659883.925161) can0 270#9613000000000000
(1427659883.967468) can0 477#05006C7A77001400
(1427659884.024261) can0 475#70131D0000000000
(1427659884.024556) can0 306#1500000000000000
(1427659884.024926) can0 294#00009CFFFA000000
(1427659884.025170) can0 270#9613000000000000
(1427659884.064437) can0 477#05006A7A77001400
(1427659884.124258) can0 475#83131D0000000000
(1427659884.124645) can0 306#1600000000000000
(1427659884.124921) can0 294#00009CFFFA000000
(1427659884.125173) can0 270#9613000000000000
(1427659884.161455) can0 477#05006B7A77001400
(1427659884.224233) can0 475#72131D0000000000
(1427659884.224577) can0 306#1700000000000000
(1427659884.224825) can0 294#00009CFFFA000000
(1427659884.225072) can0 270#9613000000000000
(1427659884.258561) can0 477#05006B7A77001400
(1427659884.324154) can0 475#6C131D0000000000
(1427659884.324453) can0 306#1700000000000000
(1427659884.324712) can0 294#00009CFFFA000000
(1427659884.324976) can0 270#9613000000000000
(1427659884.355508) can0 477#05006B7A77001400
(1427659884.424396) can0 475#72131D0000000000
(1427659884.424713) can0 306#1600000000000000
(1427659884.424961) can0 294#00009CFFFA000000
(1427659884.425206) can0 270#9613000000000000
(1427659884.452341) can0 477#05006B7A77001400
(1427659884.524174) can0 475#6C131D0000000000
(1427659884.524563) can0 306#1500000000000000
(1427659884.524809) can0 294#00009CFFFA000000
(1427659884.525053) can0 270#9613000000000000
(1427659884.549322) can0 477#05006B7A77001400
(1427659884.624240) can0 475#7A131D0000000000
(1427659884.624603) can0 306#1500000000000000
(1427659884.624875) can0 294#00009CFFFA000000
(1427659884.625141) can0 270#9613000000000000
(1427659884.646251) can0 477#05006B7A77001400
(1427659884.724353) can0 475#7D131D0000000000
(1427659884.724674) can0 294#00009CFFFA000000
(1427659884.724881) can0 306#1500000000000000
(1427659884.725127) can0 270#9613000000000000
(1427659884.743225) can0 477#05006B7A77001400
(1427659884.824214) can0 475#74131D0000000000
(1427659884.824507) can0 306#1400000000000000
(1427659884.824758) can0 294#00009CFFFA000000
(1427659884.825007) can0 270#9613000000000000
(1427659884.840218) can0 477#05006C7A77001400
(1427659884.924213) can0 475#74131D0000000000
(1427659884.924528) can0 306#1400000000000000
(1427659884.924776) can0 294#00009CFFFA000000
(1427659884.925025) can0 270#9613000000000000
(1427659884.937180) can0 477#05006B7A77001400
(1427659885.024139) can0 475#76131D0000000000
(1427659885.024442) can0 306#1400000000000000
(1427659885.024697) can0 294#00009CFFFA000000
(1427659885.024947) can0 270#9613000000000000
(1427659885.034158) can0 477#05006B7A77001400
(1427659885.124163) can0 475#76131D0000000000
(1427659885.124974) can0 294#00009CFFFA000000
(1427659885.125233) can0 306#1400000000000000
(1427659885.131100) can0 477#05006B7A77001400
(1427659885.224422) can0 306#1400000000000000
(1427659885.224763) can0 294#00009CFFFA000000
(1427659885.225033) can0 270#9613000000000000
(1427659885.228459) can0 477#05006B7A77001400
(1427659885.324153) can0 475#7B131D0000000000
(1427659885.324606) can0 306#1400000000000000
(1427659885.324858) can0 294#00009CFFFA000000
(1427659885.325209) can0 270#9613000000000000
(1427659885.325568) can0 477#05006D7A77001400
(1427659885.422019) can0 477#05006C7A77001400
(1427659885.424549) can0 475#6E131D0000000000
(1427659885.424833) can0 306#1400000000000000
(1427659885.425086) can0 294#00009CFFFA000000
(1427659885.425334) can0 270#9613000000000000
(1427659885.519008) can0 477#06006D7A77001400
(1427659885.524477) can0 475#7A131D0000000000
(1427659885.524783) can0 306#1400000000000000
(1427659885.525049) can0 294#00009CFFFA000000
(1427659885.525300) can0 270#9613000000000000
(1427659885.615950) can0 477#05006B7A77001400
(1427659885.624254) can0 475#81131D0000000000
(1427659885.624538) can0 306#1500000000000000
(1427659885.624808) can0 294#00009CFFFA000000
(1427659885.625055) can0 270#9613000000000000
(1427659885.712945) can0 477#05006D7A77001400
(1427659885.724244) can0 475#7D131D0000000000
(1427659885.724540) can0 306#1500000000000000
(1427659885.724793) can0 294#00009CFFFA000000
(1427659885.725040) can0 270#9613000000000000
(1427659885.809933) can0 477#05006C7A77001400
(1427659885.824392) can0 475#7D131D0000000000
(1427659885.824686) can0 306#1500000000000000
(1427659885.824937) can0 294#00009CFFFA000000
(1427659885.825183) can0 270#9613000000000000
(1427659885.906883) can0 477#05006C7A77001400
(1427659885.924232) can0 475#7B131D0000000000
(1427659885.924516) can0 306#1500000000000000
(1427659885.924765) can0 294#00009CFFFA000000
(1427659885.925013) can0 270#9613000000000000
(1427659886.003821) can0 477#05006D7A77001400
(1427659886.024427) can0 475#81131D0000000000
(1427659886.024726) can0 306#1500000000000000
(1427659886.024979) can0 294#00009CFFFA000000
(1427659886.025228) can0 270#9613000000000000
(1427659886.101148) can0 477#05006D7A77001400
(1427659886.124610) can0 475#7B131D0000000000
(1427659886.124882) can0 306#1500000000000000
(1427659886.125129) can0 294#00009CFFFA000000
(1427659886.125374) can0 270#9613000000000000
(1427659886.197932) can0 477#05006D7A77001400
(1427659886.224528) can0 475#78131D0000000000
(1427659886.224849) can0 306#1500000000000000
(1427659886.225101) can0 294#00009CFFFA000000
(1427659886.225348) can0 270#9613000000000000
(1427659886.294744) can0 477#05006C7A77001400
(1427659886.324543) can0 475#7B131D0000000000
(1427659886.324828) can0 306#1500000000000000
(1427659886.325079) can0 294#00009CFFFA000000
(1427659886.325328) can0 270#9613000000000000
(1427659886.392163) can0 477#05006D7A77001400
(1427659886.424482) can0 475#81131D0000000000
(1427659886.424782) can0 306#1500000000000000
(1427659886.425045) can0 294#00009CFFFA000000
(1427659886.425296) can0 270#9613000000000000
(1427659886.488676) can0 477#05006E7A77001400
(1427659886.524454) can0 475#7A131D0000000000
(1427659886.524755) can0 306#1500000000000000
(1427659886.525004) can0 294#00009CFFFA000000
(1427659886.525251) can0 270#9613000000000000
(1427659886.585639) can0 477#05006D7A77001400
(1427659886.624449) can0 475#7A131D0000000000
(1427659886.624778) can0 306#1400000000000000
(1427659886.625030) can0 294#00009CFFFA000000
(1427659886.625275) can0 270#9613000000000000
(1427659886.683042) can0 477#05006E7A77001400
(1427659886.724445) can0 475#7A131D0000000000
(1427659886.724778) can0 294#00009CFFFA000000
(1427659886.725005) can0 306#1500000000000000
(1427659886.725266) can0 270#9613000000000000
(1427659886.779820) can0 477#05006D7A77001400
(1427659886.824317) can0 475#70131D0000000000
(1427659886.824671) can0 306#1400000000000000
(1427659886.824926) can0 294#00009CFFFA000000
(1427659886.825173) can0 270#9613000000000000
(1427659886.876768) can0 477#05006E7A77001400
(1427659886.924326) can0 475#76131D0000000000
(1427659886.925721) can0 306#1400000000000000
(1427659886.926002) can0 294#00009CFFFA000000
(1427659886.973795) can0 477#05006F7A77001400
(1427659887.024318) can0 475#72131D0000000000
(1427659887.024613) can0 306#1400000000000000
(1427659887.024874) can0 294#00009CFFFA000000
(1427659887.025123) can0 270#9613000000000000
(1427659887.070572) can0 477#05006E7A77001400
(1427659887.124330) can0 475#70131D0000000000
(1427659887.124610) can0 306#1400000000000000
(1427659887.124858) can0 294#00009CFFFA000000
(1427659887.125105) can0 270#9613000000000000
(1427659887.167455) can0 477#05006E7A77001400
(1427659887.224222) can0 475#7A131D0000000000
(1427659887.224573) can0 306#1400000000000000
(1427659887.224842) can0 294#00009CFFFA000000
(1427659887.225101) can0 270#9613000000000000
(1427659887.264635) can0 477#05006E7A77001400
(1427659887.324201) can0 475#70131D0000000000
(1427659887.324591) can0 306#1400000000000000
(1427659887.324803) can0 294#00009CFFFA000000
(1427659887.325050) can0 270#9613000000000000
(1427659887.361437) can0 477#05006E7A77001400
(1427659887.424154) can0 475#7D131D0000000000
(1427659887.424472) can0 306#1400000000000000
(1427659887.424720) can0 294#00009CFFFA000000
(1427659887.424965) can0 270#9613000000000000
(1427659887.458406) can0 477#05006F7A77001400
(1427659887.524166) can0 475#7F131D0000000000
(1427659887.524595) can0 306#1400000000000000
(1427659887.524851) can0 270#9613000000000000
(1427659887.525051) can0 294#00009CFFFA000000
(1427659887.555349) can0 477#05006F7A77001400
(1427659887.624160) can0 475#7F131D0000000000
(1427659887.624488) can0 306#1400000000000000
(1427659887.624738) can0 294#00009CFFFA000000
(1427659887.624983) can0 270#9613000000000000
(1427659887.652372) can0 477#05006E7A77001400
(1427659887.724297) can0 475#7A131D0000000000
(1427659887.724635) can0 306#1300000000000000
(1427659887.724886) can0 294#00009CFFFA000000
(1427659887.725130) can0 270#9613000000000000
(1427659887.749262) can0 477#05006F7A77001400
(1427659887.824304) can0 475#76131D0000000000
(1427659887.824613) can0 306#1300000000000000
(1427659887.824865) can0 294#00009CFFFA000000
(1427659887.825113) can0 270#9613000000000000
(1427659887.846239) can0 477#05006F7A77001400
(1427659887.924409) can0 475#7A131D0000000000
(1427659887.924713) can0 294#00009CFFFA000000
(1427659887.924921) can0 306#1300000000000000
(1427659887.925166) can0 270#9613000000000000
(1427659887.943228) can0 477#05006E7A77001400
(1427659888.024234) can0 475#7D131D0000000000
(1427659888.024676) can0 306#1300000000000000
(1427659888.024941) can0 270#9613000000000000
(1427659888.025148) can0 294#00009CFFFA000000
(1427659888.040166) can0 477#05006F7A77001400
(1427659888.124219) can0 475#74131D0000000000
(1427659888.124588) can0 306#1300000000000000
(1427659888.124849) can0 294#00009CFFFA000000
(1427659888.125099) can0 270#9613000000000000
(1427659888.137322) can0 477#05006E7A77001400
(1427659888.224155) can0 475#83131D0000000000
(1427659888.224510) can0 306#1400000000000000
(1427659888.224776) can0 294#00009CFFFA000000
(1427659888.225024) can0 270#9613000000000000
(1427659888.234107) can0 477#05006E7A77001400
(1427659888.324180) can0 475#7B131D0000000000
(1427659888.324578) can0 306#1400000000000000
(1427659888.324836) can0 294#00009CFFFA000000
(1427659888.325088) can0 270#9613000000000000
(1427659888.331104) can0 477#05006F7A77001400
(1427659888.424114) can0 475#7F131D0000000000
(1427659888.424582) can0 306#1400000000000000
(1427659888.424854) can0 294#00009CFFFA000000
(1427659888.425102) can0 270#9613000000000000
(1427659888.428044) can0 477#05006F7A77001400
(1427659888.524544) can0 475#7D131D0000000000
(1427659888.524840) can0 306#1400000000000000
(1427659888.525090) can0 294#00009CFFFA000000
(1427659888.525347) can0 270#9613000000000000
(1427659888.525777) can0 477#05006F7A77001400
(1427659888.621994) can0 477#0500707A77001400
(1427659888.624335) can0 475#74131D0000000000
(1427659888.624624) can0 306#1300000000000000
(1427659888.624874) can0 294#00009CFFFA000000
(1427659888.625118) can0 270#9613000000000000
(1427659888.718947) can0 477#0500707A77001400
(1427659888.724646) can0 475#74131D0000000000
(1427659888.724957) can0 306#1300000000000000
(1427659888.725206) can0 294#00009CFFFA000000
(1427659888.725450) can0 270#9613000000000000
(1427659888.815993) can0 477#05006F7A77001400
(1427659888.824415) can0 475#6E131D0000000000
(1427659888.824784) can0 306#1300000000000000
(1427659888.825047) can0 294#00009CFFFA000000
(1427659888.825306) can0 270#9713000000000000
(1427659888.912892) can0 477#0500707A77001400
(1427659888.924490) can0 475#76131D0000000000
(1427659888.924797) can0 306#1200000000000000
(1427659888.925065) can0 294#00009CFFFA000000
(1427659888.925283) can0 270#9713000000000000
(1427659889.009898) can0 477#05006E7A77001400
(1427659889.024438) can0 475#7A131D0000000000
(1427659889.024756) can0 306#1200000000000000
(1427659889.025008) can0 294#00009CFFFA000000
(1427659889.025249) can0 270#9713000000000000
(1427659889.106887) can0 477#0500707A77001400
(1427659889.124389) can0 475#7A131D0000000000
(1427659889.124727) can0 306#1200000000000000
(1427659889.124976) can0 294#00009CFFFA000000
(1427659889.125223) can0 270#9713000000000000
(1427659889.203795) can0 477#0500707A77001400
(1427659889.226119) can0 475#7B131D0000000000
(1427659889.300814) can0 477#0500707A77001400
(1427659889.324710) can0 475#7B131D0000000000
(1427659889.324988) can0 294#00009CFFFA000000
(1427659889.325189) can0 306#1300000000000000
(1427659889.325435) can0 270#9613000000000000
(1427659889.397769) can0 477#0500717A77001400
(1427659889.424538) can0 475#7A131D0000000000
(1427659889.424838) can0 306#1300000000000000
(1427659889.425087) can0 294#00009CFFFA000000
(1427659889.425333) can0 270#9713000000000000
(1427659889.494741) can0 477#0500707A77001400
(1427659889.524553) can0 475#7B131D0000000000
(1427659889.524834) can0 306#1300000000000000
(1427659889.525083) can0 294#00009CFFFA000000
(1427659889.525330) can0 270#9713000000000000
(1427659889.591685) can0 477#0500707A77001400
(1427659889.624471) can0 475#81131D0000000000
(1427659889.624788) can0 306#1300000000000000
(1427659889.625043) can0 294#00009CFFFA000000
(1427659889.625292) can0 270#9713000000000000
(1427659889.688631) can0 477#0500717A77001400
(1427659889.724541) can0 475#76131D0000000000
(1427659889.724825) can0 306#1400000000000000
(1427659889.725081) can0 294#00009CFFFA000000
(1427659889.725426) can0 270#9713000000000000
(1427659889.785623) can0 477#0500707A77001400
(1427659889.824431) can0 475#7B131D0000000000
(1427659889.824742) can0 306#1400000000000000
(1427659889.824996) can0 294#00009CFFFA000000
(1427659889.825243) can0 270#9713000000000000
(1427659889.882966) can0 477#0500707A77001400
(1427659889.924226) can0 475#76131D0000000000
(1427659889.924617) can0 306#1400000000000000
(1427659889.924872) can0 270#9713000000000000
(1427659889.925082) can0 294#00009CFFFA000000
(1427659889.979576) can0 477#05006F7A77001400
(1427659890.024189) can0 475#78131D0000000000
(1427659890.024586) can0 306#1400000000000000
(1427659890.024863) can0 294#00009CFFFA000000
(1427659890.025116) can0 270#9713000000000000
(1427659890.077085) can0 477#0500717A77001400
(1427659890.124337) can0 475#7A131D0000000000
(1427659890.124722) can0 306#1500000000000000
(1427659890.124987) can0 270#9713000000000000
(1427659890.125225) can0 294#00009CFFFA000000
(1427659890.173529) can0 477#0500707A77001400
(1427659890.224342) can0 475#7D131D0000000000
(1427659890.224632) can0 306#1400000000000000
(1427659890.224890) can0 294#00009CFFFA000000
(1427659890.225141) can0 270#9713000000000000
(1427659890.270580) can0 477#0500717A77001400
(1427659890.324294) can0 475#76131D0000000000
(1427659890.324674) can0 306#1400000000000000
(1427659890.324937) can0 270#9713000000000000
(1427659890.325137) can0 294#00009CFFFA000000
(1427659890.367466) can0 477#0500717A77001400
(1427659890.424288) can0 475#76131D0000000000
(1427659890.424558) can0 306#1400000000000000
(1427659890.424809) can0 294#00009CFFFA000000
(1427659890.425057) can0 270#9713000000000000
(1427659890.464428) can0 477#0500717A77001400
(1427659890.524428) can0 475#7B131D0000000000
(1427659890.524816) can0 306#1400000000000000
(1427659890.525624) can0 270#9713000000000000
(1427659890.525883) can0 294#00009CFFFA000000
(1427659890.561385) can0 477#0500717A77001400
(1427659890.624208) can0 475#78131D0000000000
(1427659890.624499) can0 306#1400000000000000
(1427659890.624745) can0 294#00009CFFFA000000
(1427659890.624999) can0 270#9713000000000000
(1427659890.658321) can0 477#0500717A77001400
(1427659890.724190) can0 475#81131D0000000000
(1427659890.724526) can0 306#1300000000000000
(1427659890.724830) can0 294#00009CFFFA000000
(1427659890.725083) can0 270#9713000000000000
(1427659890.755301) can0 477#0500707A77001400
(1427659890.824392) can0 475#7F131D0000000000
(1427659890.824721) can0 306#1300000000000000
(1427659890.825000) can0 294#00009CFFFA000000
(1427659890.825255) can0 270#9713000000000000
(1427659890.852280) can0 477#0500707A77001400
(1427659890.924375) can0 475#76131D0000000000
(1427659890.924764) can0 306#1300000000000000
(1427659890.925030) can0 270#9713000000000000
(1427659890.925234) can0 294#00009CFFFA000000
(1427659890.949269) can0 477#0500707A77001400
(1427659891.024308) can0 475#7D131D0000000000
(1427659891.024663) can0 306#1300000000000000
(1427659891.024936) can0 294#00009CFFFA000000
(1427659891.025207) can0 270#9713000000000000
(1427659891.046213) can0 477#0500707A77001400
(1427659891.124292) can0 475#7B131D0000000000
(1427659891.124685) can0 306#1300000000000000
(1427659891.124949) can0 294#00009CFFFA000000
(1427659891.125205) can0 270#9713000000000000
(1427659891.143196) can0 477#0500717A77001400
(1427659891.224208) can0 475#7D131D0000000000
(1427659891.224738) can0 306#1400000000000000
(1427659891.224950) can0 294#00009CFFFA000000
(1427659891.225201) can0 270#9713000000000000
(1427659891.240186) can0 477#0500717A77001400
(1427659891.324192) can0 475#78131D0000000000
(1427659891.324576) can0 306#1400000000000000
(1427659891.324882) can0 270#9713000000000000
(1427659891.325088) can0 294#00009CFFFA000000
(1427659891.337142) can0 477#0500717A77001400
(1427659891.424206) can0 475#7A131D0000000000
(1427659891.424672) can0 306#1400000000000000
(1427659891.424928) can0 294#00009CFFFA000000
(1427659891.425176) can0 270#9713000000000000
(1427659891.434096) can0 477#0500727A77001400
(1427659891.524226) can0 475#76131D0000000000
(1427659891.524623) can0 306#1500000000000000
(1427659891.524921) can0 270#9713000000000000
(1427659891.525123) can0 294#00009CFFFA000000
(1427659891.531095) can0 477#0500727A77001400
(1427659891.624399) can0 475#7F131D0000000000
(1427659891.624735) can0 306#1500000000000000
(1427659891.624989) can0 294#00009CFFFA000000
(1427659891.625234) can0 270#9713000000000000
(1427659891.628024) can0 477#0500727A77001400
(1427659891.724738) can0 475#81131D0000000000
(1427659891.725060) can0 306#1500000000000000
(1427659891.725310) can0 294#00009CFFFA000000
(1427659891.725563) can0 270#9713000000000000
(1427659891.725943) can0 477#0500737A77001400
(1427659891.822008) can0 477#0500727A77001400
(1427659891.824555) can0 475#7D131D0000000000
(1427659891.824845) can0 306#1500000000000000
(1427659891.825096) can0 294#00009CFFFA000000
(1427659891.825340) can0 270#9713000000000000
(1427659891.918984) can0 477#0500727A77001400
(1427659891.924512) can0 475#7A131D0000000000
(1427659891.924883) can0 306#1500000000000000
(1427659891.925130) can0 270#9713000000000000
(1427659891.925338) can0 294#00009CFFFA000000
(1427659892.016075) can0 477#0500737A77001400
(1427659892.024577) can0 475#7D131D0000000000
(1427659892.024866) can0 306#1500000000000000
(1427659892.025137) can0 294#00009CFFFA000000
(1427659892.025385) can0 270#9713000000000000
(1427659892.112897) can0 477#0500727A77001400
(1427659892.124436) can0 475#7D131D0000000000
(1427659892.124830) can0 306#1500000000000000
(1427659892.125092) can0 270#9713000000000000
(1427659892.125293) can0 294#00009CFFFA000000
(1427659892.209861) can0 477#0500727A77001400
(1427659892.224386) can0 475#83131D0000000000
(1427659892.224715) can0 306#1500000000000000
(1427659892.224964) can0 294#00009CFFFA000000
(1427659892.225212) can0 270#9713000000000000
(1427659892.306843) can0 477#0500727A77001400
(1427659892.324482) can0 475#7A131D0000000000
(1427659892.324889) can0 306#1500000000000000
(1427659892.325147) can0 270#9713000000000000
(1427659892.325349) can0 294#00009CFFFA000000
(1427659892.403785) can0 477#0500727A77001400
(1427659892.424585) can0 475#7F131D0000000000
(1427659892.424895) can0 306#1500000000000000
(1427659892.425147) can0 294#00009CFFFA000000
(1427659892.425391) can0 270#9713000000000000
(1427659892.500812) can0 477#0500737A77001400
(1427659892.524589) can0 475#78131D0000000000
(1427659892.524969) can0 306#1500000000000000
(1427659892.525222) can0 270#9713000000000000
(1427659892.525420) can0 294#00009CFFFA000000
(1427659892.597740) can0 477#0500747A77001400
(1427659892.624384) can0 475#7B131D0000000000
(1427659892.624815) can0 306#1500000000000000
(1427659892.625063) can0 294#00009CFFFA000000
(1427659892.625318) can0 270#9713000000000000
(1427659892.694698) can0 477#0500737A77001400
(1427659892.724554) can0 475#72131D0000000000
(1427659892.724942) can0 306#1500000000000000
(1427659892.725157) can0 294#00009CFFFA000000
(1427659892.725404) can0 270#9713000000000000
(1427659892.791675) can0 477#0500747A77001400
(1427659892.824494) can0 475#7A131D0000000000
(1427659892.824784) can0 306#1600000000000000
(1427659892.825038) can0 294#00009CFFFA000000
(1427659892.825289) can0 270#9713000000000000
(1427659892.888624) can0 477#0500747A77001400
(1427659892.924467) can0 475#81131D0000000000
(1427659892.924840) can0 306#1600000000000000
(1427659892.925103) can0 270#9713000000000000
(1427659892.925305) can0 294#00009CFFFA000000
(1427659892.985594) can0 477#0500747A77001400
(1427659893.024224) can0 475#7D131D0000000000
(1427659893.024699) can0 306#1600000000000000
(1427659893.024959) can0 294#00009CFFFA000000
(1427659893.025206) can0 270#9713000000000000
(1427659893.082562) can0 477#0500737A77001400
(1427659893.124203) can0 475#7A131D0000000000
(1427659893.124640) can0 306#1600000000000000
(1427659893.124992) can0 294#00009CFFFA000000
(1427659893.125216) can0 270#9713000000000000
(1427659893.180122) can0 477#0500737A77001400
(1427659893.224734) can0 306#1600000000000000
(1427659893.225060) can0 270#9713000000000000
(1427659893.226663) can0 294#00009CFFFA000000
(1427659893.276767) can0 477#0500747A77001400
(1427659893.324314) can0 475#7A131D0000000000
(1427659893.324680) can0 306#1500000000000000
(1427659893.325041) can0 270#9713000000000000
(1427659893.325252) can0 294#00009CFFFA000000
(1427659893.374738) can0 477#0500747A77001400
(1427659893.424301) can0 475#7D131D0000000000
(1427659893.424633) can0 306#1400000000000000
(1427659893.424886) can0 294#00009CFFFA000000
(1427659893.425129) can0 270#9713000000000000
(1427659893.471588) can0 477#0500747A77001400
(1427659893.524267) can0 475#7B131D0000000000
(1427659893.524623) can0 306#1400000000000000
(1427659893.524974) can0 270#9713000000000000
(1427659893.525187) can0 294#00009CFFFA000000
(1427659893.567423) can0 477#0500747A77001400
(1427659893.624273) can0 475#7F131D0000000000
(1427659893.624575) can0 306#1500000000000000
(1427659893.624822) can0 294#00009CFFFA000000
(1427659893.625069) can0 270#9713000000000000
(1427659893.664355) can0 477#0500747A77001400
(1427659893.724254) can0 475#87131D0000000000
(1427659893.724579) can0 306#1500000000000000
(1427659893.724902) can0 294#00009CFFFA000000
(1427659893.725158) can0 270#9713000000000000
(1427659893.761368) can0 477#0500747A77001400
(1427659893.824234) can0 475#7B131D0000000000
(1427659893.824545) can0 306#1500000000000000
(1427659893.824819) can0 294#00009CFFFA000000
(1427659893.825068) can0 270#9713000000000000
(1427659893.858373) can0 477#0500747A77001400
(1427659893.924243) can0 475#6C131D0000000000
(1427659893.924684) can0 306#1500000000000000
(1427659893.925030) can0 294#00009CFFFA000000
(1427659893.925388) can0 270#9713000000000000
(1427659893.955491) can0 477#0500747A77001400
(1427659894.024407) can0 475#78131D0000000000
(1427659894.024698) can0 306#1500000000000000
(1427659894.024946) can0 294#00009CFFFA000000
(1427659894.025203) can0 270#9713000000000000
(1427659894.052302) can0 477#0500757A77001400
(1427659894.124385) can0 475#7D131D0000000000
(1427659894.124723) can0 306#1400000000000000
(1427659894.125077) can0 270#9813000000000000
(1427659894.125288) can0 294#00009CFFFA000000
(1427659894.149255) can0 477#0500747A77001400
(1427659894.224331) can0 475#85131D0000000000
(1427659894.224659) can0 306#1400000000000000
(1427659894.224910) can0 294#00009CFFFA000000
(1427659894.225158) can0 270#9813000000000000
(1427659894.246191) can0 477#0500757A77001400
(1427659894.324324) can0 475#7F131D0000000000
(1427659894.324839) can0 306#1400000000000000
(1427659894.325156) can0 294#00009CFFFA000000
(1427659894.325515) can0 270#9713000000000000
(1427659894.343166) can0 477#0500757A77001400
(1427659894.424268) can0 475#76131D0000000000
(1427659894.424621) can0 306#1400000000000000
(1427659894.424872) can0 294#00009CFFFA000000
(1427659894.425118) can0 270#9713000000000000
(1427659894.440164) can0 477#0500757A77001400
(1427659894.524240) can0 475#81131D0000000000
(1427659894.524550) can0 306#1400000000000000
(1427659894.524801) can0 294#00009CFFFA000000
(1427659894.525165) can0 270#9713000000000000
(1427659894.537085) can0 477#0500757A77001400
(1427659894.624241) can0 475#7B131D0000000000
(1427659894.624647) can0 306#1400000000000000
(1427659894.624932) can0 294#00009CFFFA000000
(1427659894.625197) can0 270#9713000000000000
(1427659894.634059) can0 477#0500767A77001400
(1427659894.724687) can0 475#7B131D0000000000
(1427659894.725059) can0 306#1400000000000000
(1427659894.725319) can0 294#00009CFFFA000000
(1427659894.725567) can0 270#9813000000000000
(1427659894.731061) can0 477#0500767A77001400
(1427659894.824702) can0 475#7A131D0000000000
(1427659894.825011) can0 306#1400000000000000
(1427659894.825279) can0 294#00009CFFFA000000
(1427659894.825529) can0 270#9813000000000000
(1427659894.828016) can0 477#0500767A77001400
(1427659894.924663) can0 475#7A131D0000000000
(1427659894.925029) can0 306#1400000000000000
(1427659894.925295) can0 294#00009CFFFA000000
(1427659894.925544) can0 270#9813000000000000
(1427659894.925977) can0 477#0500767A77001400
(1427659895.021988) can0 477#0500767A77001400
(1427659895.024652) can0 475#7B131D0000000000
(1427659895.025097) can0 306#1300000000000000
(1427659895.025351) can0 294#00009CFFFA000000
(1427659895.025599) can0 270#9813000000000000
(1427659895.118978) can0 477#0500777A77001400
(1427659895.124617) can0 475#76131D0000000000
(1427659895.125119) can0 306#1300000000000000
(1427659895.125372) can0 294#00009CFFFA000000
(1427659895.125617) can0 270#9813000000000000
(1427659895.215880) can0 477#0500767A77001400
(1427659895.224535) can0 475#6C131D0000000000
(1427659895.224987) can0 306#1200000000000000
(1427659895.225269) can0 294#00009CFFFA000000
(1427659895.225519) can0 270#9813000000000000
(1427659895.312910) can0 477#0500777A77001400
(1427659895.324544) can0 475#7D131D0000000000
(1427659895.324924) can0 306#1200000000000000
(1427659895.325257) can0 294#00009CFFFA000000
(1427659895.325627) can0 270#9813000000000000
(1427659895.409846) can0 477#0500757A77001400
(1427659895.424452) can0 475#76131D0000000000
(1427659895.424771) can0 306#1200000000000000
(1427659895.425049) can0 294#00009CFFFA000000
(1427659895.425331) can0 270#9813000000000000
(1427659895.506815) can0 477#0500767A77001400
(1427659895.524638) can0 475#7F131D0000000000
(1427659895.524963) can0 306#1200000000000000
(1427659895.525295) can0 294#00009CFFFA000000
(1427659895.525549) can0 270#9813000000000000
(1427659895.603770) can0 477#0500757A77001400
(1427659895.624670) can0 475#7D131D0000000000
(1427659895.624956) can0 306#1200000000000000
(1427659895.625207) can0 294#00009CFFFA000000
(1427659895.625455) can0 270#9713000000000000
(1427659895.700721) can0 477#0500767A77001400
(1427659895.724623) can0 475#7A131D0000000000
(1427659895.725000) can0 306#1300000000000000
(1427659895.725301) can0 294#00009CFFFA000000
(1427659895.725553) can0 270#9713000000000000
(1427659895.798537) can0 477#0500777A77001400
(1427659895.824631) can0 475#7F131D0000000000
(1427659895.824929) can0 306#1300000000000000
(1427659895.825178) can0 294#00009CFFFA000000
(1427659895.825970) can0 270#9813000000000000
(1427659895.894831) can0 477#0500767A77001400
(1427659895.924608) can0 475#78131D0000000000
(1427659895.924899) can0 306#1300000000000000
(1427659895.925243) can0 270#9813000000000000
(1427659895.925455) can0 294#00009CFFFA000000
(1427659895.991655) can0 477#0500787A77001400
(1427659896.024560) can0 475#7F131D0000000000
(1427659896.024865) can0 306#1300000000000000
(1427659896.025130) can0 294#00009CFFFA000000
(1427659896.025391) can0 270#9813000000000000
(1427659896.088598) can0 477#0500767A77001400
(1427659896.124498) can0 475#78131D0000000000
(1427659896.124808) can0 306#1300000000000000
(1427659896.125129) can0 294#00009CFFFA000000
(1427659896.125391) can0 270#9813000000000000
(1427659896.185621) can0 477#0500777A77001400
(1427659896.224476) can0 475#7D131D0000000000
(1427659896.225007) can0 306#1400000000000000
(1427659896.225226) can0 294#00009CFFFA000000
(1427659896.225478) can0 270#9813000000000000
(1427659896.283057) can0 477#0500767A77001400
(1427659896.324474) can0 475#7A131D0000000000
(1427659896.324809) can0 306#1300000000000000
(1427659896.325151) can0 294#00009CFFFA000000
(1427659896.325513) can0 270#9813000000000000
(1427659896.379496) can0 477#0500777A77001400
(1427659896.424535) can0 475#74131D0000000000
(1427659896.424817) can0 306#1400000000000000
(1427659896.425065) can0 294#00009CFFFA000000
(1427659896.425312) can0 270#9813000000000000
(1427659896.476483) can0 477#0500777A77001400
(1427659896.524388) can0 475#78131D0000000000
(1427659896.524683) can0 306#1300000000000000
(1427659896.524933) can0 294#00009CFFFA000000
(1427659896.525256) can0 270#9813000000000000
(1427659896.573485) can0 477#0500777A77001400
(1427659896.624334) can0 475#7A131D0000000000
(1427659896.624650) can0 306#1300000000000000
(1427659896.624905) can0 294#00009CFFFA000000
(1427659896.625152) can0 270#9813000000000000
(1427659896.670426) can0 477#0500777A77001400
(1427659896.724359) can0 475#7D131D0000000000
(1427659896.724651) can0 306#1300000000000000
(1427659896.724916) can0 294#00009CFFFA000000
(1427659896.725279) can0 270#9813000000000000
(1427659896.767394) can0 477#0500777A77001400
(1427659896.824315) can0 475#7D131D0000000000
(1427659896.824618) can0 306#1300000000000000
(1427659896.824884) can0 294#00009CFFFA000000
(1427659896.825157) can0 270#9813000000000000
(1427659896.864419) can0 477#0500777A77001400
(1427659896.924312) can0 475#74131D0000000000
(1427659896.924643) can0 306#1300000000000000
(1427659896.924901) can0 294#00009CFFFA000000
(1427659896.925209) can0 270#9813000000000000
(1427659896.961351) can0 477#0500777A77001400
(1427659897.024262) can0 475#7D131D0000000000
(1427659897.024546) can0 306#1300000000000000
(1427659897.024942) can0 294#00009CFFFA000000
(1427659897.025195) can0 270#9813000000000000
(1427659897.058312) can0 477#0500787A77001400
(1427659897.124424) can0 475#7F131C0000000000
(1427659897.124709) can0 306#1300000000000000
(1427659897.124958) can0 294#00009CFFFA000000
(1427659897.125298) can0 270#9813000000000000
(1427659897.155331) can0 477#0500777A77001400
(1427659897.224423) can0 475#76131D0000000000
(1427659897.227077) can0 306#1200000000000000
(1427659897.227365) can0 294#00009CFFFA000000
(1427659897.252277) can0 477#0500777A77001400
(1427659897.324403) can0 475#6A131D0000000000
(1427659897.324741) can0 306#1200000000000000
(1427659897.325008) can0 294#00009CFFFA000000
(1427659897.325470) can0 270#9813000000000000
(1427659897.349250) can0 477#0500777A77001400
(1427659897.425303) can0 294#00009CFFFA000000
(1427659897.425611) can0 270#9813000000000000
(1427659897.446252) can0 477#0500787A77001400
(1427659897.524286) can0 475#85131D0000000000
(1427659897.524632) can0 306#1100000000000000
(1427659897.524894) can0 294#00009CFFFA000000
(1427659897.525196) can0 270#9813000000000000
(1427659897.543123) can0 477#0500787A77001400
(1427659897.624333) can0 475#72131C0000000000
(1427659897.624673) can0 306#1200000000000000
(1427659897.624925) can0 294#00009CFFFA000000
(1427659897.625172) can0 270#9813000000000000
(1427659897.640141) can0 477#0500777A77001400
(1427659897.724319) can0 475#7B131D0000000000
(1427659897.724654) can0 306#1200000000000000
(1427659897.724906) can0 294#00009CFFFA000000
(1427659897.725158) can0 270#9813000000000000
(1427659897.737101) can0 477#0500787A77001400
(1427659897.824254) can0 475#7A131D0000000000
(1427659897.824550) can0 306#1200000000000000
(1427659897.824958) can0 294#00009CFFFA000000
(1427659897.825246) can0 270#9813000000000000
(1427659897.834220) can0 477#0500787A77001400
(1427659897.924717) can0 475#7A131D0000000000
(1427659897.925056) can0 306#1200000000000000
(1427659897.925399) can0 270#9813000000000000
(1427659897.925610) can0 294#00009CFFFA000000
(1427659897.931042) can0 477#0500787A77001400
(1427659898.024661) can0 475#76131C0000000000
(1427659898.024973) can0 306#1200000000000000
(1427659898.025227) can0 294#00009CFFFA000000
(1427659898.025472) can0 270#9813000000000000
(1427659898.028002) can0 477#0500777A77001400
(1427659898.124398) can0 475#76131D0000000000
(1427659898.124726) can0 306#1200000000000000
(1427659898.124976) can0 294#00009CFFFA000000
(1427659898.125296) can0 270#9813000000000000
(1427659898.125556) can0 477#0500787A77001400
(1427659898.221938) can0 477#0500787A77001400
(1427659898.224368) can0 475#8B131C0000000000
(1427659898.224658) can0 306#1200000000000000
(1427659898.224935) can0 294#00009CFFFA000000
(1427659898.225183) can0 270#9813000000000000
(1427659898.318889) can0 477#0500787A77001400
(1427659898.324562) can0 475#87131D0000000000
(1427659898.324883) can0 306#1300000000000000
(1427659898.325132) can0 294#00009CFFFA000000
(1427659898.325487) can0 270#9813000000000000
(1427659898.415898) can0 477#0500787A77001400
(1427659898.424580) can0 475#81131C0000000000
(1427659898.424872) can0 306#1300000000000000
(1427659898.425125) can0 294#00009CFFFA000000
(1427659898.425369) can0 270#9813000000000000
(1427659898.512870) can0 477#0500797A77001400
(1427659898.524546) can0 475#81131D0000000000
(1427659898.524841) can0 306#1400000000000000
(1427659898.525088) can0 294#00009CFFFA000000
(1427659898.525424) can0 270#9813000000000000
(1427659898.609836) can0 477#0500787A77001400
(1427659898.614584) can0 475#7F131C0000000000
(1427659898.614892) can0 306#1400000000000000
(1427659898.615163) can0 294#00009CFFFA000000
(1427659898.615410) can0 270#9813000000000000
(1427659898.706797) can0 477#0500787A77001400
(1427659898.714803) can0 475#7A131C0000000000
(1427659898.715125) can0 306#1400000000000000
(1427659898.715375) can0 294#00009CFFFA000000
(1427659898.715620) can0 270#9813000000000000
(1427659898.803797) can0 477#0500797A77001400
(1427659898.814717) can0 475#78131D0000000000
(1427659898.815000) can0 306#1300000000000000
(1427659898.815245) can0 294#00009CFFFA000000
(1427659898.815485) can0 270#9813000000000000
(1427659898.900776) can0 477#0500787A77001400
(1427659898.914665) can0 475#7D131C0000000000
(1427659898.914943) can0 306#1300000000000000
(1427659898.915193) can0 294#00009CFFFA000000
(1427659898.915440) can0 270#9813000000000000
(1427659898.997728) can0 477#0500797A77001400
(1427659899.014628) can0 475#7F131D0000000000
(1427659899.014940) can0 306#1300000000000000
(1427659899.015192) can0 294#00009CFFFA000000
(1427659899.015431) can0 270#9813000000000000
(1427659899.094660) can0 477#0500797A77001400
(1427659899.114564) can0 475#78131C0000000000
(1427659899.114858) can0 306#1300000000000000
(1427659899.115108) can0 294#00009CFFFA000000
(1427659899.115358) can0 270#9813000000000000
(1427659899.191640) can0 477#0500797A77001400
(1427659899.214589) can0 475#85131D0000000000
(1427659899.214876) can0 306#1400000000000000
(1427659899.215140) can0 294#00009CFFFA000000
(1427659899.215399) can0 270#9813000000000000
(1427659899.288924) can0 477#0500787A77001400
(1427659899.314508) can0 475#74131C0000000000
(1427659899.314856) can0 306#1400000000000000
(1427659899.315123) can0 294#00009CFFFA000000
(1427659899.315381) can0 270#9813000000000000
(1427659899.385593) can0 477#0500797A77001400
(1427659899.414525) can0 475#81131C0000000000
(1427659899.414887) can0 306#1500000000000000
(1427659899.415148) can0 294#00009CFFFA000000
(1427659899.415931) can0 270#9813000000000000
(1427659899.482521) can0 477#0500797A77001400
(1427659899.514469) can0 475#76131C0000000000
(1427659899.514779) can0 306#1500000000000000
(1427659899.515036) can0 294#00009CFFFA000000
(1427659899.515287) can0 270#9813000000000000
(1427659899.580825) can0 477#0500797A77001400
(1427659899.614457) can0 475#7F131C0000000000
(1427659899.614807) can0 306#1500000000000000
(1427659899.615072) can0 294#00009CFFFA000000
(1427659899.615330) can0 270#9813000000000000
(1427659899.677673) can0 477#0500797A77001400
(1427659899.714566) can0 475#78131C0000000000
(1427659899.714889) can0 306#1500000000000000
(1427659899.715282) can0 270#9813000000000000
(1427659899.715489) can0 294#00009CFFFA000000
(1427659899.773634) can0 477#0500797A77001400
(1427659899.814434) can0 475#7A131C0000000000
(1427659899.814718) can0 306#1500000000000000
(1427659899.814969) can0 294#00009CFFFA000000
(1427659899.815218) can0 270#9813000000000000
(1427659899.870425) can0 477#0500787A77001400
(1427659899.914401) can0 475#7B131C0000000000
(1427659899.914710) can0 306#1600000000000000
(1427659899.914959) can0 294#00009CFFFA000000
(1427659899.915215) can0 270#9813000000000000
(1427659899.967405) can0 477#0500797A77001400
(1427659900.014409) can0 475#7F131C0000000000
(1427659900.014814) can0 306#1600000000000000
(1427659900.015060) can0 294#00009CFFFA000000
(1427659900.015305) can0 270#9813000000000000
(1427659900.064344) can0 477#0500797A77001400
(1427659900.114314) can0 475#7B131C0000000000
(1427659900.114769) can0 306#1600000000000000
(1427659900.115021) can0 294#00009CFFFA000000
(1427659900.115269) can0 270#9813000000000000
(1427659900.161288) can0 477#0500797A77001400
(1427659900.214520) can0 475#76131C0000000000
(1427659900.214836) can0 306#1600000000000000
(1427659900.215088) can0 294#00009CFFFA000000
(1427659900.215334) can0 270#9813000000000000
(1427659900.258312) can0 477#0500797A77001400
(1427659900.314486) can0 475#7A131C0000000000
(1427659900.314846) can0 306#1500000000000000
(1427659900.315102) can0 294#00009CFFFA000000
(1427659900.315348) can0 270#9813000000000000
(1427659900.355277) can0 477#0500797A77001400
(1427659900.414491) can0 475#7F131C0000000000
(1427659900.414770) can0 306#1500000000000000
(1427659900.415126) can0 294#00009CFFFA000000
(1427659900.415385) can0 270#9813000000000000
(1427659900.452215) can0 477#0500797A77001400
(1427659900.514452) can0 475#76131C0000000000
(1427659900.514748) can0 306#1500000000000000
(1427659900.515143) can0 294#00009CFFFA000000
(1427659900.515396) can0 270#9813000000000000
(1427659900.549182) can0 477#05007A7A77001400
(1427659900.614381) can0 475#81131C0000000000
(1427659900.614714) can0 306#1600000000000000
(1427659900.614991) can0 294#00009CFFFA000000
(1427659900.615250) can0 270#9813000000000000
(1427659900.646152) can0 477#05007B7A77001400
(1427659900.714356) can0 475#78131C0000000000
(1427659900.714795) can0 306#1600000000000000
(1427659900.715062) can0 294#00009CFFFA000000
(1427659900.715337) can0 270#9813000000000000
(1427659900.743145) can0 477#05007A7A77001400
(1427659900.814337) can0 475#70131C0000000000
(1427659900.814640) can0 306#1600000000000000
(1427659900.814890) can0 294#00009CFFFA000000
(1427659900.815137) can0 270#9813000000000000
(1427659900.840127) can0 477#05007A7A77001400
(1427659900.914342) can0 475#7B131D0000000000
(1427659900.914655) can0 306#1600000000000000
(1427659900.915050) can0 294#00009CFFFA000000
(1427659900.915301) can0 270#9813000000000000
(1427659900.937056) can0 477#05007A7A77001400
(1427659901.014745) can0 475#72131C0000000000
(1427659901.015051) can0 306#1600000000000000
(1427659901.015302) can0 294#00009CFFFA000000
(1427659901.015557) can0 270#9813000000000000
(1427659901.034021) can0 477#05007A7A77001400
(1427659901.114676) can0 475#7A131C0000000000
(1427659901.114993) can0 306#1600000000000000
(1427659901.115247) can0 294#00009CFFFA000000
(1427659901.115493) can0 270#9813000000000000
(1427659901.131013) can0 477#05007A7A77001400
(1427659901.214676) can0 475#7B131C0000000000
(1427659901.215000) can0 306#1700000000000000
(1427659901.215783) can0 270#9813000000000000
(1427659901.216040) can0 294#00009CFFFA000000
(1427659901.228022) can0 477#05007A7A77001400
(1427659901.314857) can0 475#78131C0000000000
(1427659901.315146) can0 306#1600000000000000
(1427659901.315416) can0 294#00009CFFFA000000
(1427659901.315629) can0 270#9813000000000000
(1427659901.324996) can0 477#05007A7A77001400
(1427659901.414587) can0 475#78131C0000000000
(1427659901.414906) can0 306#1600000000000000
(1427659901.415170) can0 294#00009CFFFA000000
(1427659901.415431) can0 270#9813000000000000
(1427659901.421926) can0 477#05007A7A77001400
(1427659901.514595) can0 475#7B131C0000000000
(1427659901.514907) can0 306#1600000000000000
(1427659901.515155) can0 294#00009CFFFA000000
(1427659901.515398) can0 270#9813000000000000
(1427659901.518865) can0 477#05007A7A77001400
(1427659901.614551) can0 475#74131C0000000000
(1427659901.614874) can0 306#1500000000000000
(1427659901.615132) can0 294#00009CFFFA000000
(1427659901.615380) can0 270#9813000000000000
(1427659901.615808) can0 477#05007A7A77001400
(1427659901.712974) can0 477#05007A7A77001400
(1427659901.714717) can0 475#7A131C0000000000
(1427659901.714988) can0 306#1500000000000000
(1427659901.715247) can0 294#00009CFFFA000000
(1427659901.715508) can0 270#9813000000000000
(1427659901.809803) can0 477#05007A7A77001400
(1427659901.814699) can0 475#76131C0000000000
(1427659901.815038) can0 306#1600000000000000
(1427659901.815299) can0 294#00009CFFFA000000
(1427659901.815552) can0 270#9813000000000000
(1427659901.906749) can0 477#05007C7A77001400
(1427659901.914650) can0 475#7A131C0000000000
(1427659901.914962) can0 306#1600000000000000
(1427659901.915237) can0 294#00009CFFFA000000
(1427659901.915483) can0 270#9813000000000000
(1427659902.003735) can0 477#05007A7A77001400
(1427659902.014703) can0 475#81131C0000000000
(1427659902.015004) can0 306#1600000000000000
(1427659902.015255) can0 294#00009CFFFA000000
(1427659902.015514) can0 270#9813000000000000
(1427659902.100702) can0 477#05007B7A77001400
(1427659902.114488) can0 475#78131C0000000000
(1427659902.114862) can0 306#1700000000000000
(1427659902.115127) can0 294#00009CFFFA000000
(1427659902.115405) can0 270#9813000000000000
(1427659902.197776) can0 477#05007B7A77001400
(1427659902.214409) can0 475#87131C0000000000
(1427659902.214885) can0 306#1700000000000000
(1427659902.215141) can0 294#00009CFFFA000000
(1427659902.215384) can0 270#9813000000000000
(1427659902.294646) can0 477#05007B7A77001400
(1427659902.314541) can0 475#78131C0000000000
(1427659902.314858) can0 306#1700000000000000
(1427659902.315139) can0 294#00009CFFFA000000
(1427659902.315405) can0 270#9813000000000000
(1427659902.391625) can0 477#05007B7A77001400
(1427659902.414625) can0 475#76131C0000000000
(1427659902.414899) can0 306#1700000000000000
(1427659902.415148) can0 294#00009CFFFA000000
(1427659902.415392) can0 270#9813000000000000
(1427659902.488562) can0 477#05007B7A77001400
(1427659902.514585) can0 475#81131C0000000000
(1427659902.514869) can0 306#1700000000000000
(1427659902.515120) can0 294#00009CFFFA000000
(1427659902.515368) can0 270#9813000000000000
(1427659902.585570) can0 477#05007C7A77001400
(1427659902.614762) can0 475#7B131C0000000000
(1427659902.615046) can0 306#1800000000000000
(1427659902.615297) can0 294#00009CFFFA000000
(1427659902.615540) can0 270#9813000000000000
(1427659902.682644) can0 477#05007C7A77001400
(1427659902.714497) can0 475#7D131C0000000000
(1427659902.714802) can0 306#1800000000000000
(1427659902.715056) can0 294#00009CFFFA000000
(1427659902.715305) can0 270#9813000000000000
(1427659902.780418) can0 477#05007B7A77001400
(1427659902.814464) can0 475#7B131C0000000000
(1427659902.814753) can0 306#1700000000000000
(1427659902.815001) can0 294#00009CFFFA000000
(1427659902.815255) can0 270#9813000000000000
(1427659902.877379) can0 477#05007C7A77001400
(1427659902.914487) can0 475#81131C0000000000
(1427659902.914872) can0 306#1700000000000000
(1427659902.915134) can0 294#00009CFFFA000000
(1427659902.915407) can0 270#9813000000000000
(1427659902.974433) can0 477#05007D7A77001400
(1427659903.014469) can0 475#7A131C0000000000
(1427659903.015322) can0 306#1700000000000000
(1427659903.015581) can0 294#00009CFFFA000000
(1427659903.070355) can0 477#05007B7A77001400
(1427659903.114363) can0 475#7B131C0000000000
(1427659903.114653) can0 306#1600000000000000
(1427659903.114903) can0 294#00009CFFFA000000
(1427659903.115151) can0 270#9913000000000000
(1427659903.167349) can0 477#05007C7A77001400
(1427659903.214559) can0 475#7D131C0000000000
(1427659903.214872) can0 306#1600000000000000
(1427659903.215121) can0 294#00009CFFFA000000
(1427659903.215368) can0 270#9913000000000000
(1427659903.264379) can0 477#05007D7A77001400
(1427659903.314531) can0 475#76131C0000000000
(1427659903.314866) can0 306#1600000000000000
(1427659903.315124) can0 294#00009CFFFA000000
(1427659903.315371) can0 270#9813000000000000
(1427659903.361311) can0 477#05007D7A77001400
(1427659903.414496) can0 475#7B131C0000000000
(1427659903.414875) can0 306#1600000000000000
(1427659903.415136) can0 270#9913000000000000
(1427659903.415339) can0 294#00009CFFFA000000
(1427659903.458299) can0 477#05007C7A77001400
(1427659903.514454) can0 475#81131C0000000000
(1427659903.514822) can0 306#1600000000000000
(1427659903.515071) can0 294#00009CFFFA000000
(1427659903.515321) can0 270#9913000000000000
(1427659903.555384) can0 477#05007C7A77001400
(1427659903.614500) can0 475#7B131C0000000000
(1427659903.614795) can0 306#1600000000000000
(1427659903.615044) can0 294#00009CFFFA000000
(1427659903.615293) can0 270#9813000000000000
(1427659903.652361) can0 477#05007D7A77001400
(1427659903.714480) can0 475#7D131C0000000000
(1427659903.714761) can0 306#1700000000000000
(1427659903.715011) can0 294#00009CFFFA000000
(1427659903.715257) can0 270#9913000000000000
(1427659903.749165) can0 477#05007D7A77001400
(1427659903.814442) can0 475#7D131C0000000000
(1427659903.814743) can0 306#1800000000000000
(1427659903.815008) can0 294#00009CFFFA000000
(1427659903.815266) can0 270#9913000000000000
(1427659903.846129) can0 477#05007C7A77001400
(1427659903.914355) can0 475#81131C0000000000
(1427659903.914721) can0 306#1800000000000000
(1427659903.914987) can0 294#00009CFFFA000000
(1427659903.915249) can0 270#9813000000000000
(1427659903.943136) can0 477#05007D7A77001400
(1427659904.014368) can0 475#7D131C0000000000
(1427659904.014692) can0 306#1900000000000000
(1427659904.015060) can0 294#00009CFFFA000000
(1427659904.015313) can0 270#9913000000000000
(1427659904.040070) can0 477#05007D7A77001400
(1427659904.114573) can0 475#7B131C0000000000
(1427659904.114906) can0 306#1900000000000000
(1427659904.115161) can0 294#00009CFFFA000000
(1427659904.115406) can0 270#9913000000000000
(1427659904.137676) can0 477#05007D7A77001400
(1427659904.214720) can0 475#70131C0000000000
(1427659904.215064) can0 306#1800000000000000
(1427659904.215313) can0 294#00009CFFFA000000
(1427659904.215564) can0 270#9913000000000000
(1427659904.234017) can0 477#05007D7A77001400
(1427659904.314712) can0 475#7B131C0000000000
(1427659904.315073) can0 306#1800000000000000
(1427659904.315324) can0 294#00009CFFFA000000
(1427659904.315570) can0 270#9913000000000000
(1427659904.330980) can0 477#05007D7A77001400
(1427659904.414719) can0 475#7F131C0000000000
(1427659904.415021) can0 306#1800000000000000
(1427659904.415271) can0 294#00009CFFFA000000
(1427659904.415514) can0 270#9913000000000000
(1427659904.427938) can0 477#05007D7A77001400
(1427659904.514664) can0 475#7D131C0000000000
(1427659904.514965) can0 306#1700000000000000
(1427659904.515215) can0 294#00009CFFFA000000
(1427659904.515463) can0 270#9913000000000000
(1427659904.524923) can0 477#05007D7A77001400
(1427659904.614629) can0 475#7D131C0000000000
(1427659904.614939) can0 306#1700000000000000
(1427659904.615186) can0 294#00009CFFFA000000
(1427659904.615444) can0 270#9913000000000000
(1427659904.622011) can0 477#05007C7A77001400
(1427659904.714594) can0 475#7A131C0000000000
(1427659904.714893) can0 306#1800000000000000
(1427659904.715144) can0 294#00009CFFFA000000
(1427659904.715391) can0 270#9913000000000000
(1427659904.718872) can0 477#05007D7A77001400
(1427659904.814558) can0 475#7A131C0000000000
(1427659904.815840) can0 306#1800000000000000
(1427659904.816121) can0 294#00009CFFFA000000
(1427659904.816510) can0 477#05007D7A77001400
(1427659904.912835) can0 477#05007D7A77001400
(1427659904.914817) can0 475#8B131C0000000000
(1427659904.915099) can0 306#1700000000000000
(1427659904.915346) can0 294#00009CFFFA000000
(1427659904.915591) can0 270#9913000000000000
(1427659905.009776) can0 477#05007E7A77001400
(1427659905.014768) can0 475#7D131C0000000000
(1427659905.015061) can0 306#1700000000000000
(1427659905.015315) can0 294#00009CFFFA000000
(1427659905.015563) can0 270#9913000000000000
(1427659905.106753) can0 477#05007D7A77001400
(1427659905.114799) can0 475#7B131C0000000000
(1427659905.115172) can0 306#1600000000000000
(1427659905.115431) can0 294#00009CFFFA000000
(1427659905.115699) can0 270#9913000000000000
(1427659905.203712) can0 477#05007E7A77001400
(1427659905.214754) can0 475#7D131C0000000000
(1427659905.215052) can0 306#1600000000000000
(1427659905.215314) can0 294#00009CFFFA000000
(1427659905.215574) can0 270#9913000000000000
(1427659905.301814) can0 477#05007D7A77001400
(1427659905.314985) can0 475#7D131C0000000000
(1427659905.315290) can0 306#1600000000000000
(1427659905.316040) can0 270#9913000000000000
(1427659905.397723) can0 477#05007D7A77001400
(1427659905.414668) can0 475#7A131C0000000000
(1427659905.414956) can0 306#1600000000000000
(1427659905.415217) can0 294#00009CFFFA000000
(1427659905.415467) can0 270#9913000000000000
(1427659905.494625) can0 477#05007E7A77001400
(1427659905.514624) can0 475#7D131C0000000000
(1427659905.514915) can0 306#1600000000000000
