(1430401321.741595) can0 475#8601134945000000
(1430401321.741788) can0 306#1900000000000000
(1430401321.742022) can0 294#00009CFFFA000000
(1430401321.742305) can0 270#0000000000000000
(1430401321.841617) can0 475#7B01134945000000
(1430401321.841811) can0 306#1900000000000000
(1430401321.842105) can0 294#00009CFFFA000000
(1430401321.842363) can0 270#0000000000000000
(1430401321.941708) can0 475#8601134945000000
(1430401321.941902) can0 306#1900000000000000
(1430401321.942176) can0 294#00009CFFFA000000
(1430401321.942407) can0 270#0000000000000000
(1430401322.041767) can0 475#8101134945000000
(1430401322.041953) can0 306#1900000000000000
(1430401322.042213) can0 294#00009CFFFA000100
(1430401322.042475) can0 270#0000000000000000
(1430401322.141709) can0 475#7F01134945000000
(1430401322.142035) can0 306#1900000000000000
(1430401322.142287) can0 294#00009CFFFA000000
(1430401322.142531) can0 270#0000000000000000
(1430401322.241718) can0 475#8301134945000000
(1430401322.242008) can0 306#1900000000000000
(1430401322.242336) can0 294#00009CFFFA000000
(1430401322.242607) can0 270#0000000000000000
(1430401322.341681) can0 475#8801134945000000
(1430401322.342808) can0 306#1900000000000000
(1430401322.343084) can0 294#00009CFFFA000000
(1430401322.441448) can0 475#7D01134945000000
(1430401322.441880) can0 306#1800000000000000
(1430401322.442134) can0 294#00009CFFFA000000
(1430401322.442471) can0 270#0000000000000000
(1430401322.541627) can0 475#8101134945000000
(1430401322.541937) can0 306#1800000000000000
(1430401322.542309) can0 294#00009CFFFA000000
(1430401322.542586) can0 270#0000000000000000
(1430401322.641825) can0 475#8101134945000000
(1430401322.642116) can0 306#1800000000000000
(1430401322.642475) can0 270#0000000000000000
(1430401322.642690) can0 294#00009CFFFA000000
(1430401322.741353) can0 475#8301134945000000
(1430401322.741694) can0 306#1800000000000000
(1430401322.741943) can0 294#00009CFFFA000000
(1430401322.742187) can0 270#0000000000000000
(1430401322.841337) can0 475#7701134945000000
(1430401322.841759) can0 306#1800000000000000
(1430401322.842016) can0 294#00009CFFFA000000
(1430401322.842338) can0 270#0000000000000000
(1430401322.941515) can0 475#8401134945000000
(1430401322.941941) can0 306#1800000000000000
(1430401322.942204) can0 294#00009CFFFA000000
(1430401322.942458) can0 270#0000000000000000
(1430401323.041476) can0 475#7F01134945000000
(1430401323.041767) can0 306#1800000000000000
(1430401323.042022) can0 294#00009CFFFA000000
(1430401323.042312) can0 270#0000000000000000
(1430401323.141460) can0 475#8101134945000000
(1430401323.141777) can0 306#1700000000000000
(1430401323.142034) can0 294#00009CFFFA000000
(1430401323.142286) can0 270#0000000000000000
(1430401323.241564) can0 475#8601134945000000
(1430401323.241908) can0 306#1700000000000000
(1430401323.242164) can0 294#00009CFFFA000000
(1430401323.242510) can0 270#0000000000000000
(1430401323.341398) can0 475#8101134945000000
(1430401323.341717) can0 306#1700000000000000
(1430401323.342073) can0 294#00009CFFFA000000
(1430401323.342319) can0 270#0000000000000000
(1430401323.441356) can0 475#7F01134945000000
(1430401323.441752) can0 306#1700000000000000
(1430401323.442029) can0 294#00009CFFFA000000
(1430401323.442337) can0 270#0000000000000000
(1430401323.541346) can0 475#8101134945000000
(1430401323.541775) can0 306#1700000000000000
(1430401323.542028) can0 294#00009CFFFA000000
(1430401323.542282) can0 270#0000000000000000
(1430401323.641473) can0 475#7D01134945000000
(1430401323.641770) can0 306#1800000000000000
(1430401323.642026) can0 294#00009CFFFA000000
(1430401323.642273) can0 270#0000000000000000
(1430401323.741484) can0 475#8301134945000000
(1430401323.741845) can0 306#1800000000000000
(1430401323.742102) can0 294#00009CFFFA000000
(1430401323.742354) can0 270#0000000000000000
(1430401323.841486) can0 475#7F01134945000000
(1430401323.841775) can0 306#1800000000000000
(1430401323.842020) can0 294#00009CFFFA000000
(1430401323.842272) can0 270#0000000000000000
(1430401323.941419) can0 475#8101134945000000
(1430401323.941870) can0 306#1700000000000000
(1430401323.942156) can0 294#00009CFFFA000000
(1430401323.942720) can0 270#0000000000000000
(1430401324.041437) can0 475#8101134945000000
(1430401324.041841) can0 306#1800000000000000
(1430401324.042134) can0 294#00009CFFFA000000
(1430401324.042402) can0 270#0000000000000000
(1430401324.141592) can0 475#7F01134945000000
(1430401324.141918) can0 306#1800000000000000
(1430401324.142183) can0 294#00009CFFFA000000
(1430401324.142437) can0 270#0000000000000000
(1430401324.241389) can0 475#7D01134945000000
(1430401324.241767) can0 306#1800000000000000
(1430401324.242033) can0 294#00009CFFFA000000
(1430401324.242308) can0 270#0000000000000000
(1430401324.341303) can0 475#8301134945000000
(1430401324.341747) can0 306#1800000000000000
(1430401324.342005) can0 294#00009CFFFA000000
(1430401324.342255) can0 270#0000000000000000
(1430401324.441326) can0 475#7D01134945000000
(1430401324.441675) can0 306#1800000000000000
(1430401324.441929) can0 294#00009CFFFA000000
(1430401324.442182) can0 270#0000000000000000
(1430401324.541450) can0 475#7701134945000000
(1430401324.541812) can0 306#1700000000000000
(1430401324.542066) can0 294#00009CFFFA000000
(1430401324.542314) can0 270#0000000000000000
(1430401324.641650) can0 475#7B01134945000000
(1430401324.641983) can0 306#1800000000000000
(1430401324.642239) can0 294#00009CFFFA000000
(1430401324.642567) can0 270#0000000000000000
(1430401324.741687) can0 475#7F01134945000000
(1430401324.742010) can0 306#1800000000000000
(1430401324.742272) can0 294#00009CFFFA000000
(1430401324.742529) can0 270#0000000000000000
(1430401324.841666) can0 475#8301134945000000
(1430401324.841964) can0 306#1800000000000000
(1430401324.842323) can0 294#00009CFFFA000000
(1430401324.842682) can0 270#0000000000000000
(1430401324.941663) can0 475#7701134945000000
(1430401324.942081) can0 306#1800000000000000
(1430401324.942333) can0 294#00009CFFFA000000
(1430401324.942584) can0 270#0000000000000000
(1430401325.041637) can0 475#7F01134945000000
(1430401325.042058) can0 306#1800000000000000
(1430401325.042307) can0 294#00009CFFFA000000
(1430401325.042646) can0 270#0000000000000000
(1430401325.141556) can0 475#8601134945000000
(1430401325.141873) can0 306#1800000000000000
(1430401325.142153) can0 294#00009CFFFA000000
(1430401325.142405) can0 270#0000000000000000
(1430401325.241721) can0 475#7901134945000000
(1430401325.242016) can0 306#1800000000000000
(1430401325.242260) can0 294#00009CFFFA000000
(1430401325.242553) can0 270#0000000000000000
(1430401325.341747) can0 475#7701134945000000
(1430401325.342039) can0 306#1800000000000000
(1430401325.342292) can0 294#00009CFFFA000000
(1430401325.342550) can0 270#0000000000000000
(1430401325.441729) can0 475#7D01134945000000
(1430401325.442011) can0 306#1700000000000000
(1430401325.442265) can0 294#00009CFFFA000000
(1430401325.442532) can0 270#0000000000000000
(1430401325.541735) can0 475#8401134945000000
(1430401325.542162) can0 306#1700000000000000
(1430401325.542416) can0 294#00009CFFFA000000
(1430401325.542663) can0 270#0000000000000000
(1430401325.641587) can0 475#7D01134945000000
(1430401325.641917) can0 306#1700000000000000
(1430401325.642172) can0 294#00009CFFFA000000
(1430401325.642423) can0 270#0000000000000000
(1430401325.741876) can0 475#7901134945000000
(1430401325.742187) can0 306#1800000000000000
(1430401325.742442) can0 294#00009CFFFA000000
(1430401325.742691) can0 270#0000000000000000
(1430401325.841597) can0 475#7301134945000000
(1430401325.841931) can0 306#1700000000000000
(1430401325.842187) can0 294#00009CFFFA000000
(1430401325.842439) can0 270#0000000000000000
(1430401325.941549) can0 475#7701134945000000
(1430401325.941872) can0 306#1700000000000000
(1430401325.942156) can0 294#00009CFFFA000000
(1430401325.942412) can0 270#0000000000000000
(1430401326.041529) can0 475#7701134945000000
(1430401326.041823) can0 306#1700000000000000
(1430401326.042114) can0 294#00009CFFFA000000
(1430401326.042468) can0 270#0000000000000000
(1430401326.141497) can0 475#8101134945000000
(1430401326.141805) can0 306#1700000000000000
(1430401326.142079) can0 294#00009CFFFA000000
(1430401326.142335) can0 270#0000000000000000
(1430401326.241463) can0 475#7301134945000000
(1430401326.241795) can0 306#1700000000000000
(1430401326.242049) can0 294#00009CFFFA000000
(1430401326.242308) can0 270#0000000000000000
(1430401326.341415) can0 475#7901134945000000
(1430401326.341738) can0 306#1700000000000000
(1430401326.342018) can0 294#00009CFFFA000000
(1430401326.342268) can0 270#0000000000000000
(1430401326.441404) can0 475#7701134945000000
(1430401326.441746) can0 306#1700000000000000
(1430401326.442008) can0 294#00009CFFFA000000
(1430401326.442258) can0 270#0000000000000000
(1430401326.541409) can0 475#7B01134945000000
(1430401326.541758) can0 306#1700000000000000
(1430401326.542013) can0 294#00009CFFFA000000
(1430401326.542259) can0 270#0000000000000000
(1430401326.641503) can0 475#7901134945000000
(1430401326.641852) can0 306#1700000000000000
(1430401326.642119) can0 294#00009CFFFA000000
(1430401326.642385) can0 270#0000000000000000
(1430401326.741326) can0 475#7B01134945000000
(1430401326.741709) can0 306#1700000000000000
(1430401326.741978) can0 294#00009CFFFA000000
(1430401326.742239) can0 270#0000000000000000
(1430401326.841400) can0 475#6E01134945000000
(1430401326.841753) can0 306#1700000000000000
(1430401326.842021) can0 294#00009CFFFA000000
(1430401326.842283) can0 270#0000000000000000
(1430401326.941413) can0 475#7901134945000000
(1430401326.941771) can0 306#1700000000000000
(1430401326.942026) can0 294#00009CFFFA000000
(1430401326.942273) can0 270#0000000000000000
(1430401327.041472) can0 475#7301134945000000
(1430401327.041827) can0 306#1700000000000000
(1430401327.042083) can0 294#00009CFFFA000000
(1430401327.042335) can0 270#0000000000000000
(1430401327.141448) can0 475#7301134945000000
(1430401327.141785) can0 306#1700000000000000
(1430401327.142038) can0 294#00009CFFFA000000
(1430401327.142289) can0 270#0000000000000000
(1430401327.241422) can0 475#7B01134945000000
(1430401327.241882) can0 306#1700000000000000
(1430401327.242132) can0 294#00009CFFFA000000
(1430401327.242384) can0 270#0000000000000000
(1430401327.341385) can0 475#6E01134945000000
(1430401327.341704) can0 306#1700000000000000
(1430401327.341966) can0 294#00009CFFFA000000
(1430401327.342214) can0 270#0000000000000000
(1430401327.441304) can0 475#7901134945000000
(1430401327.441651) can0 306#1700000000000000
(1430401327.441928) can0 294#00009CFFFA000000
(1430401327.442168) can0 270#0000000000000000
(1430401327.541358) can0 475#7901134945000000
(1430401327.541695) can0 306#1700000000000000
(1430401327.541943) can0 294#00009CFFFA000000
(1430401327.542189) can0 270#0000000000000000
(1430401327.641295) can0 475#7B01134945000000
(1430401327.641583) can0 306#1700000000000000
(1430401327.641834) can0 294#00009CFFFA000100
(1430401327.642075) can0 270#0000000000000000
(1430401327.741253) can0 475#7101134945000000
(1430401327.741595) can0 306#1700000000000000
(1430401327.741845) can0 294#00009CFFFA000000
(1430401327.742091) can0 270#0000000000000000
(1430401327.841716) can0 475#6F01134945000000
(1430401327.842007) can0 306#1700000000000000
(1430401327.842399) can0 294#00009CFFFA000000
(1430401327.842654) can0 270#0000000000000000
(1430401327.941683) can0 475#7301134945000000
(1430401327.941993) can0 306#1700000000000000
(1430401327.942366) can0 294#00009CFFFA000000
(1430401327.942618) can0 270#0000000000000000
(1430401328.041620) can0 475#7301134945000000
(1430401328.041933) can0 306#1700000000000000
(1430401328.042188) can0 294#00009CFFFA000000
(1430401328.042437) can0 270#0000000000000000
(1430401328.141632) can0 475#7501134945000000
(1430401328.142046) can0 306#1700000000000000
(1430401328.142300) can0 294#00009CFFFA000000
(1430401328.142548) can0 270#0000000000000000
(1430401328.241501) can0 475#7701134945000000
(1430401328.241820) can0 306#1700000000000000
(1430401328.242084) can0 294#00009CFFFA000000
(1430401328.242357) can0 270#0000000000000000
(1430401328.341581) can0 475#7701134945000000
(1430401328.341901) can0 306#1600000000000000
(1430401328.342151) can0 294#00009CFFFA000000
(1430401328.342400) can0 270#0000000000000000
(1430401328.441415) can0 475#7B01134945000000
(1430401328.442022) can0 306#1600000000000000
(1430401328.442253) can0 294#00009CFFFA000000
(1430401328.541358) can0 475#6F01134945000000
(1430401328.541711) can0 306#1600000000000000
(1430401328.541963) can0 294#00009CFFFA000000
(1430401328.542210) can0 270#0000000000000000
(1430401328.641759) can0 475#7701134945000000
(1430401328.642083) can0 306#1600000000000000
(1430401328.642335) can0 294#00009CFFFA000000
(1430401328.642582) can0 270#0000000000000000
(1430401328.741424) can0 475#6C01134945000000
(1430401328.741875) can0 306#1600000000000000
(1430401328.742127) can0 294#00009CFFFA000000
(1430401328.742378) can0 270#0000000000000000
(1430401328.841674) can0 475#7301134945000000
(1430401328.842016) can0 306#1600000000000000
(1430401328.842271) can0 294#00009CFFFA000000
(1430401328.842520) can0 270#0000000000000000
(1430401328.941639) can0 475#6F01134945000000
(1430401328.941961) can0 306#1500000000000000
(1430401328.942212) can0 294#00009CFFFA000000
(1430401328.942458) can0 270#0000000000000000
(1430401329.041384) can0 475#7701134945000000
(1430401329.041703) can0 306#1500000000000000
(1430401329.041952) can0 294#00009CFFFA000000
(1430401329.042204) can0 270#0000000000000000
(1430401329.141503) can0 475#7501134945000000
(1430401329.141840) can0 306#1500000000000000
(1430401329.142088) can0 294#00009CFFFA000000
(1430401329.142337) can0 270#0000000000000000
(1430401329.241251) can0 475#6E01134945000000
(1430401329.241542) can0 306#1400000000000000
(1430401329.241951) can0 294#00009CFFFA000000
(1430401329.242203) can0 270#0000000000000000
(1430401329.341422) can0 475#6C01134945000000
(1430401329.341745) can0 306#1500000000000000
(1430401329.341992) can0 294#00009CFFFA000000
(1430401329.342240) can0 270#0000000000000000
(1430401329.441481) can0 475#7101134945000000
(1430401329.441869) can0 306#1500000000000000
(1430401329.442140) can0 294#00009CFFFA000000
(1430401329.442407) can0 270#0000000000000000
(1430401329.541486) can0 475#7701134945000000
(1430401329.541911) can0 306#1500000000000000
(1430401329.542168) can0 294#00009CFFFA000000
(1430401329.542416) can0 270#0000000000000000
(1430401329.641359) can0 475#6E01134945000000
(1430401329.641705) can0 306#1600000000000000
(1430401329.641960) can0 294#00009CFFFA000000
(1430401329.642206) can0 270#0000000000000000
(1430401329.741344) can0 475#6C01134945000000
(1430401329.741701) can0 306#1600000000000000
(1430401329.741961) can0 294#00009CFFFA000000
(1430401329.742207) can0 270#0000000000000000
(1430401329.841530) can0 475#7701134945000000
(1430401329.841850) can0 306#1600000000000000
(1430401329.842145) can0 294#00009CFFFA000000
(1430401329.842404) can0 270#0000000000000000
(1430401329.941283) can0 475#7301134945000000
(1430401329.941605) can0 306#1600000000000000
(1430401329.941876) can0 294#00009CFFFA000000
(1430401329.942153) can0 270#0000000000000000
(1430401330.041523) can0 475#6C01134945000000
(1430401330.041830) can0 306#1600000000000000
(1430401330.042112) can0 294#00009CFFFA000000
(1430401330.042369) can0 270#0000000000000000
(1430401330.141511) can0 475#6801134945000000
(1430401330.141827) can0 306#1600000000000000
(1430401330.142223) can0 294#00009CFFFA000000
(1430401330.142485) can0 270#0000000000000000
(1430401330.241430) can0 475#6C01134945000000
(1430401330.241857) can0 306#1600000000000000
(1430401330.242135) can0 294#00009CFFFA000000
(1430401330.242389) can0 270#0000000000000000
(1430401330.341601) can0 475#7301134945000000
(1430401330.341943) can0 306#1700000000000000
(1430401330.342218) can0 294#00009CFFFA000000
(1430401330.342473) can0 270#0000000000000000
(1430401330.441400) can0 475#6F01134945000000
(1430401330.441831) can0 306#1700000000000000
(1430401330.442086) can0 294#00009CFFFA000000
(1430401330.442336) can0 270#0000000000000000
(1430401330.541399) can0 475#6F01134945000000
(1430401330.541839) can0 306#1800000000000000
(1430401330.542095) can0 294#00009CFFFA000000
(1430401330.542350) can0 270#0000000000000000
(1430401330.641364) can0 475#7301134945000000
(1430401330.641789) can0 306#1800000000000000
(1430401330.642038) can0 294#00009CFFFA000000
(1430401330.642713) can0 270#0000000000000000
(1430401330.741491) can0 475#6F01134945000000
(1430401330.742093) can0 294#00009CFFFA000000
(1430401330.742301) can0 270#0000000000000000
(1430401330.841284) can0 475#6C01134945000000
(1430401330.841701) can0 306#1800000000000000
(1430401330.841960) can0 294#00009CFFFA000000
(1430401330.842210) can0 270#0000000000000000
(1430401330.941610) can0 475#6C01134945000000
(1430401330.941962) can0 306#1800000000000000
(1430401330.942214) can0 294#00009CFFFA000000
(1430401330.942454) can0 270#0000000000000000
(1430401331.041647) can0 475#6C01134945000000
(1430401331.041971) can0 306#1800000000000000
(1430401331.042230) can0 294#00009CFFFA000000
(1430401331.042477) can0 270#0000000000000000
(1430401331.141685) can0 475#7101134945000000
(1430401331.142112) can0 306#1800000000000000
(1430401331.142368) can0 294#00009CFFFA000000
(1430401331.142611) can0 270#0000000000000000
(1430401331.241826) can0 475#6A01134945000000
(1430401331.242147) can0 306#1800000000000000
(1430401331.242397) can0 294#00009CFFFA000000
(1430401331.242642) can0 270#0000000000000000
(1430401331.341786) can0 475#6E01134945000000
(1430401331.342109) can0 306#1900000000000000
(1430401331.342364) can0 294#00009CFFFA000000
(1430401331.342619) can0 270#0000000000000000
(1430401331.441603) can0 475#7901134945000000
(1430401331.441981) can0 306#1A00000000000000
(1430401331.442267) can0 294#00009CFFFA000000
(1430401331.442521) can0 270#0000000000000000
(1430401331.541596) can0 475#6A01134945000000
(1430401331.542023) can0 306#1A00000000000000
(1430401331.542272) can0 294#00009CFFFA000000
(1430401331.542518) can0 270#0000000000000000
(1430401331.631532) can0 475#6F01134945000000
(1430401331.631850) can0 306#1A00000000000000
(1430401331.632107) can0 294#00009CFFFA000000
(1430401331.632357) can0 270#0000000000000000
(1430401331.731621) can0 475#6801134945000000
(1430401331.731972) can0 306#1900000000000000
(1430401331.732230) can0 294#00009CFFFA000000
(1430401331.732479) can0 270#0000000000000000
(1430401331.831640) can0 475#6C01134945000000
(1430401331.831990) can0 306#1900000000000000
(1430401331.832250) can0 294#00009CFFFA000000
(1430401331.832498) can0 270#0000000000000000
(1430401331.931715) can0 475#6E01134945000000
(1430401331.932032) can0 294#00009CFFFA000000
(1430401331.932242) can0 306#1A00000000000000
(1430401331.932492) can0 270#0000000000000000
(1430401332.031647) can0 475#6801134945000000
(1430401332.031940) can0 306#1A00000000000000
(1430401332.032198) can0 294#00009CFFFA000000
(1430401332.032459) can0 270#0000000000000000
(1430401332.131550) can0 475#6C01134945000000
(1430401332.131849) can0 306#1A00000000000000
(1430401332.132102) can0 294#00009CFFFA000000
(1430401332.132367) can0 270#0000000000000000
(1430401332.231545) can0 475#6801134945000000
(1430401332.231824) can0 306#1B00000000000000
(1430401332.232074) can0 294#00009CFFFA000000
(1430401332.232328) can0 270#0000000000000000
(1430401332.331370) can0 475#6A01134945000000
(1430401332.331769) can0 306#1B00000000000000
(1430401332.332017) can0 294#00009CFFFA000000
(1430401332.332268) can0 270#0000000000000000
(1430401332.431262) can0 475#6E01134945000000
(1430401332.431713) can0 306#1B00000000000000
(1430401332.431973) can0 294#00009CFFFA000000
(1430401332.432220) can0 270#0000000000000000
(1430401332.531459) can0 475#6601134945000000
(1430401332.531780) can0 306#1B00000000000000
(1430401332.532035) can0 294#00009CFFFA000000
(1430401332.532389) can0 270#0000000000000000
(1430401332.631451) can0 475#6601134945000000
(1430401332.631743) can0 306#1B00000000000000
(1430401332.631997) can0 294#00009CFFFA000000
(1430401332.632248) can0 270#0000000000000000
(1430401332.731302) can0 475#6F01134945000000
(1430401332.731755) can0 306#1B00000000000000
(1430401332.732018) can0 270#0000000000000000
(1430401332.732223) can0 294#00009CFFFA000000
(1430401332.831307) can0 475#6E01134945000000
(1430401332.831642) can0 306#1B00000000000000
(1430401332.831895) can0 294#00009CFFFA000000
(1430401332.832157) can0 270#0000000000000000
(1430401332.931383) can0 475#6A01134945000000
(1430401332.932005) can0 294#00009CFFFA000000
(1430401332.932240) can0 306#1B00000000000000
(1430401333.031282) can0 475#7101134945000000
(1430401333.031607) can0 306#1B00000000000000
(1430401333.031861) can0 294#00009CFFFA000000
(1430401333.032105) can0 270#0000000000000000
(1430401333.131373) can0 475#6601134945000000
(1430401333.131699) can0 306#1B00000000000000
(1430401333.132095) can0 294#00009CFFFA000000
(1430401333.132325) can0 270#0000000000000000
(1430401333.231275) can0 475#6201134945000000
(1430401333.231712) can0 306#1A00000000000000
(1430401333.231969) can0 294#00009CFFFA000000
(1430401333.232228) can0 270#0000000000000000
(1430401333.331349) can0 475#6201134945000000
(1430401333.331802) can0 306#1A00000000000000
(1430401333.332064) can0 294#00009CFFFA000000
(1430401333.332318) can0 270#0000000000000000
(1430401333.431453) can0 475#6601134945000000
(1430401333.431745) can0 306#1900000000000000
(1430401333.431995) can0 294#00009CFFFA000000
(1430401333.432249) can0 270#0000000000000000
(1430401333.531479) can0 475#6E01134945000000
(1430401333.531796) can0 294#00009CFFFA000000
(1430401333.532006) can0 306#1900000000000000
(1430401333.532271) can0 270#0000000000000000
(1430401333.631365) can0 475#6E01134945000000
(1430401333.631671) can0 306#1900000000000000
(1430401333.631923) can0 294#00009CFFFA000000
(1430401333.632172) can0 270#0000000000000000
(1430401333.731449) can0 475#6F01134945000000
(1430401333.731756) can0 294#00009CFFFA000000
(1430401333.731968) can0 306#1900000000000000
(1430401333.732226) can0 270#0000000000000000
(1430401333.831238) can0 475#6001134945000000
(1430401333.831567) can0 306#1900000000000000
(1430401333.831822) can0 294#00009CFFFA000000
(1430401333.832071) can0 270#0000000000000000
(1430401333.931282) can0 475#6A01134945000000
(1430401333.931969) can0 306#1900000000000000
(1430401333.932248) can0 270#0000000000000000
(1430401334.031281) can0 475#6F01134945000000
(1430401334.031669) can0 306#1900000000000000
(1430401334.031942) can0 294#00009CFFFA000000
(1430401334.032198) can0 270#0000000000000000
(1430401334.131525) can0 475#6601134945000000
(1430401334.131827) can0 306#1900000000000000
(1430401334.132081) can0 294#00009CFFFA000000
(1430401334.132336) can0 270#0000000000000000
(1430401334.231410) can0 475#6001134945000000
(1430401334.231709) can0 306#1900000000000000
(1430401334.231991) can0 294#00009CFFFA000100
(1430401334.232244) can0 270#0000000000000000
(1430401334.331424) can0 475#6C01134945000000
(1430401334.331765) can0 306#1900000000000000
(1430401334.332022) can0 294#00009CFFFA000000
(1430401334.332273) can0 270#0000000000000000
(1430401334.431362) can0 475#6201134945000000
(1430401334.431677) can0 306#1900000000000000
(1430401334.431929) can0 294#00009CFFFA000000
(1430401334.432179) can0 270#0000000000000000
(1430401334.531355) can0 475#6C01134945000000
(1430401334.531729) can0 306#1900000000000000
(1430401334.531941) can0 294#00009CFFFA000000
(1430401334.532192) can0 270#0000000000000000
(1430401334.631544) can0 475#6201134945000000
(1430401334.631847) can0 306#1900000000000000
(1430401334.632098) can0 294#00009CFFFA000000
(1430401334.632349) can0 270#0000000000000000
(1430401334.732579) can0 294#00009CFFFA000000
(1430401334.831732) can0 475#5E01134945000000
(1430401334.832016) can0 306#1800000000000000
(1430401334.832272) can0 294#00009CFFFA000000
(1430401334.832516) can0 270#0000000000000000
(1430401334.931675) can0 475#5801134945000000
(1430401334.932014) can0 306#1800000000000000
(1430401334.932267) can0 294#00009CFFFA000000
(1430401334.932514) can0 270#0000000000000000
(1430401335.031661) can0 475#6001134945000000
(1430401335.031963) can0 306#1800000000000000
(1430401335.032223) can0 294#00009CFFFA000000
(1430401335.032472) can0 270#0000000000000000
(1430401335.131706) can0 475#6801134945000000
(1430401335.132001) can0 306#1800000000000000
(1430401335.132259) can0 294#00009CFFFA000000
(1430401335.132605) can0 270#0000000000000000
(1430401335.231389) can0 475#6601134945000000
(1430401335.231712) can0 306#1800000000000000
(1430401335.231978) can0 294#00009CFFFA000000
(1430401335.232518) can0 270#0000000000000000
(1430401335.331657) can0 475#6401134945000000
(1430401335.331960) can0 306#1800000000000000
(1430401335.332228) can0 294#00009CFFFA000000
(1430401335.332577) can0 270#0000000000000000
(1430401335.431509) can0 475#6801134945000000
(1430401335.431829) can0 306#1800000000000000
(1430401335.432081) can0 294#00009CFFFA000000
(1430401335.432318) can0 270#0000000000000000
(1430401335.531332) can0 475#5701134945000000
(1430401335.531778) can0 306#1800000000000000
(1430401335.532034) can0 270#0000000000000000
(1430401335.532237) can0 294#00009CFFFA000000
(1430401335.631506) can0 475#6401134945000000
(1430401335.631822) can0 306#1700000000000000
(1430401335.632099) can0 294#00009CFFFA000000
(1430401335.632350) can0 270#0000000000000000
(1430401335.731477) can0 475#6F01134945000000
(1430401335.731847) can0 306#1800000000000000
(1430401335.732057) can0 294#00009CFFFA000000
(1430401335.732302) can0 270#0000000000000000
(1430401335.831452) can0 475#6801134945000000
(1430401335.831784) can0 306#1800000000000000
(1430401335.832043) can0 294#00009CFFFA000000
(1430401335.832290) can0 270#0000000000000000
(1430401335.931399) can0 475#6801134945000000
(1430401335.931806) can0 306#1800000000000000
(1430401335.932066) can0 294#00009CFFFA000000
(1430401335.932317) can0 270#0000000000000000
(1430401336.031389) can0 475#6E01134945000000
(1430401336.031691) can0 306#1700000000000000
(1430401336.031954) can0 294#00009CFFFA000000
(1430401336.032215) can0 270#0000000000000000
(1430401336.131336) can0 475#6401134945000000
(1430401336.131728) can0 306#1800000000000000
(1430401336.131990) can0 294#00009CFFFA000000
(1430401336.132236) can0 270#0000000000000000
(1430401336.231280) can0 475#6601134945000000
(1430401336.231583) can0 306#1800000000000000
(1430401336.231835) can0 294#00009CFFFA000000
(1430401336.232086) can0 270#0000000000000000
(1430401336.331292) can0 475#5A01134945000000
(1430401336.331708) can0 306#1800000000000000
(1430401336.331967) can0 294#00009CFFFA000000
(1430401336.332249) can0 270#0000000000000000
(1430401336.431439) can0 475#5801134945000000
(1430401336.431745) can0 306#1800000000000000
(1430401336.431998) can0 294#00009CFFFA000000
(1430401336.432241) can0 270#0000000000000000
(1430401336.531537) can0 475#5701134945000000
(1430401336.531902) can0 294#00009CFFFA000000
(1430401336.532111) can0 306#1700000000000000
(1430401336.532358) can0 270#0000000000000000
(1430401336.631441) can0 475#6201134945000000
(1430401336.631732) can0 306#1700000000000000
(1430401336.631985) can0 294#00009CFFFA000000
(1430401336.632228) can0 270#0000000000000000
(1430401336.731228) can0 475#6601134945000000
(1430401336.731674) can0 306#1700000000000000
(1430401336.731937) can0 294#00009CFFFA000000
(1430401336.732190) can0 270#0000000000000000
(1430401336.831319) can0 475#6001134945000000
(1430401336.831659) can0 306#1700000000000000
(1430401336.831921) can0 294#00009CFFFA000000
(1430401336.832176) can0 270#0000000000000000
(1430401336.931116) can0 475#6A01134945000000
(1430401336.931424) can0 306#1700000000000000
(1430401336.931846) can0 294#00009CFFFA000000
(1430401336.932114) can0 270#0000000000000000
(1430401337.031299) can0 475#6001134945000000
(1430401337.031670) can0 306#1700000000000000
(1430401337.031929) can0 294#00009CFFFA000000
(1430401337.032193) can0 270#0000000000000000
(1430401337.131290) can0 475#6401134945000000
(1430401337.131617) can0 306#1800000000000000
(1430401337.132059) can0 294#00009CFFFA000000
(1430401337.132416) can0 270#0000000000000000
(1430401337.231434) can0 475#6001134945000000
(1430401337.231745) can0 306#1800000000000000
(1430401337.232011) can0 294#00009CFFFA000000
(1430401337.232276) can0 270#0000000000000000
(1430401337.331733) can0 475#6201134945000000
(1430401337.332036) can0 306#1800000000000000
(1430401337.332290) can0 294#00009CFFFA000000
(1430401337.332633) can0 270#0000000000000000
(1430401337.431395) can0 475#6201134945000000
(1430401337.431721) can0 306#1800000000000000
(1430401337.431979) can0 294#00009CFFFA000100
(1430401337.432226) can0 270#0000000000000000
(1430401337.531399) can0 475#6601134945000000
(1430401337.531817) can0 306#1900000000000000
(1430401337.532089) can0 270#0000000000000000
(1430401337.532303) can0 294#00009CFFFA000000
(1430401337.631391) can0 475#6F01134945000000
(1430401337.631710) can0 306#1900000000000000
(1430401337.631962) can0 294#00009CFFFA000000
(1430401337.632213) can0 270#0000000000000000
(1430401337.731336) can0 475#6001134945000000
(1430401337.731722) can0 306#1900000000000000
(1430401337.731991) can0 270#0000000000000000
(1430401337.732193) can0 294#00009CFFFA000000
(1430401337.831532) can0 475#5701134945000000
(1430401337.831860) can0 306#1900000000000000
(1430401337.832113) can0 294#00009CFFFA000100
(1430401337.832359) can0 270#0000000000000000
(1430401337.931476) can0 475#6001134945000000
(1430401337.931885) can0 306#1800000000000000
(1430401337.932146) can0 294#00009CFFFA000000
(1430401337.932392) can0 270#0000000000000000
(1430401338.031526) can0 475#5C01134945000000
(1430401338.031910) can0 306#1900000000000000
(1430401338.032178) can0 294#00009CFFFA000000
(1430401338.032441) can0 270#0000000000000000
(1430401338.131809) can0 475#6401134945000000
(1430401338.132106) can0 294#00009CFFFA000000
(1430401338.132312) can0 306#1800000000000000
(1430401338.132554) can0 270#0000000000000000
(1430401338.231476) can0 475#5A01134945000000
(1430401338.231901) can0 306#1800000000000000
(1430401338.232158) can0 294#00009CFFFA000100
(1430401338.232406) can0 270#0000000000000000
(1430401338.331476) can0 475#5E01134945000000
(1430401338.331981) can0 306#1800000000000000
(1430401338.332236) can0 270#0000000000000000
(1430401338.431389) can0 475#5801134945000000
(1430401338.431855) can0 306#1800000000000000
(1430401338.432110) can0 294#00009CFFFA000000
(1430401338.432356) can0 270#0000000000000000
(1430401338.531510) can0 475#5C01134945000000
(1430401338.531974) can0 306#1800000000000000
(1430401338.532189) can0 294#00009CFFFA000000
(1430401338.532437) can0 270#0000000000000000
(1430401338.631334) can0 475#5A01134945000000
(1430401338.631636) can0 306#1800000000000000
(1430401338.631911) can0 294#00009CFFFA000000
(1430401338.632160) can0 270#0000000000000000
(1430401338.731498) can0 475#5E01134945000000
(1430401338.731873) can0 306#1900000000000000
(1430401338.732135) can0 294#00009CFFFA000000
(1430401338.732334) can0 270#0000000000000000
(1430401338.831513) can0 475#5E01134945000000
(1430401338.831871) can0 306#1800000000000000
(1430401338.832129) can0 294#00009CFFFA000000
(1430401338.832377) can0 270#0000000000000000
(1430401338.931481) can0 475#6001134945000000
(1430401338.931854) can0 306#1800000000000000
(1430401338.932075) can0 294#00009CFFFA000000
(1430401338.932323) can0 270#0000000000000000
(1430401339.031393) can0 475#5E01134945000000
(1430401339.031720) can0 306#1800000000000000
(1430401339.031977) can0 294#00009CFFFA000000
(1430401339.032226) can0 270#0000000000000000
(1430401339.131615) can0 306#1800000000000000
(1430401339.132031) can0 294#00009CFFFA000000
(1430401339.132395) can0 270#0000000000000000
(1430401339.231366) can0 475#5101134945000000
(1430401339.231658) can0 306#1900000000000000
(1430401339.231917) can0 294#00009CFFFA000000
(1430401339.232178) can0 270#0000000000000000
(1430401339.331305) can0 475#5801134945000000
(1430401339.331616) can0 306#1800000000000000
(1430401339.331973) can0 294#00009CFFFA000100
(1430401339.332232) can0 270#0000000000000000
(1430401339.431320) can0 475#5C01134945000000
(1430401339.431704) can0 306#1800000000000000
(1430401339.431996) can0 294#00009CFFFA000100
(1430401339.432250) can0 270#0000000000000000
(1430401339.531479) can0 475#5E01134945000000
(1430401339.531827) can0 306#1800000000000000
(1430401339.532134) can0 270#0000000000000000
(1430401339.532339) can0 294#00009CFFFA000000
(1430401339.631444) can0 475#6001134945000000
(1430401339.631764) can0 306#1800000000000000
(1430401339.632020) can0 294#00009CFFFA000000
(1430401339.632267) can0 270#0000000000000000
(1430401339.731455) can0 475#5E01134945000000
(1430401339.731790) can0 306#1800000000000000
(1430401339.732102) can0 294#00009CFFFA000000
(1430401339.732591) can0 270#0000000000000000
(1430401339.831414) can0 475#5C01134945000000
(1430401339.831739) can0 306#1800000000000000
(1430401339.831989) can0 294#00009CFFFA000000
(1430401339.832242) can0 270#0000000000000000
(1430401339.931422) can0 475#5501134945000000
(1430401339.931727) can0 294#00009CFFFA000000
(1430401339.932017) can0 306#1800000000000000
(1430401339.932273) can0 270#0000000000000000
(1430401340.031360) can0 475#5101134945000000
(1430401340.031679) can0 306#1800000000000000
(1430401340.031934) can0 294#00009CFFFA000000
(1430401340.032284) can0 270#0000000000000000
(1430401340.131562) can0 475#6001134945000000
(1430401340.131955) can0 294#00009CFFFA000000
(1430401340.132184) can0 306#1800000000000000
(1430401340.231318) can0 475#5E01134945000000
(1430401340.231608) can0 306#1800000000000000
(1430401340.231963) can0 294#00009CFFFA000000
(1430401340.232223) can0 270#0000000000000000
(1430401340.331470) can0 475#5301134945000000
(1430401340.331852) can0 306#1800000000000000
(1430401340.332158) can0 270#0000000000000000
(1430401340.332363) can0 294#00009CFFFA000000
(1430401340.431456) can0 475#5501134945000000
(1430401340.431799) can0 306#1800000000000000
(1430401340.432061) can0 294#00009CFFFA000000
(1430401340.432315) can0 270#0000000000000000
(1430401340.531277) can0 475#5801134945000000
(1430401340.531719) can0 306#1800000000000000
(1430401340.532074) can0 294#00009CFFFA000000
(1430401340.532286) can0 270#0000000000000000
(1430401340.631433) can0 475#5C01134945000000
(1430401340.631732) can0 306#1800000000000000
(1430401340.631987) can0 294#00009CFFFA000100
(1430401340.632235) can0 270#0000000000000000
(1430401340.731586) can0 475#6601134945000000
(1430401340.731936) can0 306#1800000000000000
(1430401340.732241) can0 270#0000000000000000
(1430401340.732445) can0 294#00009CFFFA000000
(1430401340.831390) can0 475#5301134945000000
(1430401340.831729) can0 306#1800000000000000
(1430401340.831982) can0 294#00009CFFFA000000
(1430401340.832231) can0 270#0000000000000000
(1430401340.931444) can0 475#5301134945000000
(1430401340.931788) can0 306#1800000000000000
(1430401340.932151) can0 294#00009CFFFA000000
(1430401340.932514) can0 270#0000000000000000
(1430401341.031579) can0 475#4D01134945000000
(1430401341.031897) can0 306#1800000000000000
(1430401341.032152) can0 294#00009CFFFA000000
(1430401341.032403) can0 270#0000000000000000
(1430401341.131668) can0 475#4701134945000000
(1430401341.132071) can0 306#1800000000000000
(1430401341.132335) can0 270#0000000000000000
(1430401341.132541) can0 294#00009CFFFA000000
(1430401341.231555) can0 475#5801134945000000
(1430401341.231980) can0 306#1800000000000000
(1430401341.232230) can0 294#00009CFFFA000100
(1430401341.232482) can0 270#0000000000000000
(1430401341.331462) can0 475#5A01134945000000
(1430401341.331982) can0 306#1900000000000000
(1430401341.332293) can0 270#0000000000000000
(1430401341.332501) can0 294#00009CFFFA000100
(1430401341.431683) can0 475#5C01134945000000
(1430401341.432004) can0 306#1900000000000000
(1430401341.432259) can0 294#00009CFFFA000100
(1430401341.432505) can0 270#0000000000000000
(1430401341.531669) can0 475#5A01134945000000
(1430401341.532016) can0 306#1900000000000000
(1430401341.532319) can0 294#00009CFFFA000100
(1430401341.532523) can0 270#0000000000000000
(1430401341.631531) can0 475#5101134945000000
(1430401341.631860) can0 306#1900000000000000
(1430401341.632114) can0 294#00009CFFFA000000
(1430401341.632364) can0 270#0000000000000000
(1430401341.731307) can0 475#5501134945000000
(1430401341.731782) can0 306#1900000000000000
(1430401341.732127) can0 294#00009CFFFA000000
(1430401341.732387) can0 270#0000000000000000
(1430401341.831350) can0 475#5C01134945000000
(1430401341.831772) can0 306#1900000000000000
(1430401341.832022) can0 294#00009CFFFA000000
(1430401341.832275) can0 270#0000000000000000
(1430401341.931522) can0 475#4F01134945000000
(1430401341.931820) can0 306#1900000000000000
(1430401341.932128) can0 294#00009CFFFA000100
(1430401341.932348) can0 270#0000000000000000
(1430401342.031682) can0 475#5C01134945000000
(1430401342.032554) can0 294#00009CFFFA000100
(1430401342.032874) can0 270#0000000000000000
(1430401342.131224) can0 475#5501134945000000
(1430401342.131548) can0 306#1900000000000000
(1430401342.131922) can0 294#00009CFFFA000000
(1430401342.132270) can0 270#0000000000000000
(1430401342.231362) can0 475#5101134945000000
(1430401342.231681) can0 306#1900000000000000
(1430401342.231944) can0 294#00009CFFFA000000
(1430401342.232198) can0 270#0000000000000000
(1430401342.331198) can0 475#4F01134945000000
(1430401342.331655) can0 306#1900000000000000
(1430401342.331917) can0 294#00009CFFFA000000
(1430401342.332357) can0 270#0000000000000000
(1430401342.431370) can0 475#5501134945000000
(1430401342.431657) can0 306#1800000000000000
(1430401342.431912) can0 294#00009CFFFA000000
(1430401342.432162) can0 270#0000000000000000
(1430401342.531353) can0 475#5701134945000000
(1430401342.531695) can0 306#1800000000000000
(1430401342.531949) can0 294#00009CFFFA000000
(1430401342.532290) can0 270#0000000000000000
(1430401342.631336) can0 475#4D01134945000000
(1430401342.631763) can0 306#1800000000000000
(1430401342.632026) can0 294#00009CFFFA000000
(1430401342.632286) can0 270#0000000000000000
(1430401342.731479) can0 475#4501134945000000
(1430401342.731795) can0 306#1700000000000000
(1430401342.732087) can0 294#00009CFFFA000000
(1430401342.732387) can0 270#0000000000000000
(1430401342.831509) can0 475#5301134945000000
(1430401342.831828) can0 306#1700000000000000
(1430401342.832083) can0 294#00009CFFFA000000
(1430401342.832286) can0 270#0000000000000000
(1430401342.931391) can0 475#5801134945000000
(1430401342.931744) can0 306#1700000000000000
(1430401342.932000) can0 294#00009CFFFA000000
(1430401342.932343) can0 270#0000000000000000
(1430401343.031436) can0 475#5A01134945000000
(1430401343.031757) can0 294#00009CFFFA000000
(1430401343.031969) can0 306#1700000000000000
(1430401343.032220) can0 270#0000000000000000
(1430401343.131403) can0 475#5E01134945000000
(1430401343.131699) can0 306#1700000000000000
(1430401343.131949) can0 294#00009CFFFA000000
(1430401343.132392) can0 270#0000000000000000
(1430401343.231343) can0 475#5501134945000000
(1430401343.231633) can0 306#1800000000000000
(1430401343.231895) can0 294#00009CFFFA000100
(1430401343.232149) can0 270#0000000000000000
(1430401343.331355) can0 475#4B01134945000000
(1430401343.331765) can0 306#1800000000000000
(1430401343.332032) can0 294#00009CFFFA000000
(1430401343.332478) can0 270#0000000000000000
(1430401343.431301) can0 475#5101134945000000
(1430401343.431765) can0 306#1800000000000000
(1430401343.432030) can0 294#00009CFFFA000000
(1430401343.432283) can0 270#0000000000000000
(1430401343.531703) can0 475#5301134945000000
(1430401343.532029) can0 306#1800000000000000
(1430401343.532375) can0 270#0000000000000000
(1430401343.532588) can0 294#00009CFFFA000000
(1430401343.631440) can0 475#5A01134945000000
(1430401343.631788) can0 306#1800000000000000
(1430401343.632039) can0 294#00009CFFFA000000
(1430401343.632285) can0 270#0000000000000000
(1430401343.731434) can0 475#4F01134945000000
(1430401343.731771) can0 306#1800000000000000
(1430401343.732024) can0 294#00009CFFFA000100
(1430401343.732369) can0 270#0000000000000000
(1430401343.831230) can0 475#5501134945000000
(1430401343.831650) can0 306#1800000000000000
(1430401343.831904) can0 294#00009CFFFA000100
(1430401343.832154) can0 270#0000000000000000
(1430401343.931327) can0 475#4F01134945000000
(1430401343.931677) can0 306#1800000000000000
(1430401343.931936) can0 294#00009CFFFA000100
(1430401343.932228) can0 270#0000000000000000
(1430401344.031522) can0 475#5501134945000000
(1430401344.031844) can0 306#1900000000000000
(1430401344.032096) can0 294#00009CFFFA000100
(1430401344.032344) can0 270#0000000000000000
(1430401344.131451) can0 475#4201134945000000
(1430401344.131799) can0 306#1800000000000000
(1430401344.132054) can0 294#00009CFFFA000100
(1430401344.132405) can0 270#0000000000000000
(1430401344.231567) can0 475#4B01134945000000
(1430401344.231885) can0 306#1700000000000000
(1430401344.232146) can0 294#00009CFFFA000100
(1430401344.233188) can0 270#0000000000000000
(1430401344.331691) can0 475#5501134945000000
(1430401344.332017) can0 306#1700000000000000
(1430401344.332359) can0 294#00009CFFFA000000
(1430401344.332628) can0 270#0000000000000000
(1430401344.431465) can0 475#4D01134945000000
(1430401344.431918) can0 306#1700000000000000
(1430401344.432198) can0 294#00009CFFFA000000
(1430401344.432453) can0 270#0000000000000000
(1430401344.531515) can0 475#5101134945000000
(1430401344.531915) can0 306#1600000000000000
(1430401344.532210) can0 294#00009CFFFA000000
(1430401344.532526) can0 270#0000000000000000
(1430401344.631403) can0 475#4F01134945000000
(1430401344.631819) can0 306#1600000000000000
(1430401344.632104) can0 294#00009CFFFA000000
(1430401344.632354) can0 270#0000000000000000
(1430401344.731429) can0 475#4701134945000000
(1430401344.731850) can0 306#1600000000000000
(1430401344.732105) can0 294#00009CFFFA000000
(1430401344.732439) can0 270#0000000000000000
(1430401344.831377) can0 475#4501134945000000
(1430401344.831821) can0 306#1500000000000000
(1430401344.832083) can0 294#00009CFFFA000000
(1430401344.832346) can0 270#0000000000000000
(1430401344.931344) can0 475#5101134945000000
(1430401344.931688) can0 306#1400000000000000
(1430401344.931947) can0 294#00009CFFFA000000
(1430401344.932204) can0 270#0000000000000000
(1430401345.031519) can0 475#4B01134945000000
(1430401345.031834) can0 306#1400000000000000
(1430401345.032089) can0 294#00009CFFFA000000
(1430401345.032351) can0 270#0000000000000000
(1430401345.131296) can0 475#4F01134945000000
(1430401345.131599) can0 306#1400000000000000
(1430401345.131986) can0 294#00009CFFFA000000
(1430401345.132298) can0 270#0000000000000000
(1430401345.231493) can0 475#5A01134945000000
(1430401345.231807) can0 306#1500000000000000
(1430401345.232064) can0 294#00009CFFFA000000
(1430401345.232305) can0 270#0000000000000000
(1430401345.331463) can0 475#5301134945000000
(1430401345.331771) can0 306#1500000000000000
(1430401345.332022) can0 294#00009CFFFA000100
(1430401345.332320) can0 270#0000000000000000
(1430401345.431407) can0 475#5301134945000000
(1430401345.431705) can0 306#1600000000000000
(1430401345.431958) can0 294#00009CFFFA000100
(1430401345.432212) can0 270#0000000000000000
(1430401345.531358) can0 475#4B01134945000000
(1430401345.531692) can0 306#1600000000000000
(1430401345.531946) can0 294#00009CFFFA000000
(1430401345.532206) can0 270#0000000000000000
(1430401345.631338) can0 475#4D01134945000000
(1430401345.631666) can0 306#1600000000000000
(1430401345.631936) can0 294#00009CFFFA000000
(1430401345.632202) can0 270#0000000000000000
(1430401345.731577) can0 475#4701134945000000
(1430401345.731896) can0 306#1600000000000000
(1430401345.732149) can0 294#00009CFFFA000000
(1430401345.732585) can0 270#0000000000000000
(1430401345.831577) can0 475#4301134945000000
(1430401345.831892) can0 294#00009CFFFA000000
(1430401345.832101) can0 306#1600000000000000
(1430401345.832349) can0 270#0000000000000000
(1430401345.931593) can0 475#4501134945000000
(1430401345.931918) can0 294#00009CFFFA000000
(1430401345.932130) can0 306#1600000000000000
(1430401345.932464) can0 270#0000000000000000
(1430401346.031515) can0 475#4901134945000000
(1430401346.031827) can0 306#1700000000000000
(1430401346.032081) can0 294#00009CFFFA000000
(1430401346.032339) can0 270#0000000000000000
(1430401346.131428) can0 475#4D01134945000000
(1430401346.131752) can0 306#1700000000000000
(1430401346.132018) can0 294#00009CFFFA000000
(1430401346.132286) can0 270#0000000000000000
(1430401346.231434) can0 475#4B01134945000000
(1430401346.231740) can0 306#1700000000000000
(1430401346.232011) can0 294#00009CFFFA000100
(1430401346.232260) can0 270#0000000000000000
(1430401346.331368) can0 475#5101134945000000
(1430401346.331689) can0 306#1700000000000000
(1430401346.331946) can0 294#00009CFFFA000100
(1430401346.332241) can0 270#0000000000000000
(1430401346.431370) can0 475#4B01134945000000
(1430401346.431814) can0 306#1800000000000000
(1430401346.432084) can0 294#00009CFFFA000100
(1430401346.432336) can0 270#0000000000000000
(1430401346.531378) can0 475#4301134945000000
(1430401346.531798) can0 306#1800000000000000
(1430401346.532082) can0 294#00009CFFFA000100
(1430401346.532339) can0 270#0000000000000000
(1430401346.631695) can0 475#4B01134945000000
(1430401346.632780) can0 294#00009CFFFA000100
(1430401346.633068) can0 306#1800000000000000
(1430401346.731495) can0 475#4D01134945000000
(1430401346.731809) can0 306#1900000000000000
(1430401346.732059) can0 294#00009CFFFA000100
(1430401346.732306) can0 270#0000000000000000
(1430401346.831415) can0 475#4501134945000000
(1430401346.831736) can0 306#1900000000000000
(1430401346.832017) can0 294#00009CFFFA000000
(1430401346.832276) can0 270#0000000000000000
(1430401346.931445) can0 475#4B01134945000000
(1430401346.931790) can0 306#1900000000000000
(1430401346.932045) can0 294#00009CFFFA000000
(1430401346.932294) can0 270#0000000000000000
(1430401347.031416) can0 475#4D01134945000000
(1430401347.031741) can0 306#1900000000000000
(1430401347.031996) can0 294#00009CFFFA000000
(1430401347.032244) can0 270#0000000000000000
(1430401347.131508) can0 475#5101134945000000
(1430401347.131834) can0 306#1800000000000000
(1430401347.132112) can0 294#00009CFFFA000000
(1430401347.132365) can0 270#0000000000000000
(1430401347.231606) can0 475#4501134945000000
(1430401347.231902) can0 306#1900000000000000
(1430401347.232170) can0 294#00009CFFFA000000
(1430401347.232442) can0 270#0000000000000000
(1430401347.331603) can0 475#4301134945000000
(1430401347.332026) can0 306#1800000000000000
(1430401347.332294) can0 294#00009CFFFA000000
(1430401347.332614) can0 270#0000000000000000
(1430401347.431566) can0 475#4F01134945000000
(1430401347.431865) can0 306#1800000000000000
(1430401347.432294) can0 294#00009CFFFA000000
(1430401347.432550) can0 270#0000000000000000
(1430401347.531707) can0 475#4F01134945000000
(1430401347.532021) can0 306#1800000000000000
(1430401347.532272) can0 294#00009CFFFA000000
(1430401347.532564) can0 270#0000000000000000
(1430401347.631499) can0 475#4701134945000000
(1430401347.634569) can0 306#1900000000000000
(1430401347.731672) can0 475#4301134945000000
(1430401347.732007) can0 306#1800000000000000
(1430401347.732258) can0 294#00009CFFFA000000
(1430401347.732526) can0 270#0000000000000000
(1430401347.831397) can0 475#4D01134945000000
(1430401347.831798) can0 306#1900000000000000
(1430401347.832065) can0 294#00009CFFFA000000
(1430401347.832344) can0 270#0000000000000000
(1430401347.931520) can0 475#5101134945000000
(1430401347.931876) can0 306#1900000000000000
(1430401347.932133) can0 294#00009CFFFA000000
(1430401347.932387) can0 270#0000000000000000
(1430401348.031529) can0 475#4901134945000000
(1430401348.031837) can0 306#1900000000000000
(1430401348.032093) can0 294#00009CFFFA000000
(1430401348.032347) can0 270#0000000000000000
(1430401348.131534) can0 475#4301134945000000
(1430401348.131842) can0 306#1900000000000000
(1430401348.132095) can0 294#00009CFFFA000100
(1430401348.132345) can0 270#0000000000000000
(1430401348.231477) can0 475#4001134945000000
(1430401348.231795) can0 306#1900000000000000
(1430401348.232046) can0 294#00009CFFFA000100
(1430401348.232296) can0 270#0000000000000000
(1430401348.331438) can0 475#3801134945000000
(1430401348.331759) can0 306#1800000000000000
(1430401348.332012) can0 294#00009CFFFA000000
(1430401348.332261) can0 270#0000000000000000
(1430401348.431454) can0 475#4F01134945000000
(1430401348.431738) can0 306#1800000000000000
(1430401348.431992) can0 294#00009CFFFA000000
(1430401348.432242) can0 270#0000000000000000
(1430401348.531455) can0 475#4B01134945000000
(1430401348.531752) can0 306#1800000000000000
(1430401348.532011) can0 294#00009CFFFA000000
(1430401348.532395) can0 270#0000000000000000
(1430401348.631393) can0 475#4501134945000000
(1430401348.631706) can0 306#1800000000000000
(1430401348.631962) can0 294#00009CFFFA000000
(1430401348.632211) can0 270#0000000000000000
(1430401348.731383) can0 475#4901134945000000
(1430401348.731719) can0 306#1800000000000000
(1430401348.731971) can0 294#00009CFFFA000000
(1430401348.732217) can0 270#0000000000000000
(1430401348.831360) can0 475#4301134945000000
(1430401348.831717) can0 306#1900000000000000
(1430401348.831976) can0 294#00009CFFFA000000
(1430401348.832230) can0 270#0000000000000000
(1430401348.931576) can0 475#4501134945000000
(1430401348.931886) can0 306#1900000000000000
(1430401348.932146) can0 294#00009CFFFA000100
(1430401348.932433) can0 270#0000000000000000
(1430401349.031505) can0 475#3E01134945000000
(1430401349.031821) can0 306#1800000000000000
(1430401349.032084) can0 294#00009CFFFA000100
(1430401349.032336) can0 270#0000000000000000
(1430401349.131418) can0 475#4001134945000000
(1430401349.131754) can0 306#1700000000000000
(1430401349.132008) can0 294#00009CFFFA000100
(1430401349.132256) can0 270#0000000000000000
(1430401349.231481) can0 475#4301134945000000
(1430401349.231768) can0 306#1700000000000000
(1430401349.232027) can0 294#00009CFFFA000100
(1430401349.232275) can0 270#0000000000000000
(1430401349.331387) can0 475#4F01134945000000
(1430401349.331695) can0 306#1700000000000000
(1430401349.331948) can0 294#00009CFFFA000000
(1430401349.332213) can0 270#0000000000000000
(1430401349.431395) can0 475#3201134945000000
(1430401349.431692) can0 306#1700000000000000
(1430401349.431947) can0 294#00009CFFFA000000
(1430401349.432208) can0 270#0000000000000000
(1430401349.531412) can0 475#4701134945000000
(1430401349.531748) can0 306#1700000000000000
(1430401349.532017) can0 294#00009CFFFA000000
(1430401349.532271) can0 270#0000000000000000
(1430401349.631376) can0 475#4501134945000000
(1430401349.631788) can0 306#1700000000000000
(1430401349.632045) can0 294#00009CFFFA000000
(1430401349.632302) can0 270#0000000000000000
(1430401349.731768) can0 475#4201134945000000
(1430401349.732077) can0 306#1700000000000000
(1430401349.732340) can0 294#00009CFFFA000000
(1430401349.732589) can0 270#0000000000000000
(1430401349.831555) can0 475#4B01134945000000
(1430401349.831881) can0 306#1700000000000000
(1430401349.832136) can0 294#00009CFFFA000000
(1430401349.832385) can0 270#0000000000000000
(1430401349.931514) can0 475#3E01134945000000
(1430401349.931856) can0 306#1700000000000000
(1430401349.932117) can0 294#00009CFFFA000000
(1430401349.932368) can0 270#0000000000000000
(1430401350.031446) can0 475#4301134945000000
(1430401350.031794) can0 306#1700000000000000
(1430401350.032052) can0 294#00009CFFFA000000
(1430401350.032307) can0 270#0000000000000000
(1430401350.131360) can0 475#4301134945000000
(1430401350.131702) can0 306#1800000000000000
(1430401350.131973) can0 294#00009CFFFA000000
(1430401350.132229) can0 270#0000000000000000
(1430401350.231416) can0 475#4201134945000000
(1430401350.231715) can0 306#1800000000000000
(1430401350.231969) can0 294#00009CFFFA000000
(1430401350.232223) can0 270#0000000000000000
(1430401350.331623) can0 475#3E01134945000000
(1430401350.331940) can0 306#1700000000000000
(1430401350.332198) can0 294#00009CFFFA000100
(1430401350.332454) can0 270#0000000000000000
(1430401350.431750) can0 475#4201134945000000
(1430401350.432069) can0 306#1700000000000000
(1430401350.432325) can0 294#00009CFFFA000100
(1430401350.432575) can0 270#0000000000000000
(1430401350.531867) can0 475#4201134945000000
(1430401350.532181) can0 306#1700000000000000
(1430401350.532441) can0 294#00009CFFFA000000
(1430401350.532694) can0 270#0000000000000000
(1430401350.631769) can0 475#3E01134945000000
(1430401350.632063) can0 306#1700000000000000
(1430401350.632315) can0 294#00009CFFFA000000
(1430401350.632565) can0 270#0000000000000000
(1430401350.731723) can0 475#3C01134945000000
(1430401350.732033) can0 306#1800000000000000
(1430401350.732284) can0 294#00009CFFFA000100
(1430401350.732535) can0 270#0000000000000000
(1430401350.831767) can0 475#3C01134945000000
(1430401350.832089) can0 306#1700000000000000
(1430401350.832348) can0 294#00009CFFFA000100
(1430401350.832605) can0 270#0000000000000000
(1430401350.931693) can0 475#4001134945000000
(1430401350.932015) can0 306#1700000000000000
(1430401350.932275) can0 294#00009CFFFA000000
(1430401350.932528) can0 270#0000000000000000
(1430401351.031663) can0 475#3A01134945000000
(1430401351.032253) can0 294#00009CFFFA000000
(1430401351.032490) can0 306#1700000000000000
(1430401351.131517) can0 475#3A01134945000000
(1430401351.131854) can0 306#1700000000000000
(1430401351.132107) can0 294#00009CFFFA000000
(1430401351.132359) can0 270#0000000000000000
(1430401351.231551) can0 475#4001134945000000
(1430401351.231854) can0 306#1700000000000000
(1430401351.232138) can0 294#00009CFFFA000100
(1430401351.232391) can0 270#0000000000000000
(1430401351.331569) can0 475#3C01134945000000
(1430401351.331874) can0 306#1700000000000000
(1430401351.332128) can0 294#00009CFFFA000000
(1430401351.332378) can0 270#0000000000000000
(1430401351.431526) can0 475#3A01134945000000
(1430401351.431850) can0 306#1800000000000000
(1430401351.432126) can0 294#00009CFFFA000000
(1430401351.432381) can0 270#0000000000000000
(1430401351.531466) can0 475#3E01134945000000
(1430401351.531794) can0 306#1800000000000000
(1430401351.532045) can0 294#00009CFFFA000100
(1430401351.532295) can0 270#0000000000000000
(1430401351.631480) can0 475#3C01134945000000
(1430401351.631774) can0 306#1700000000000000
(1430401351.632037) can0 294#00009CFFFA000100
(1430401351.632297) can0 270#0000000000000000
(1430401351.731438) can0 475#3A01134945000000
(1430401351.731757) can0 306#1700000000000000
(1430401351.732034) can0 294#00009CFFFA000100
(1430401351.732285) can0 270#0000000000000000
(1430401351.831377) can0 475#2E01134945000000
(1430401351.831694) can0 306#1700000000000000
(1430401351.831944) can0 294#00009CFFFA000000
(1430401351.832192) can0 270#0000000000000000
(1430401351.931391) can0 475#3801134945000000
(1430401351.931702) can0 306#1700000000000000
(1430401351.932098) can0 294#00009CFFFA000000
(1430401351.932354) can0 270#0000000000000000
(1430401352.031368) can0 475#3A01134945000000
(1430401352.031679) can0 306#1600000000000000
(1430401352.032073) can0 294#00009CFFFA000000
(1430401352.032326) can0 270#0000000000000000
(1430401352.131568) can0 475#3201134945000000
(1430401352.131859) can0 306#1600000000000000
(1430401352.132127) can0 294#00009CFFFA000100
(1430401352.132378) can0 270#0000000000000000
(1430401352.231530) can0 475#3601134945000000
(1430401352.231813) can0 306#1500000000000000
(1430401352.232064) can0 294#00009CFFFA000000
(1430401352.232318) can0 270#0000000000000000
(1430401352.331475) can0 475#3801134945000000
(1430401352.331791) can0 306#1500000000000000
(1430401352.332132) can0 294#00009CFFFA000100
(1430401352.332391) can0 270#0000000000000000
(1430401352.431471) can0 475#3401134945000000
(1430401352.431761) can0 306#1400000000000000
(1430401352.432001) can0 294#00009CFFFA000000
(1430401352.432249) can0 270#0000000000000000
(1430401352.531345) can0 475#3801134945000000
(1430401352.531696) can0 306#1400000000000000
(1430401352.531946) can0 294#00009CFFFA000000
(1430401352.532190) can0 270#0000000000000000
(1430401352.631421) can0 475#4001134945000000
(1430401352.631747) can0 306#1400000000000000
(1430401352.632004) can0 294#00009CFFFA000000
(1430401352.632275) can0 270#0000000000000000
(1430401352.731345) can0 475#3A01134945000000
(1430401352.731678) can0 306#1400000000000000
(1430401352.731948) can0 294#00009CFFFA000000
(1430401352.732220) can0 270#0000000000000000
(1430401352.831340) can0 475#3201134945000000
(1430401352.831800) can0 306#1400000000000000
(1430401352.832062) can0 294#00009CFFFA000000
(1430401352.832318) can0 270#0000000000000000
(1430401352.931726) can0 475#3E01134945000000
(1430401352.932076) can0 306#1400000000000000
(1430401352.932334) can0 294#00009CFFFA000000
(1430401352.932587) can0 270#0000000000000000
(1430401353.031482) can0 475#3201134945000000
(1430401353.031802) can0 306#1400000000000000
(1430401353.032081) can0 294#00009CFFFA000000
(1430401353.032333) can0 270#0000000000000000
(1430401353.131492) can0 475#3401134945000000
(1430401353.131800) can0 306#1400000000000000
(1430401353.132083) can0 294#00009CFFFA000000
(1430401353.132335) can0 270#0000000000000000
(1430401353.231445) can0 475#3A01134945000000
(1430401353.231752) can0 306#1400000000000000
(1430401353.232005) can0 294#00009CFFFA000000
(1430401353.232631) can0 270#0000000000000000
(1430401353.331629) can0 475#3E01134945000000
(1430401353.331936) can0 306#1400000000000000
(1430401353.332190) can0 294#00009CFFFA000000
(1430401353.332439) can0 270#0000000000000000
(1430401353.431646) can0 475#4001134945000000
(1430401353.431954) can0 306#1400000000000000
(1430401353.432221) can0 294#00009CFFFA000000
(1430401353.432484) can0 270#0000000000000000
(1430401353.531777) can0 475#4201134945000000
(1430401353.532126) can0 306#1500000000000000
(1430401353.532386) can0 294#00009CFFFA000000
(1430401353.532632) can0 270#0000000000000000
(1430401353.631777) can0 475#2E01134945000000
(1430401353.632092) can0 306#1500000000000000
(1430401353.632341) can0 294#00009CFFFA000000
(1430401353.632589) can0 270#0000000000000000
(1430401353.731769) can0 475#3401134945000000
(1430401353.732113) can0 306#1500000000000000
(1430401353.732364) can0 294#00009CFFFA000000
(1430401353.732607) can0 270#0000000000000000
(1430401353.832086) can0 475#3801134945000000
(1430401353.832524) can0 294#00009CFFFA000000
(1430401353.832728) can0 270#0000000000000000
(1430401353.931695) can0 475#3601134945000000
(1430401353.932034) can0 306#1600000000000000
(1430401353.932287) can0 294#00009CFFFA000100
(1430401353.932538) can0 270#0000000000000000
(1430401354.031616) can0 475#3C01134945000000
(1430401354.031958) can0 306#1600000000000000
(1430401354.032209) can0 294#00009CFFFA000100
(1430401354.032457) can0 270#0000000000000000
(1430401354.131635) can0 475#3601134945000000
(1430401354.131968) can0 306#1600000000000000
(1430401354.132223) can0 294#00009CFFFA000100
(1430401354.132467) can0 270#0000000000000000
(1430401354.231668) can0 475#3201134945000000
(1430401354.231967) can0 306#1600000000000000
(1430401354.232221) can0 294#00009CFFFA000100
(1430401354.232461) can0 270#0000000000000000
(1430401354.331347) can0 475#3601134945000000
(1430401354.331832) can0 306#1700000000000000
(1430401354.332097) can0 294#00009CFFFA000100
(1430401354.332344) can0 270#0000000000000000
(1430401354.431610) can0 475#3401134945000000
(1430401354.431905) can0 306#1800000000000000
(1430401354.432177) can0 294#00009CFFFA000100
(1430401354.432423) can0 270#0000000000000000
(1430401354.531533) can0 475#3801134945000000
(1430401354.531844) can0 306#1800000000000000
(1430401354.532093) can0 294#00009CFFFA000100
(1430401354.532339) can0 270#0000000000000000
(1430401354.631492) can0 475#3C01134945000000
(1430401354.631823) can0 306#1800000000000000
(1430401354.632076) can0 294#00009CFFFA000000
(1430401354.632330) can0 270#0000000000000000
(1430401354.731480) can0 475#3001134945000000
(1430401354.731795) can0 306#1800000000000000
(1430401354.732063) can0 294#00009CFFFA000000
(1430401354.732323) can0 270#0000000000000000
(1430401354.831456) can0 475#3001134945000000
(1430401354.831803) can0 306#1800000000000000
(1430401354.832061) can0 294#00009CFFFA000000
(1430401354.832307) can0 270#0000000000000000
(1430401354.931404) can0 475#3E01134945000000
(1430401354.931741) can0 306#1800000000000000
(1430401354.931993) can0 294#00009CFFFA000000
(1430401354.932243) can0 270#0000000000000000
(1430401355.031401) can0 475#2901134945000000
(1430401355.031689) can0 306#1900000000000000
(1430401355.032098) can0 294#00009CFFFA000000
(1430401355.032358) can0 270#0000000000000000
(1430401355.131556) can0 475#3601134945000000
(1430401355.131861) can0 306#1800000000000000
(1430401355.132098) can0 294#00009CFFFA000000
(1430401355.132346) can0 270#0000000000000000
(1430401355.231546) can0 475#2E01134945000000
(1430401355.231840) can0 306#1800000000000000
(1430401355.232098) can0 294#00009CFFFA000100
(1430401355.232344) can0 270#0000000000000000
(1430401355.331489) can0 475#3001134945000000
(1430401355.331812) can0 306#1900000000000000
(1430401355.332061) can0 294#00009CFFFA000000
(1430401355.332315) can0 270#0000000000000000
(1430401355.431510) can0 475#3001134945000000
(1430401355.431788) can0 306#1900000000000000
(1430401355.432038) can0 294#00009CFFFA000000
(1430401355.432273) can0 270#0000000000000000
(1430401355.531416) can0 475#4201134945000000
(1430401355.532045) can0 306#1900000000000000
(1430401355.532273) can0 294#00009CFFFA000100
(1430401355.631431) can0 475#3601134945000000
(1430401355.631766) can0 306#1800000000000000
(1430401355.632027) can0 294#00009CFFFA000100
(1430401355.632278) can0 270#0000000000000000
(1430401355.731367) can0 475#3001134945000000
(1430401355.731731) can0 306#1800000000000000
(1430401355.731985) can0 294#00009CFFFA000100
(1430401355.732231) can0 270#0000000000000000
(1430401355.831417) can0 475#3201134945000000
(1430401355.831827) can0 306#1800000000000000
(1430401355.832088) can0 294#00009CFFFA000100
(1430401355.832341) can0 270#0000000000000000
(1430401355.931570) can0 475#3001134945000000
(1430401355.931919) can0 306#1800000000000000
(1430401355.932170) can0 294#00009CFFFA000100
(1430401355.932423) can0 270#0000000000000000
(1430401356.031557) can0 475#3401134945000000
(1430401356.031872) can0 306#1700000000000000
(1430401356.032127) can0 294#00009CFFFA000100
(1430401356.032383) can0 270#0000000000000000
(1430401356.131339) can0 475#3001134945000000
(1430401356.131784) can0 306#1700000000000000
(1430401356.132040) can0 294#00009CFFFA000100
(1430401356.132290) can0 270#0000000000000000
(1430401356.231520) can0 475#3601134945000000
(1430401356.231819) can0 306#1700000000000000
(1430401356.232071) can0 294#00009CFFFA000100
(1430401356.232318) can0 270#0000000000000000
(1430401356.331528) can0 475#2E01134945000000
(1430401356.331832) can0 306#1700000000000000
(1430401356.332084) can0 294#00009CFFFA000000
(1430401356.332331) can0 270#0000000000000000
(1430401356.431443) can0 475#3801134945000000
(1430401356.431765) can0 306#1600000000000000
(1430401356.432016) can0 294#00009CFFFA000100
(1430401356.432264) can0 270#0000000000000000
(1430401356.531645) can0 475#3C01134945000000
(1430401356.531960) can0 306#1600000000000000
(1430401356.532212) can0 294#00009CFFFA000100
(1430401356.532460) can0 270#0000000000000000
(1430401356.631555) can0 475#3401134945000000
(1430401356.631871) can0 306#1700000000000000
(1430401356.632125) can0 294#00009CFFFA000100
(1430401356.632372) can0 270#0000000000000000
(1430401356.731625) can0 475#3401134945000000
(1430401356.731931) can0 306#1700000000000000
(1430401356.732207) can0 294#00009CFFFA000100
(1430401356.732457) can0 270#0000000000000000
(1430401356.831836) can0 475#3A01134945000000
(1430401356.832142) can0 306#1600000000000000
(1430401356.832393) can0 294#00009CFFFA000000
(1430401356.832640) can0 270#0000000000000000
(1430401356.931546) can0 475#3601134945000000
(1430401356.931853) can0 306#1700000000000000
(1430401356.932214) can0 294#00009CFFFA000000
(1430401356.932485) can0 270#0000000000000000
(1430401357.031540) can0 475#3001134945000000
(1430401357.031848) can0 306#1700000000000000
(1430401357.032237) can0 294#00009CFFFA000100
(1430401357.032496) can0 270#0000000000000000
(1430401357.131472) can0 475#3401134945000000
(1430401357.131956) can0 306#1800000000000000
(1430401357.132214) can0 294#00009CFFFA000000
(1430401357.132460) can0 270#0000000000000000
(1430401357.231463) can0 475#3A01134945000000
(1430401357.231762) can0 306#1800000000000000
(1430401357.232153) can0 294#00009CFFFA000000
(1430401357.232423) can0 270#0000000000000000
(1430401357.331458) can0 475#3A01134945000000
(1430401357.331864) can0 306#1900000000000000
(1430401357.332115) can0 294#00009CFFFA000000
(1430401357.332362) can0 270#0000000000000000
(1430401357.431548) can0 475#2701134945000000
(1430401357.431895) can0 306#1900000000000000
(1430401357.432149) can0 294#00009CFFFA000000
(1430401357.433061) can0 270#0000000000000000
(1430401357.531567) can0 475#2B01134945000000
(1430401357.531913) can0 306#1900000000000000
(1430401357.532177) can0 294#00009CFFFA000000
(1430401357.532432) can0 270#0000000000000000
(1430401357.631579) can0 475#3401134945000000
(1430401357.631867) can0 306#1900000000000000
(1430401357.632122) can0 294#00009CFFFA000100
(1430401357.632376) can0 270#0000000000000000
(1430401357.731551) can0 475#3401134945000000
(1430401357.731838) can0 306#1900000000000000
(1430401357.732094) can0 294#00009CFFFA000100
(1430401357.733323) can0 270#0000000000000000
(1430401357.831449) can0 475#3201134945000000
(1430401357.831783) can0 306#1900000000000000
(1430401357.832038) can0 294#00009CFFFA000100
(1430401357.832287) can0 270#0000000000000000
(1430401357.931422) can0 475#3001134945000000
(1430401357.931761) can0 306#1900000000000000
(1430401357.932015) can0 294#00009CFFFA000000
(1430401357.932262) can0 270#0000000000000000
(1430401358.031452) can0 475#2701134945000000
(1430401358.031746) can0 306#1900000000000000
(1430401358.032000) can0 294#00009CFFFA000100
(1430401358.032248) can0 270#0000000000000000
(1430401358.131433) can0 475#3601134945000000
(1430401358.131726) can0 306#1800000000000000
(1430401358.132118) can0 294#00009CFFFA000100
(1430401358.132375) can0 270#0000000000000000
(1430401358.231388) can0 475#3601134945000000
(1430401358.231679) can0 306#1800000000000000
(1430401358.232083) can0 294#00009CFFFA000100
(1430401358.232343) can0 270#0000000000000000
(1430401358.331647) can0 475#2C01134945000000
(1430401358.331953) can0 306#1800000000000000
(1430401358.332203) can0 294#00009CFFFA000100
(1430401358.332448) can0 270#0000000000000000
(1430401358.431510) can0 475#2901134945000000
(1430401358.431820) can0 306#1800000000000000
(1430401358.432071) can0 294#00009CFFFA000100
(1430401358.432321) can0 270#0000000000000000
(1430401358.531537) can0 475#2901134945000000
(1430401358.531863) can0 306#1800000000000000
(1430401358.532129) can0 294#00009CFFFA000100
(1430401358.532380) can0 270#0000000000000000
(1430401358.631483) can0 475#3201134945000000
(1430401358.631778) can0 306#1800000000000000
(1430401358.632027) can0 294#00009CFFFA000100
(1430401358.632283) can0 270#0000000000000000
(1430401358.731392) can0 475#2B01134945000000
(1430401358.731745) can0 306#1800000000000000
(1430401358.731997) can0 294#00009CFFFA000100
(1430401358.732244) can0 270#0000000000000000
(1430401358.831435) can0 475#2C01134945000000
(1430401358.831767) can0 306#1800000000000000
(1430401358.832026) can0 294#00009CFFFA000100
(1430401358.832273) can0 270#0000000000000000
(1430401358.931434) can0 475#3001134945000000
(1430401358.931793) can0 306#1900000000000000
(1430401358.932048) can0 294#00009CFFFA000100
(1430401358.932297) can0 270#0000000000000000
(1430401359.031599) can0 475#2901134945000000
(1430401359.031917) can0 306#1900000000000000
(1430401359.032174) can0 294#00009CFFFA000100
(1430401359.032424) can0 270#0000000000000000
(1430401359.131804) can0 475#2C01134945000000
(1430401359.132119) can0 306#1800000000000000
(1430401359.132372) can0 294#00009CFFFA000000
(1430401359.132623) can0 270#0000000000000000
(1430401359.231536) can0 475#3401134945000000
(1430401359.231836) can0 306#1700000000000000
(1430401359.232112) can0 294#00009CFFFA000000
(1430401359.232364) can0 270#0000000000000000
(1430401359.331669) can0 475#3201134945000000
(1430401359.332020) can0 306#1800000000000000
(1430401359.332276) can0 294#00009CFFFA000100
(1430401359.332525) can0 270#0000000000000000
(1430401359.431474) can0 475#2B01134945000000
(1430401359.431785) can0 306#1800000000000000
(1430401359.432056) can0 294#00009CFFFA000100
(1430401359.432307) can0 270#0000000000000000
(1430401359.531602) can0 475#2E01134945000000
(1430401359.531963) can0 306#1800000000000000
(1430401359.532217) can0 294#00009CFFFA000000
(1430401359.532466) can0 270#0000000000000000
(1430401359.631645) can0 475#3001134945000000
(1430401359.631962) can0 306#1800000000000000
(1430401359.632215) can0 294#00009CFFFA000100
(1430401359.632469) can0 270#0000000000000000
(1430401359.731580) can0 475#2901134945000000
(1430401359.731945) can0 306#1700000000000000
(1430401359.732192) can0 294#00009CFFFA000100
(1430401359.732443) can0 270#0000000000000000
(1430401359.831659) can0 475#2C01134945000000
(1430401359.831987) can0 306#1800000000000000
(1430401359.832239) can0 294#00009CFFFA000100
(1430401359.832489) can0 270#0000000000000000
(1430401359.931794) can0 475#3001134945000000
(1430401359.932114) can0 306#1700000000000000
(1430401359.932374) can0 294#00009CFFFA000000
(1430401359.932627) can0 270#0000000000000000
(1430401360.031813) can0 475#2E01134945000000
(1430401360.032135) can0 306#1700000000000000
(1430401360.032398) can0 294#00009CFFFA000100
(1430401360.032755) can0 270#0000000000000000
(1430401360.131728) can0 475#2101134945000000
(1430401360.132069) can0 306#1700000000000000
(1430401360.132329) can0 294#00009CFFFA000100
(1430401360.132580) can0 270#0000000000000000
(1430401360.231500) can0 475#2E01134945000000
(1430401360.231973) can0 306#1700000000000000
(1430401360.232231) can0 294#00009CFFFA000100
(1430401360.232480) can0 270#0000000000000000
(1430401360.331496) can0 475#3001134945000000
(1430401360.331887) can0 306#1700000000000000
(1430401360.332165) can0 294#00009CFFFA000100
(1430401360.332419) can0 270#0000000000000000
(1430401360.431461) can0 475#3801134945000000
(1430401360.431760) can0 306#1700000000000000
(1430401360.432152) can0 294#00009CFFFA000000
(1430401360.432409) can0 270#0000000000000000
(1430401360.531594) can0 475#3001134945000000
(1430401360.531918) can0 306#1700000000000000
(1430401360.532171) can0 294#00009CFFFA000000
(1430401360.532417) can0 270#0000000000000000
(1430401360.631427) can0 475#2901134945000000
(1430401360.631820) can0 306#1700000000000000
(1430401360.632097) can0 294#00009CFFFA000100
(1430401360.632349) can0 270#0000000000000000
(1430401360.731614) can0 475#2501134945000000
(1430401360.731945) can0 306#1700000000000000
(1430401360.732196) can0 294#00009CFFFA000000
(1430401360.732443) can0 270#0000000000000000
(1430401360.831560) can0 475#3601134945000000
(1430401360.831890) can0 306#1800000000000000
(1430401360.832142) can0 294#00009CFFFA000100
(1430401360.832392) can0 270#0000000000000000
(1430401360.931534) can0 475#2301134945000000
(1430401360.931869) can0 306#1700000000000000
(1430401360.932125) can0 294#00009CFFFA000100
(1430401360.932372) can0 270#0000000000000000
(1430401361.031464) can0 475#2C01134945000000
(1430401361.031777) can0 306#1700000000000000
(1430401361.032038) can0 294#00009CFFFA000000
(1430401361.032286) can0 270#0000000000000000
(1430401361.131516) can0 475#2301134945000000
(1430401361.131822) can0 306#1700000000000000
(1430401361.132075) can0 294#00009CFFFA000000
(1430401361.132321) can0 270#0000000000000000
(1430401361.231466) can0 475#2701134945000000
(1430401361.231778) can0 306#1700000000000000
(1430401361.232050) can0 294#00009CFFFA000000
(1430401361.232314) can0 270#0000000000000000
(1430401361.331472) can0 475#2B01134945000000
(1430401361.331786) can0 306#1700000000000000
(1430401361.332042) can0 294#00009CFFFA000100
(1430401361.332289) can0 270#0000000000000000
(1430401361.431666) can0 475#2301134945000000
(1430401361.431986) can0 294#00009CFFFA000100
(1430401361.432199) can0 306#1700000000000000
(1430401361.432456) can0 270#0000000000000000
(1430401361.531631) can0 475#2E01134945000000
(1430401361.531986) can0 306#1700000000000000
(1430401361.532253) can0 294#00009CFFFA000100
(1430401361.532507) can0 270#0000000000000000
(1430401361.631611) can0 475#1F01134945000000
(1430401361.631953) can0 306#1600000000000000
(1430401361.632202) can0 294#00009CFFFA000100
(1430401361.632455) can0 270#0000000000000000
(1430401361.731518) can0 475#2B01134945000000
(1430401361.731822) can0 306#1600000000000000
(1430401361.732075) can0 294#00009CFFFA000000
(1430401361.732334) can0 270#0000000000000000
(1430401361.831514) can0 475#3801134945000000
(1430401361.831823) can0 306#1600000000000000
(1430401361.832080) can0 294#00009CFFFA000100
(1430401361.832327) can0 270#0000000000000000
(1430401361.931499) can0 475#2C01134945000000
(1430401361.931807) can0 306#1700000000000000
(1430401361.932062) can0 294#00009CFFFA000100
(1430401361.932410) can0 270#0000000000000000
(1430401362.031468) can0 475#2301134945000000
(1430401362.031890) can0 306#1700000000000000
(1430401362.032143) can0 294#00009CFFFA000100
(1430401362.032393) can0 270#0000000000000000
(1430401362.131632) can0 475#2101134945000000
(1430401362.131947) can0 306#1700000000000000
(1430401362.132198) can0 294#00009CFFFA000100
(1430401362.132444) can0 270#0000000000000000
(1430401362.221985) can0 475#2701134945000000
(1430401362.222556) can0 294#00009CFFFA000100
(1430401362.222789) can0 306#1700000000000000
(1430401362.321820) can0 475#3001134945000000
(1430401362.322139) can0 306#1700000000000000
(1430401362.322411) can0 294#00009CFFFA000100
(1430401362.322689) can0 270#0000000000000000
(1430401362.421858) can0 475#2B01134945000000
(1430401362.422199) can0 306#1600000000000000
(1430401362.422452) can0 294#00009CFFFA000100
(1430401362.422696) can0 270#0000000000000000
(1430401362.521836) can0 475#2B01134945000000
(1430401362.522199) can0 306#1600000000000000
(1430401362.522452) can0 294#00009CFFFA000100
(1430401362.522702) can0 270#0000000000000000
(1430401362.621788) can0 475#2B01134945000000
(1430401362.622251) can0 306#1600000000000000
(1430401362.622508) can0 294#00009CFFFA000000
(1430401362.622757) can0 270#0000000000000000
(1430401362.731475) can0 475#2901134945000000
(1430401362.731783) can0 306#1600000000000000
(1430401362.732036) can0 294#00009CFFFA000000
(1430401362.732295) can0 270#0000000000000000
(1430401362.821986) can0 475#2C01134945000000
(1430401362.822296) can0 306#1700000000000000
(1430401362.822502) can0 294#00009CFFFA000100
(1430401362.822747) can0 270#0000000000000000
(1430401362.931856) can0 475#2901134945000000
(1430401362.932166) can0 306#1600000000000000
(1430401362.932420) can0 294#00009CFFFA000100
(1430401362.932671) can0 270#0000000000000000
(1430401363.021918) can0 475#2701134945000000
(1430401363.022251) can0 294#00009CFFFA000100
(1430401363.022460) can0 306#1700000000000000
(1430401363.022710) can0 270#0000000000000000
(1430401363.121866) can0 475#2101134945000000
(1430401363.122202) can0 306#1700000000000000
(1430401363.122454) can0 294#00009CFFFA000100
(1430401363.122708) can0 270#0000000000000000
(1430401363.221840) can0 475#2701134945000000
(1430401363.222232) can0 306#1700000000000000
(1430401363.222634) can0 294#00009CFFFA000100
(1430401363.223022) can0 270#0000000000000000
(1430401363.321771) can0 475#2701134945000000
(1430401363.322117) can0 306#1700000000000000
(1430401363.322372) can0 294#00009CFFFA000100
(1430401363.322625) can0 270#0000000000000000
(1430401363.421537) can0 475#2501134945000000
(1430401363.422034) can0 306#1700000000000000
(1430401363.422307) can0 294#00009CFFFA000100
(1430401363.422514) can0 270#0000000000000000
(1430401363.521500) can0 475#2501134945000000
(1430401363.521836) can0 306#1700000000000000
(1430401363.522091) can0 294#00009CFFFA000100
(1430401363.522342) can0 270#0000000000000000
(1430401363.621673) can0 475#1F01134945000000
(1430401363.622071) can0 306#1700000000000000
(1430401363.622339) can0 270#0000000000000000
(1430401363.622545) can0 294#00009CFFFA000100
(1430401363.721678) can0 475#2B01134945000000
(1430401363.721986) can0 306#1700000000000000
(1430401363.722244) can0 294#00009CFFFA000100
(1430401363.722453) can0 270#0000000000000000
(1430401363.821648) can0 475#2501134945000000
(1430401363.822028) can0 306#1700000000000000
(1430401363.822331) can0 270#0000000000000000
(1430401363.822538) can0 294#00009CFFFA000000
(1430401363.921606) can0 475#1B01134945000000
(1430401363.922031) can0 306#1700000000000000
(1430401363.922294) can0 294#00009CFFFA000000
(1430401363.922548) can0 270#0000000000000000
(1430401364.021609) can0 475#2901134945000000
(1430401364.022042) can0 306#1700000000000000
(1430401364.022342) can0 294#00009CFFFA000000
(1430401364.022693) can0 270#0000000000000000
(1430401364.121587) can0 475#2501134945000000
(1430401364.121895) can0 306#1700000000000000
(1430401364.122151) can0 294#00009CFFFA000000
(1430401364.122436) can0 270#0000000000000000
(1430401364.221501) can0 475#2501134945000000
(1430401364.221799) can0 306#1800000000000000
(1430401364.222120) can0 294#00009CFFFA000000
(1430401364.222384) can0 270#0000000000000000
(1430401364.321475) can0 475#1F01134945000000
(1430401364.321780) can0 306#1800000000000000
(1430401364.322175) can0 294#00009CFFFA000000
(1430401364.322432) can0 270#0000000000000000
(1430401364.421802) can0 475#2E01134945000000
(1430401364.422203) can0 294#00009CFFFA000100
(1430401364.422420) can0 306#1800000000000000
(1430401364.422965) can0 270#0000000000000000
(1430401364.521387) can0 475#2E01134945000000
(1430401364.521885) can0 306#1800000000000000
(1430401364.522141) can0 294#00009CFFFA000100
(1430401364.522391) can0 270#0000000000000000
(1430401364.621868) can0 475#2701134945000000
(1430401364.622272) can0 306#1900000000000000
(1430401364.622486) can0 294#00009CFFFA000100
(1430401364.622735) can0 270#0000000000000000
(1430401364.721770) can0 475#1901134945000000
(1430401364.722094) can0 306#1900000000000000
(1430401364.722377) can0 294#00009CFFFA000100
(1430401364.722632) can0 270#0000000000000000
(1430401364.821604) can0 475#1B01134945000000
(1430401364.821929) can0 294#00009CFFFA000100
(1430401364.822228) can0 306#1900000000000000
(1430401364.822490) can0 270#0000000000000000
(1430401364.921672) can0 475#2101134945000000
(1430401364.922024) can0 306#1900000000000000
(1430401364.922300) can0 294#00009CFFFA000100
(1430401364.922568) can0 270#0000000000000000
(1430401365.021720) can0 475#2501134945000000
(1430401365.022074) can0 306#1900000000000000
(1430401365.022379) can0 294#00009CFFFA000000
(1430401365.022632) can0 270#0000000000000000
(1430401365.121727) can0 475#1F01134945000000
(1430401365.122069) can0 306#1900000000000000
(1430401365.122322) can0 294#00009CFFFA000100
(1430401365.122570) can0 270#0000000000000000
(1430401365.221917) can0 475#2301134945000000
(1430401365.222301) can0 306#1800000000000000
(1430401365.222564) can0 270#0000000000000000
(1430401365.222767) can0 294#00009CFFFA000000
(1430401365.321948) can0 475#2301134945000000
(1430401365.322281) can0 306#1800000000000000
(1430401365.322563) can0 294#00009CFFFA000000
(1430401365.322812) can0 270#0000000000000000
(1430401365.422040) can0 475#2701134945000000
(1430401365.422458) can0 306#1800000000000000
(1430401365.422718) can0 270#0000000000000000
(1430401365.422918) can0 294#00009CFFFA000100
(1430401365.521892) can0 475#2501134945000000
(1430401365.522238) can0 306#1800000000000000
(1430401365.522500) can0 294#00009CFFFA000100
(1430401365.522753) can0 270#0000000000000000
(1430401365.621980) can0 475#1D01134945000000
(1430401365.622421) can0 306#1800000000000000
(1430401365.622631) can0 294#00009CFFFA000100
(1430401365.622885) can0 270#0000000000000000
(1430401365.721994) can0 475#1701134945000000
(1430401365.722330) can0 306#1700000000000000
(1430401365.722589) can0 294#00009CFFFA000100
(1430401365.722837) can0 270#0000000000000000
(1430401365.823292) can0 475#1001134945000000
(1430401365.921663) can0 475#2701134945000000
(1430401365.922027) can0 306#1700000000000000
(1430401365.922282) can0 294#00009CFFFA000100
(1430401365.922544) can0 270#0000000000000000
(1430401366.021684) can0 475#1D01134945000000
(1430401366.022014) can0 306#1700000000000000
(1430401366.022368) can0 270#0000000000000000
(1430401366.022584) can0 294#00009CFFFA000100
(1430401366.121904) can0 475#2701134945000000
(1430401366.122385) can0 306#1700000000000000
(1430401366.122647) can0 294#00009CFFFA000100
(1430401366.122906) can0 270#0000000000000000
(1430401366.222086) can0 475#1401134945000000
(1430401366.222467) can0 306#1800000000000000
(1430401366.222724) can0 270#0000000000000000
(1430401366.222928) can0 294#00009CFFFA000100
(1430401366.321615) can0 475#1901134945000000
(1430401366.321945) can0 306#1700000000000000
(1430401366.322211) can0 294#00009CFFFA000100
(1430401366.322486) can0 270#0000000000000000
(1430401366.422035) can0 475#1701134945000000
(1430401366.422432) can0 306#1700000000000000
(1430401366.422883) can0 294#00009CFFFA000100
(1430401366.423198) can0 270#0000000000000000
(1430401366.521714) can0 475#1901134945000000
(1430401366.522057) can0 306#1700000000000000
(1430401366.522312) can0 294#00009CFFFA000100
(1430401366.522564) can0 270#0000000000000000
(1430401366.621778) can0 475#1901134945000000
(1430401366.622215) can0 306#1700000000000000
(1430401366.622517) can0 294#00009CFFFA000100
(1430401366.622771) can0 270#0000000000000000
(1430401366.721655) can0 475#1F01134945000000
(1430401366.721967) can0 306#1800000000000000
(1430401366.722218) can0 294#00009CFFFA000100
(1430401366.723866) can0 270#0000000000000000
(1430401366.822978) can0 270#0000000000000000
(1430401366.921858) can0 475#1401134945000000
(1430401366.922199) can0 306#1700000000000000
(1430401366.922453) can0 294#00009CFFFA000100
(1430401366.922702) can0 270#0000000000000000
(1430401367.021679) can0 475#1901134945000000
(1430401367.022100) can0 306#1700000000000000
(1430401367.022453) can0 294#00009CFFFA000100
(1430401367.022808) can0 270#0000000000000000
(1430401367.121639) can0 475#1D01134945000000
(1430401367.121961) can0 306#1700000000000000
(1430401367.122358) can0 294#00009CFFFA000100
(1430401367.122625) can0 270#0000000000000000
(1430401367.221610) can0 475#2301134945000000
(1430401367.221992) can0 306#1700000000000000
(1430401367.222278) can0 294#00009CFFFA000000
(1430401367.222591) can0 270#0000000000000000
(1430401367.321572) can0 475#1601134945000000
(1430401367.321891) can0 306#1700000000000000
(1430401367.322289) can0 294#00009CFFFA000000
(1430401367.322550) can0 270#0000000000000000
(1430401367.421731) can0 475#1601134945000000
(1430401367.422012) can0 306#1700000000000000
(1430401367.422304) can0 294#00009CFFFA000100
(1430401367.422709) can0 270#0000000000000000
(1430401367.521530) can0 475#1B01134945000000
(1430401367.521859) can0 306#1700000000000000
(1430401367.522111) can0 294#00009CFFFA000100
(1430401367.522364) can0 270#0000000000000000
(1430401367.621735) can0 475#1901134945000000
(1430401367.622132) can0 306#1700000000000000
(1430401367.622465) can0 294#00009CFFFA000100
(1430401367.622868) can0 270#0000000000000000
(1430401367.721710) can0 475#1B01134945000000
(1430401367.722116) can0 306#1700000000000000
(1430401367.722373) can0 294#00009CFFFA000000
(1430401367.722626) can0 270#0000000000000000
(1430401367.821645) can0 475#1D01134945000000
(1430401367.822040) can0 306#1700000000000000
(1430401367.822348) can0 294#00009CFFFA000000
(1430401367.822649) can0 270#0000000000000000
(1430401367.921620) can0 475#2301134945000000
(1430401367.922061) can0 306#1700000000000000
(1430401367.922316) can0 294#00009CFFFA000100
(1430401367.922567) can0 270#0000000000000000
(1430401368.021750) can0 475#2101134945000000
(1430401368.022095) can0 306#1800000000000000
(1430401368.022395) can0 294#00009CFFFA000000
(1430401368.022699) can0 270#0000000000000000
(1430401368.121338) can0 475#1701134945000000
(1430401368.121764) can0 306#1800000000000000
(1430401368.122013) can0 294#00009CFFFA000100
(1430401368.122261) can0 270#0000000000000000
(1430401368.221563) can0 475#1601134945000000
(1430401368.222025) can0 306#1800000000000000
(1430401368.222292) can0 294#00009CFFFA000100
(1430401368.222785) can0 270#0000000000000000
(1430401368.321487) can0 475#1701134945000000
(1430401368.321856) can0 306#1800000000000000
(1430401368.322106) can0 294#00009CFFFA000100
(1430401368.322354) can0 270#0000000000000000
(1430401368.421862) can0 475#1F01134945000000
(1430401368.422178) can0 306#1800000000000000
(1430401368.422505) can0 294#00009CFFFA000000
(1430401368.422766) can0 270#0000000000000000
(1430401368.521849) can0 475#1201134945000000
(1430401368.522172) can0 306#1800000000000000
(1430401368.522424) can0 294#00009CFFFA000100
(1430401368.522686) can0 270#0000000000000000
(1430401368.621829) can0 475#1001134945000000
(1430401368.622134) can0 306#1800000000000000
(1430401368.622406) can0 294#00009CFFFA000100
(1430401368.622712) can0 270#0000000000000000
(1430401368.721887) can0 475#1D01134945000000
(1430401368.722206) can0 306#1800000000000000
(1430401368.722487) can0 294#00009CFFFA000100
(1430401368.722740) can0 270#0000000000000000
(1430401368.821866) can0 475#1401134945000000
(1430401368.822210) can0 306#1800000000000000
(1430401368.822541) can0 294#00009CFFFA000100
(1430401368.822805) can0 270#0000000000000000
(1430401368.921658) can0 475#1D01134945000000
(1430401368.922019) can0 306#1700000000000000
(1430401368.922271) can0 294#00009CFFFA000100
(1430401368.922524) can0 270#0000000000000000
(1430401369.022012) can0 475#1201134945000000
(1430401369.022304) can0 306#1800000000000000
(1430401369.022648) can0 294#00009CFFFA000100
(1430401369.023159) can0 270#0000000000000000
(1430401369.121984) can0 475#1D01134945000000
(1430401369.122357) can0 306#1700000000000000
(1430401369.122614) can0 294#00009CFFFA000000
(1430401369.122864) can0 270#0000000000000000
(1430401369.221958) can0 475#1901134945000000
(1430401369.222357) can0 306#1700000000000000
(1430401369.222732) can0 294#00009CFFFA000100
(1430401369.223092) can0 270#0000000000000000
(1430401369.321913) can0 475#1901134945000000
(1430401369.322221) can0 306#1700000000000000
(1430401369.322587) can0 294#00009CFFFA000100
(1430401369.322840) can0 270#0000000000000000
(1430401369.421653) can0 475#1901134945000000
(1430401369.421996) can0 306#1700000000000000
(1430401369.422256) can0 294#00009CFFFA000100
(1430401369.422582) can0 270#0000000000000000
(1430401369.521860) can0 475#1901134945000000
(1430401369.523057) can0 306#1800000000000000
(1430401369.621861) can0 475#1701134945000000
(1430401369.622295) can0 306#1800000000000000
(1430401369.622754) can0 294#00009CFFFA000000
(1430401369.622990) can0 270#0000000000000000
(1430401369.721820) can0 475#1001134945000000
(1430401369.722250) can0 306#1700000000000000
(1430401369.722500) can0 294#00009CFFFA000100
(1430401369.722749) can0 270#0000000000000000
(1430401369.821749) can0 475#1601134945000000
(1430401369.822060) can0 306#1700000000000000
(1430401369.822313) can0 294#00009CFFFA000100
(1430401369.822649) can0 270#0000000000000000
(1430401369.921679) can0 475#1201134945000000
(1430401369.922009) can0 306#1700000000000000
(1430401369.922263) can0 294#00009CFFFA000000
(1430401369.922511) can0 270#0000000000000000
(1430401370.021698) can0 475#1701134945000000
(1430401370.022106) can0 306#1700000000000000
(1430401370.022391) can0 294#00009CFFFA000000
(1430401370.022743) can0 270#0000000000000000
(1430401370.121637) can0 475#1401134945000000
(1430401370.122143) can0 306#1700000000000000
(1430401370.122407) can0 294#00009CFFFA000100
(1430401370.122658) can0 270#0000000000000000
(1430401370.221630) can0 475#1401134945000000
(1430401370.221914) can0 306#1700000000000000
(1430401370.222320) can0 294#00009CFFFA000100
(1430401370.222652) can0 270#0000000000000000
(1430401370.321616) can0 475#1B01134945000000
(1430401370.321919) can0 306#1700000000000000
(1430401370.322312) can0 294#00009CFFFA000100
(1430401370.322571) can0 270#0000000000000000
(1430401370.421611) can0 475#1001134945000000
(1430401370.422013) can0 306#1700000000000000
(1430401370.422268) can0 294#00009CFFFA000100
(1430401370.422560) can0 270#0000000000000000
(1430401370.521546) can0 475#0C01134945000000
(1430401370.521998) can0 306#1700000000000000
(1430401370.522264) can0 294#00009CFFFA000000
(1430401370.522516) can0 270#0000000000000000
(1430401370.621744) can0 475#1D01134945000000
(1430401370.622093) can0 306#1800000000000000
(1430401370.622350) can0 294#00009CFFFA000000
(1430401370.622676) can0 270#0000000000000000
(1430401370.721661) can0 475#0E01134945000000
(1430401370.722004) can0 306#1800000000000000
(1430401370.722476) can0 270#0000000000000000
(1430401370.722708) can0 294#00009CFFFA000100
(1430401370.821697) can0 475#1B01134945000000
(1430401370.822022) can0 306#1700000000000000
(1430401370.822279) can0 294#00009CFFFA000100
(1430401370.822528) can0 270#0000000000000000
(1430401370.921671) can0 475#0C01134945000000
(1430401370.922016) can0 306#1700000000000000
(1430401370.922277) can0 294#00009CFFFA000100
(1430401370.922533) can0 270#0000000000000000
(1430401371.021610) can0 475#1701134945000000
(1430401371.021972) can0 306#1700000000000000
(1430401371.022230) can0 294#00009CFFFA000100
(1430401371.022480) can0 270#0000000000000000
(1430401371.121602) can0 475#0E01134945000000
(1430401371.121918) can0 306#1700000000000000
(1430401371.122319) can0 294#00009CFFFA000100
(1430401371.122576) can0 270#0000000000000000
(1430401371.221740) can0 475#0E01134945000000
(1430401371.222060) can0 306#1800000000000000
(1430401371.222339) can0 294#00009CFFFA000000
(1430401371.222638) can0 270#0000000000000000
(1430401371.321734) can0 475#0E01134945000000
(1430401371.322039) can0 306#1800000000000000
(1430401371.322584) can0 294#00009CFFFA000000
(1430401371.322820) can0 270#0000000000000000
(1430401371.421500) can0 475#1201134945000000
(1430401371.421801) can0 306#1800000000000000
(1430401371.422082) can0 294#00009CFFFA000000
(1430401371.422335) can0 270#0000000000000000
(1430401371.521490) can0 475#0E01134945000000
(1430401371.521920) can0 306#1700000000000000
(1430401371.522177) can0 294#00009CFFFA000100
(1430401371.522427) can0 270#0000000000000000
(1430401371.621948) can0 475#1701134945000000
(1430401371.622380) can0 306#1800000000000000
(1430401371.622677) can0 294#00009CFFFA000100
(1430401371.623089) can0 270#0000000000000000
(1430401371.721844) can0 475#1001134945000000
(1430401371.722167) can0 306#1800000000000000
(1430401371.722423) can0 294#00009CFFFA000100
(1430401371.722673) can0 270#0000000000000000
(1430401371.821905) can0 475#1601134945000000
(1430401371.822319) can0 306#1800000000000000
(1430401371.822574) can0 294#00009CFFFA000100
(1430401371.823020) can0 270#0000000000000000
(1430401371.921855) can0 475#0E01134945000000
(1430401371.922212) can0 306#1800000000000000
(1430401371.922470) can0 294#00009CFFFA000100
(1430401371.922718) can0 270#0000000000000000
(1430401372.021853) can0 475#1001134945000000
(1430401372.022178) can0 306#1800000000000000
(1430401372.022432) can0 294#00009CFFFA000100
(1430401372.022723) can0 270#0000000000000000
(1430401372.121793) can0 475#0A01134945000000
(1430401372.122087) can0 306#1800000000000000
(1430401372.122445) can0 294#00009CFFFA000100
(1430401372.122706) can0 270#0000000000000000
(1430401372.221696) can0 475#1901134945000000
(1430401372.221994) can0 306#1800000000000000
(1430401372.222248) can0 294#00009CFFFA000100
(1430401372.222498) can0 270#0000000000000000
(1430401372.321961) can0 475#1601134945000000
(1430401372.322267) can0 306#1800000000000000
(1430401372.322542) can0 294#00009CFFFA000100
(1430401372.322799) can0 270#0000000000000000
(1430401372.421900) can0 475#1601134945000000
(1430401372.422362) can0 306#1800000000000000
(1430401372.422619) can0 294#00009CFFFA000100
(1430401372.422949) can0 270#0000000000000000
(1430401372.521911) can0 475#1B01134945000000
(1430401372.522329) can0 306#1800000000000000
(1430401372.522594) can0 294#00009CFFFA000100
(1430401372.522846) can0 270#0000000000000000
(1430401372.621865) can0 475#1401134945000000
(1430401372.622153) can0 306#1800000000000000
(1430401372.622563) can0 294#00009CFFFA000100
(1430401372.622877) can0 270#0000000000000000
(1430401372.721837) can0 475#1701134945000000
(1430401372.722262) can0 306#1800000000000000
(1430401372.722521) can0 294#00009CFFFA000100
(1430401372.722781) can0 270#0000000000000000
(1430401372.821748) can0 475#0E01134945000000
(1430401372.822055) can0 306#1900000000000000
(1430401372.822308) can0 294#00009CFFFA000000
(1430401372.822559) can0 270#0000000000000000
(1430401372.921781) can0 475#1401134945000000
(1430401372.922202) can0 306#1900000000000000
(1430401372.922454) can0 294#00009CFFFA000000
(1430401372.922700) can0 270#0000000000000000
(1430401373.021686) can0 475#1701134945000000
(1430401373.022003) can0 306#1900000000000000
(1430401373.022252) can0 294#00009CFFFA000100
(1430401373.022505) can0 270#0000000000000000
(1430401373.121711) can0 475#0E01134945000000
(1430401373.122018) can0 306#1900000000000000
(1430401373.122273) can0 294#00009CFFFA000100
(1430401373.122525) can0 270#0000000000000000
(1430401373.221672) can0 475#1001134945000000
(1430401373.221967) can0 306#1900000000000000
(1430401373.222236) can0 294#00009CFFFA000100
(1430401373.222516) can0 270#0000000000000000
(1430401373.321623) can0 475#1901134945000000
(1430401373.322107) can0 306#1900000000000000
(1430401373.322369) can0 294#00009CFFFA000100
(1430401373.322618) can0 270#0000000000000000
(1430401373.421609) can0 475#1001134945000000
(1430401373.421894) can0 306#1900000000000000
(1430401373.422297) can0 294#00009CFFFA000100
(1430401373.422562) can0 270#0000000000000000
(1430401373.521566) can0 475#0E01134945000000
(1430401373.521968) can0 306#1900000000000000
(1430401373.522235) can0 294#00009CFFFA000100
(1430401373.522507) can0 270#0000000000000000
(1430401373.621584) can0 475#1001134945000000
(1430401373.621982) can0 306#1900000000000000
(1430401373.622235) can0 294#00009CFFFA000000
(1430401373.622484) can0 270#0000000000000000
(1430401373.721500) can0 475#1401134945000000
(1430401373.721979) can0 306#1900000000000000
(1430401373.722244) can0 294#00009CFFFA000000
(1430401373.722494) can0 270#0000000000000000
(1430401373.821511) can0 475#1401134945000000
(1430401373.821809) can0 306#1900000000000000
(1430401373.822203) can0 294#00009CFFFA000100
(1430401373.822461) can0 270#0000000000000000
(1430401373.921719) can0 475#1401134945000000
(1430401373.922068) can0 306#1900000000000000
(1430401373.922319) can0 294#00009CFFFA000100
(1430401373.922573) can0 270#0000000000000000
(1430401374.021685) can0 475#0E01134945000000
(1430401374.022012) can0 306#1900000000000000
(1430401374.022269) can0 294#00009CFFFA000100
(1430401374.022516) can0 270#0000000000000000
(1430401374.121620) can0 475#1201134945000000
(1430401374.121937) can0 306#1800000000000000
(1430401374.122190) can0 294#00009CFFFA000100
(1430401374.122439) can0 270#0000000000000000
(1430401374.221558) can0 475#0001134945000000
(1430401374.221866) can0 306#1900000000000000
(1430401374.222119) can0 294#00009CFFFA000100
(1430401374.222369) can0 270#0000000000000000
(1430401374.321567) can0 475#0A01134945000000
(1430401374.321891) can0 306#1800000000000000
(1430401374.322149) can0 294#00009CFFFA000100
(1430401374.322402) can0 270#0000000000000000
(1430401374.421528) can0 475#1201134945000000
(1430401374.421828) can0 306#1900000000000000
(1430401374.422081) can0 294#00009CFFFA000100
(1430401374.422332) can0 270#0000000000000000
(1430401374.521913) can0 475#0C01134945000000
(1430401374.522246) can0 306#1900000000000000
(1430401374.522503) can0 294#00009CFFFA000100
(1430401374.522761) can0 270#0000000000000000
(1430401374.621710) can0 475#0E01134945000000
(1430401374.622020) can0 306#1900000000000000
(1430401374.622281) can0 294#00009CFFFA000100
(1430401374.622537) can0 270#0000000000000000
(1430401374.721998) can0 475#1201134945000000
(1430401374.722327) can0 306#1800000000000000
(1430401374.722583) can0 294#00009CFFFA000100
(1430401374.722833) can0 270#0000000000000000
(1430401374.821852) can0 475#0C01134945000000
(1430401374.822187) can0 306#1800000000000000
(1430401374.822451) can0 294#00009CFFFA000100
(1430401374.822710) can0 270#0000000000000000
(1430401374.921915) can0 475#0801134945000000
(1430401374.922266) can0 306#1800000000000000
(1430401374.922524) can0 294#00009CFFFA000100
(1430401374.922780) can0 270#0000000000000000
(1430401375.021874) can0 475#0A01134945000000
(1430401375.022203) can0 306#1800000000000000
(1430401375.022458) can0 294#00009CFFFA000100
(1430401375.022709) can0 270#0000000000000000
(1430401375.121843) can0 475#0C01134945000000
(1430401375.122259) can0 306#1800000000000000
(1430401375.122514) can0 294#00009CFFFA000000
(1430401375.122766) can0 270#0000000000000000
(1430401375.221816) can0 475#0C01134945000000
(1430401375.222139) can0 306#1900000000000000
(1430401375.222385) can0 294#00009CFFFA000100
(1430401375.222637) can0 270#0000000000000000
(1430401375.321644) can0 475#0601134945000000
(1430401375.321988) can0 306#1900000000000000
(1430401375.322242) can0 294#00009CFFFA000100
(1430401375.322489) can0 270#0000000000000000
(1430401375.421997) can0 475#0E01134945000000
(1430401375.422305) can0 306#1900000000000000
(1430401375.422575) can0 294#00009CFFFA000100
(1430401375.422832) can0 270#0000000000000000
(1430401375.521994) can0 475#0E01134945000000
(1430401375.522326) can0 306#1800000000000000
(1430401375.522599) can0 294#00009CFFFA000000
(1430401375.522849) can0 270#0000000000000000
(1430401375.621959) can0 475#0A01134945000000
(1430401375.622307) can0 306#1800000000000000
(1430401375.622566) can0 294#00009CFFFA000000
(1430401375.622817) can0 270#0000000000000000
(1430401375.721907) can0 475#1701134945000000
(1430401375.722249) can0 306#1800000000000000
(1430401375.722518) can0 294#00009CFFFA000000
(1430401375.722783) can0 270#0000000000000000
(1430401375.821652) can0 475#0801134945000000
(1430401375.822948) can0 306#1800000000000000
(1430401375.921848) can0 475#1001134945000000
(1430401375.922217) can0 306#1800000000000000
(1430401375.922476) can0 294#00009CFFFA000100
(1430401375.922728) can0 270#0000000000000000
(1430401376.021587) can0 475#0C01134945000000
(1430401376.021919) can0 306#1800000000000000
(1430401376.022173) can0 294#00009CFFFA000100
(1430401376.022428) can0 270#0000000000000000
(1430401376.121766) can0 475#0E01134945000000
(1430401376.122087) can0 306#1800000000000000
(1430401376.122353) can0 294#00009CFFFA000100
(1430401376.122614) can0 270#0000000000000000
(1430401376.221628) can0 475#0E01134945000000
(1430401376.221971) can0 306#1800000000000000
(1430401376.222242) can0 294#00009CFFFA000100
(1430401376.222523) can0 270#0000000000000000
(1430401376.323898) can0 475#0C01134945000000
(1430401376.421694) can0 475#0A01134945000000
(1430401376.422039) can0 306#1700000000000000
(1430401376.422293) can0 294#00009CFFFA000100
(1430401376.422542) can0 270#0000000000000000
(1430401376.521648) can0 475#0A01134945000000
(1430401376.521995) can0 306#1700000000000000
(1430401376.522265) can0 294#00009CFFFA000100
(1430401376.522534) can0 270#0000000000000000
(1430401376.621599) can0 475#1901134945000000
(1430401376.621901) can0 306#1700000000000000
(1430401376.622150) can0 294#00009CFFFA000100
(1430401376.622401) can0 270#0000000000000000
(1430401376.721602) can0 475#0E01134945000000
(1430401376.721953) can0 306#1600000000000000
(1430401376.722208) can0 294#00009CFFFA000100
(1430401376.722456) can0 270#0000000000000000
(1430401376.821794) can0 475#FD00134945000000
