(1430319841.750608) can0 477#07004B7C61001400
(1430319841.756714) can0 475#C3131D4945000000
(1430319841.756916) can0 306#1D00000000000000
(1430319841.757144) can0 294#00009CFFFA000000
(1430319841.757426) can0 270#E313000000000000
(1430319841.847569) can0 477#07004C7C61001400
(1430319841.856694) can0 475#C7131D4945000000
(1430319841.856879) can0 306#1D00000000000000
(1430319841.857138) can0 294#00009CFFFA000000
(1430319841.857391) can0 270#E313000000000000
(1430319841.944543) can0 477#07004C7C61001400
(1430319841.956619) can0 475#C3131D4945000000
(1430319841.956959) can0 306#1D00000000000000
(1430319841.957201) can0 294#00009CFFFA000000
(1430319841.957438) can0 270#E313000000000000
(1430319842.041492) can0 477#07004B7C61001400
(1430319842.056687) can0 475#C7131D4945000000
(1430319842.057037) can0 306#1D00000000000000
(1430319842.057371) can0 294#00009CFFFA000000
(1430319842.057616) can0 270#E313000000000000
(1430319842.138470) can0 477#07004C7C61001400
(1430319842.156685) can0 475#BD131D4945000000
(1430319842.156994) can0 306#1D00000000000000
(1430319842.157256) can0 294#00009CFFFA000000
(1430319842.157499) can0 270#E313000000000000
(1430319842.235589) can0 477#07004C7C61001400
(1430319842.256609) can0 475#C5131D4945000000
(1430319842.257031) can0 306#1D00000000000000
(1430319842.257370) can0 294#00009CFFFA000000
(1430319842.257620) can0 270#E313000000000000
(1430319842.332399) can0 477#07004D7C61001400
(1430319842.356777) can0 475#C9131D4945000000
(1430319842.357065) can0 306#1D00000000000000
(1430319842.357314) can0 294#00009CFFFA000000
(1430319842.357555) can0 270#E313000000000000
(1430319842.429365) can0 477#07004D7C61001400
(1430319842.456721) can0 475#D1131D4945000000
(1430319842.457030) can0 306#1D00000000000000
(1430319842.457388) can0 294#00009CFFFA000000
(1430319842.457739) can0 270#E313000000000000
(1430319842.526362) can0 477#07004B7C61001400
(1430319842.556730) can0 475#CD131D4945000000
(1430319842.557037) can0 306#1D00000000000000
(1430319842.557284) can0 294#00009CFFFA000000
(1430319842.557529) can0 270#E313000000000000
(1430319842.623309) can0 477#07004C7C61001400
(1430319842.656692) can0 475#C1131D4945000000
(1430319842.657012) can0 306#1E00000000000000
(1430319842.657346) can0 294#00009CFFFA000000
(1430319842.657600) can0 270#E313000000000000
(1430319842.720291) can0 477#07004C7C61001400
(1430319842.756682) can0 475#C7131D4945000000
(1430319842.756991) can0 306#1E00000000000000
(1430319842.757271) can0 294#00009CFFFA000000
(1430319842.757525) can0 270#E313000000000000
(1430319842.817346) can0 477#07004C7C61001400
(1430319842.856631) can0 475#C5131D4945000000
(1430319842.856934) can0 306#1E00000000000000
(1430319842.857223) can0 294#00009CFFFA000000
(1430319842.857549) can0 270#E313000000000000
(1430319842.914221) can0 477#07004C7C61001400
(1430319842.956632) can0 475#CB131D4945000000
(1430319842.957071) can0 306#1D00000000000000
(1430319842.957329) can0 294#00009CFFFA000000
(1430319842.957575) can0 270#E313000000000000
(1430319843.011154) can0 477#07004D7C61001400
(1430319843.057049) can0 475#CD131D4945000000
(1430319843.057451) can0 306#1D00000000000000
(1430319843.057704) can0 270#E313000000000000
(1430319843.057905) can0 294#00009CFFFA000000
(1430319843.108175) can0 477#07004C7C61001400
(1430319843.157004) can0 475#CD131D4945000000
(1430319843.157316) can0 306#1D00000000000000
(1430319843.157570) can0 294#00009CFFFA000000
(1430319843.157848) can0 270#E313000000000000
(1430319843.205119) can0 477#07004D7C61001400
(1430319843.257011) can0 475#CB131D4945000000
(1430319843.257430) can0 306#1D00000000000000
(1430319843.257689) can0 270#E313000000000000
(1430319843.257888) can0 294#00009CFFFA000000
(1430319843.302113) can0 477#06004C7C61001400
(1430319843.356964) can0 475#BF131D4945000000
(1430319843.357268) can0 306#1D00000000000000
(1430319843.357516) can0 294#00009CFFFA000000
(1430319843.357802) can0 270#E313000000000000
(1430319843.399071) can0 477#07004C7C61001400
(1430319843.456894) can0 475#C7131D4945000000
(1430319843.457253) can0 306#1C00000000000000
(1430319843.457555) can0 294#00009CFFFA000000
(1430319843.457903) can0 270#E313000000000000
(1430319843.496022) can0 477#06004C7C61001400
(1430319843.556900) can0 475#C7131D4945000000
(1430319843.557198) can0 306#1C00000000000000
(1430319843.557446) can0 294#00009CFFFA000000
(1430319843.557691) can0 270#E313000000000000
(1430319843.592972) can0 477#06004B7C61001400
(1430319843.656829) can0 475#CB131D4945000000
(1430319843.657186) can0 306#1C00000000000000
(1430319843.657528) can0 270#E313000000000000
(1430319843.657735) can0 294#00009CFFFA000000
(1430319843.689942) can0 477#07004C7C61001400
(1430319843.756909) can0 475#CB131D4945000000
(1430319843.757307) can0 306#1C00000000000000
(1430319843.757578) can0 294#00009CFFFA000000
(1430319843.757824) can0 270#E313000000000000
(1430319843.786913) can0 477#07004C7C61001400
(1430319843.857105) can0 475#CB131D4945000000
(1430319843.857484) can0 294#00009CFFFA000000
(1430319843.857698) can0 306#1C00000000000000
(1430319843.857942) can0 270#E313000000000000
(1430319843.883935) can0 477#07004D7C61001400
(1430319843.957011) can0 475#C1131D4945000000
(1430319843.957326) can0 306#1D00000000000000
(1430319843.957575) can0 294#00009CFFFA000000
(1430319843.957814) can0 270#E313000000000000
(1430319843.980933) can0 477#07004D7C61001400
(1430319844.056816) can0 475#C9131D4945000000
(1430319844.057242) can0 306#1D00000000000000
(1430319844.057614) can0 294#00009CFFFA000000
(1430319844.057969) can0 270#E313000000000000
(1430319844.077818) can0 477#07004C7C61001400
(1430319844.156999) can0 475#C5131D4945000000
(1430319844.157277) can0 306#1E00000000000000
(1430319844.157523) can0 294#00009CFFFA000000
(1430319844.157771) can0 270#E313000000000000
(1430319844.175904) can0 477#07004D7C61001400
(1430319844.257018) can0 475#C7131D4945000000
(1430319844.257352) can0 306#1E00000000000000
(1430319844.257646) can0 294#00009CFFFA000000
(1430319844.257850) can0 270#E313000000000000
(1430319844.273150) can0 477#06004B7C61001400
(1430319844.356893) can0 475#CF131D4945000000
(1430319844.357237) can0 306#1E00000000000000
(1430319844.357495) can0 294#00009CFFFA000000
(1430319844.357745) can0 270#E313000000000000
(1430319844.368843) can0 477#06004C7C61001400
(1430319844.456696) can0 475#C5131D4945000000
(1430319844.457097) can0 306#1E00000000000000
(1430319844.457371) can0 294#00009CFFFA000000
(1430319844.457692) can0 270#E313000000000000
(1430319844.465688) can0 477#07004C7C61001400
(1430319844.556663) can0 475#D1131D4945000000
(1430319844.556953) can0 306#1E00000000000000
(1430319844.557348) can0 294#00009CFFFA000000
(1430319844.557609) can0 270#E313000000000000
(1430319844.562663) can0 477#07004C7C61001400
(1430319844.657083) can0 306#1E00000000000000
(1430319844.657533) can0 294#00009CFFFA000000
(1430319844.657920) can0 270#E313000000000000
(1430319844.659683) can0 477#07004D7C61001400
(1430319844.756629) can0 477#07004C7C61001400
(1430319844.757094) can0 475#CB131D4945000000
(1430319844.757352) can0 306#1E00000000000000
(1430319844.757617) can0 294#00009CFFFA000000
(1430319844.757898) can0 270#E313000000000000
(1430319844.853589) can0 477#07004D7C61001400
(1430319844.856825) can0 475#CD131D4945000000
(1430319844.857126) can0 306#1E00000000000000
(1430319844.857428) can0 294#00009CFFFA000000
(1430319844.857727) can0 270#E313000000000000
(1430319844.950545) can0 477#07004C7C61001400
(1430319844.956769) can0 475#C1131D4945000000
(1430319844.957093) can0 306#1E00000000000000
(1430319844.957372) can0 294#00009CFFFA000000
(1430319844.957620) can0 270#E313000000000000
(1430319845.047550) can0 477#07004C7C61001400
(1430319845.056694) can0 475#BC131D4945000000
(1430319845.056995) can0 306#1E00000000000000
(1430319845.057245) can0 294#00009CFFFA000000
(1430319845.057542) can0 270#E313000000000000
(1430319845.144502) can0 477#06004C7C61001400
(1430319845.156707) can0 475#C3131D4945000000
(1430319845.156975) can0 306#1E00000000000000
(1430319845.157225) can0 294#00009CFFFA000000
(1430319845.157468) can0 270#E313000000000000
(1430319845.241502) can0 477#06004D7C61001400
(1430319845.256678) can0 475#C5131D4945000000
(1430319845.256992) can0 306#1E00000000000000
(1430319845.257269) can0 294#00009CFFFA000000
(1430319845.259235) can0 270#E313000000000000
(1430319845.338432) can0 477#07004C7C61001400
(1430319845.356669) can0 475#C3131D4945000000
(1430319845.357048) can0 306#1E00000000000000
(1430319845.357324) can0 294#00009CFFFA000000
(1430319845.357575) can0 270#E313000000000000
(1430319845.435393) can0 477#07004D7C61001400
(1430319845.456847) can0 475#C7131D4945000000
(1430319845.457146) can0 306#1E00000000000000
(1430319845.457473) can0 294#00009CFFFA000000
(1430319845.457792) can0 270#E313000000000000
(1430319845.532548) can0 477#07004C7C61001400
(1430319845.556866) can0 475#CB131D4945000000
(1430319845.557147) can0 306#1E00000000000000
(1430319845.557399) can0 294#00009CFFFA000000
(1430319845.557652) can0 270#E313000000000000
(1430319845.629334) can0 477#07004D7C61001400
(1430319845.656754) can0 475#C9131D4945000000
(1430319845.657060) can0 306#1E00000000000000
(1430319845.657315) can0 294#00009CFFFA000000
(1430319845.657653) can0 270#E313000000000000
(1430319845.726321) can0 477#07004C7C61001400
(1430319845.756786) can0 475#C7131D4945000000
(1430319845.757077) can0 306#1E00000000000000
(1430319845.757326) can0 294#00009CFFFA000000
(1430319845.757572) can0 270#E313000000000000
(1430319845.823281) can0 477#07004C7C61001400
(1430319845.856718) can0 475#CB131D4945000000
(1430319845.857023) can0 306#1E00000000000000
(1430319845.857274) can0 294#00009CFFFA000000
(1430319845.857593) can0 270#E313000000000000
(1430319845.920288) can0 477#07004D7C61001400
(1430319845.956640) can0 475#C9131D4945000000
(1430319845.956962) can0 306#1E00000000000000
(1430319845.957218) can0 294#00009CFFFA000000
(1430319845.957462) can0 270#E313000000000000
(1430319846.017247) can0 477#07004D7C61001400
(1430319846.056921) can0 475#C9131D4945000000
(1430319846.057239) can0 306#1E00000000000000
(1430319846.057530) can0 294#00009CFFFA000000
(1430319846.057831) can0 270#E313000000000000
(1430319846.114359) can0 477#07004C7C61001400
(1430319846.156693) can0 475#BF131D4945000000
(1430319846.157140) can0 306#1F00000000000000
(1430319846.157393) can0 294#00009CFFFA000000
(1430319846.157736) can0 270#E313000000000000
(1430319846.211201) can0 477#07004D7C61001400
(1430319846.257053) can0 475#C5131D4945000000
(1430319846.257374) can0 306#1F00000000000000
(1430319846.257716) can0 294#00009CFFFA000000
(1430319846.257973) can0 270#E313000000000000
(1430319846.308146) can0 477#07004D7C61001400
(1430319846.357098) can0 475#D1131D4945000000
(1430319846.357401) can0 306#1F00000000000000
(1430319846.357674) can0 294#00009CFFFA000000
(1430319846.357923) can0 270#E313000000000000
(1430319846.405122) can0 477#07004C7C61001400
(1430319846.456964) can0 475#C1131D4945000000
(1430319846.457303) can0 306#1F00000000000000
(1430319846.457609) can0 294#00009CFFFA000000
(1430319846.457910) can0 270#E313000000000000
(1430319846.502200) can0 477#07004B7C61001400
(1430319846.556736) can0 475#C7131D4945000000
(1430319846.557095) can0 306#2000000000000000
(1430319846.557371) can0 294#00009CFFFA000000
(1430319846.557645) can0 270#E313000000000000
(1430319846.599236) can0 477#07004D7C61001400
(1430319846.656907) can0 475#C9131D4945000000
(1430319846.657282) can0 306#2000000000000000
(1430319846.657605) can0 294#00009CFFFA000000
(1430319846.657941) can0 270#E313000000000000
(1430319846.696063) can0 477#07004C7C61001400
(1430319846.756864) can0 475#C5131D4945000000
(1430319846.757239) can0 306#2000000000000000
(1430319846.757505) can0 294#00009CFFFA000000
(1430319846.757771) can0 270#E313000000000000
(1430319846.793005) can0 477#07004D7C61001400
(1430319846.856837) can0 475#CB131D4945000000
(1430319846.857220) can0 306#1F00000000000000
(1430319846.857489) can0 294#00009CFFFA000000
(1430319846.857869) can0 270#E313000000000000
(1430319846.889975) can0 477#06004D7C61001400
(1430319846.946941) can0 475#D1131D4945000000
(1430319846.947370) can0 306#1F00000000000000
(1430319846.947631) can0 294#00009CFFFA000000
(1430319846.947894) can0 270#E313000000000000
(1430319846.986960) can0 477#07004D7C61001400
(1430319847.047030) can0 475#C1131D4945000000
(1430319847.047396) can0 306#1F00000000000000
(1430319847.048785) can0 270#E313000000000000
(1430319847.049070) can0 294#00009CFFFA000000
(1430319847.083935) can0 477#07004C7C61001400
(1430319847.147010) can0 475#C3131D4945000000
(1430319847.147376) can0 306#1F00000000000000
(1430319847.147647) can0 294#00009CFFFA000000
(1430319847.147909) can0 270#E313000000000000
(1430319847.181408) can0 477#07004C7C61001400
(1430319847.246963) can0 475#C9131D4945000000
(1430319847.247307) can0 306#1F00000000000000
(1430319847.247575) can0 294#00009CFFFA000000
(1430319847.247834) can0 270#E313000000000000
(1430319847.277862) can0 477#07004D7C61001400
(1430319847.347023) can0 475#C3131D4945000000
(1430319847.347393) can0 306#1F00000000000000
(1430319847.347660) can0 294#00009CFFFA000000
(1430319847.347923) can0 270#E313000000000000
(1430319847.374819) can0 477#06004C7C61001400
(1430319847.446920) can0 475#CD131D4945000000
(1430319847.447296) can0 306#1E00000000000000
(1430319847.447571) can0 294#00009CFFFA000000
(1430319847.447835) can0 270#E313000000000000
(1430319847.471800) can0 477#07004C7C61001400
(1430319847.546747) can0 475#CB131D4945000000
(1430319847.547175) can0 306#1E00000000000000
(1430319847.547435) can0 294#00009CFFFA000000
(1430319847.547696) can0 270#E313000000000000
(1430319847.569955) can0 477#07004D7C61001400
(1430319847.646717) can0 475#C9131D4945000000
(1430319847.647149) can0 306#1E00000000000000
(1430319847.647413) can0 294#00009CFFFA000000
(1430319847.647676) can0 270#E313000000000000
(1430319847.665830) can0 477#07004C7C61001400
(1430319847.746791) can0 475#C9131D4945000000
(1430319847.747161) can0 306#1E00000000000000
(1430319847.747430) can0 294#00009CFFFA000000
(1430319847.747692) can0 270#E313000000000000
(1430319847.762683) can0 477#07004C7C61001400
(1430319847.846840) can0 475#C3131D4945000000
(1430319847.847185) can0 306#1E00000000000000
(1430319847.847460) can0 294#00009CFFFA000000
(1430319847.847728) can0 270#E313000000000000
(1430319847.859673) can0 477#07004D7C61001400
(1430319847.946833) can0 475#B8131D4945000000
(1430319847.947201) can0 306#1E00000000000000
(1430319847.947464) can0 294#00009CFFFA000000
(1430319847.947725) can0 270#E313000000000000
(1430319847.956672) can0 477#07004C7C61001400
(1430319848.046716) can0 475#C3131D4945000000
(1430319848.047073) can0 306#1D00000000000000
(1430319848.047340) can0 294#00009CFFFA000000
(1430319848.047600) can0 270#E313000000000000
(1430319848.053766) can0 477#07004C7C61001400
(1430319848.146778) can0 475#C7131D4945000000
(1430319848.147143) can0 306#1D00000000000000
(1430319848.147408) can0 294#00009CFFFA000000
(1430319848.147666) can0 270#E313000000000000
(1430319848.150580) can0 477#07004B7C61001400
(1430319848.246678) can0 475#C3131D4945000000
(1430319848.247058) can0 306#1D00000000000000
(1430319848.247324) can0 294#00009CFFFA000000
(1430319848.247581) can0 270#E313000000000000
(1430319848.247836) can0 477#07004C7C61001400
(1430319848.344511) can0 477#07004C7C61001400
(1430319848.346701) can0 475#C1131D4945000000
(1430319848.347026) can0 306#1D00000000000000
(1430319848.347305) can0 294#00009CFFFA000000
(1430319848.347562) can0 270#E313000000000000
(1430319848.441481) can0 477#07004C7C61001400
(1430319848.446844) can0 475#CB131D4945000000
(1430319848.447198) can0 306#1D00000000000000
(1430319848.447460) can0 294#00009CFFFA000000
(1430319848.447720) can0 270#E313000000000000
(1430319848.538476) can0 477#07004C7C61001400
(1430319848.547412) can0 294#00009CFFFA000000
(1430319848.547754) can0 270#E313000000000000
(1430319848.635386) can0 477#07004D7C61001400
(1430319848.646827) can0 475#CF131D4945000000
(1430319848.647126) can0 306#1E00000000000000
(1430319848.647378) can0 294#00009CFFFA000000
(1430319848.647619) can0 270#E313000000000000
(1430319848.732343) can0 477#07004C7C61001400
(1430319848.746836) can0 475#C7131D4945000000
(1430319848.747118) can0 306#1E00000000000000
(1430319848.747373) can0 294#00009CFFFA000000
(1430319848.747621) can0 270#E313000000000000
(1430319848.829338) can0 477#07004D7C61001400
(1430319848.846818) can0 475#D1131D4945000000
(1430319848.847113) can0 306#1E00000000000000
(1430319848.847929) can0 294#00009CFFFA000000
(1430319848.848185) can0 270#E313000000000000
(1430319848.926326) can0 477#06004C7C61001400
(1430319848.946749) can0 475#C3131D4945000000
(1430319848.947048) can0 306#1E00000000000000
(1430319848.947298) can0 294#00009CFFFA000000
(1430319848.947543) can0 270#E313000000000000
(1430319849.023262) can0 477#07004D7C61001400
(1430319849.046690) can0 475#C1131D4945000000
(1430319849.047024) can0 306#1F00000000000000
(1430319849.047268) can0 294#00009CFFFA000000
(1430319849.047513) can0 270#E313000000000000
(1430319849.120254) can0 477#06004D7C61001400
(1430319849.146750) can0 475#C5131D4945000000
(1430319849.147137) can0 306#1F00000000000000
(1430319849.147402) can0 294#00009CFFFA000000
(1430319849.147644) can0 270#E313000000000000
(1430319849.217196) can0 477#07004D7C61001400
(1430319849.246902) can0 475#C7131D4945000000
(1430319849.247231) can0 306#2000000000000000
(1430319849.247479) can0 294#00009CFFFA000000
(1430319849.247721) can0 270#E313000000000000
(1430319849.314187) can0 477#06004C7C61001400
(1430319849.346844) can0 475#C9131D4945000000
(1430319849.347138) can0 306#1F00000000000000
(1430319849.347402) can0 294#00009CFFFA000000
(1430319849.347781) can0 270#E313000000000000
(1430319849.411127) can0 477#07004C7C61001400
(1430319849.446822) can0 475#C7131D4945000000
(1430319849.447140) can0 306#1F00000000000000
(1430319849.447408) can0 294#00009CFFFA000000
(1430319849.447658) can0 270#E313000000000000
(1430319849.508111) can0 477#07004C7C61001400
(1430319849.547103) can0 475#C9131D4945000000
(1430319849.547429) can0 306#2000000000000000
(1430319849.547687) can0 294#00009CFFFA000000
(1430319849.547934) can0 270#E313000000000000
(1430319849.605072) can0 477#07004C7C61001400
(1430319849.646950) can0 475#C7131D4945000000
(1430319849.647266) can0 306#2000000000000000
(1430319849.647538) can0 294#00009CFFFA000000
(1430319849.647790) can0 270#E313000000000000
(1430319849.702033) can0 477#07004C7C61001400
(1430319849.746746) can0 475#C9131D4945000000
(1430319849.747064) can0 306#2100000000000000
(1430319849.747315) can0 294#00009CFFFA000000
(1430319849.747559) can0 270#E313000000000000
(1430319849.799021) can0 477#07004C7C61001400
(1430319849.846994) can0 475#CD131D4945000000
(1430319849.847311) can0 306#2100000000000000
(1430319849.847591) can0 294#00009CFFFA000000
(1430319849.847841) can0 270#E313000000000000
(1430319849.909028) can0 477#07004C7C61001400
(1430319849.946821) can0 475#CB131D4945000000
(1430319849.947188) can0 306#2100000000000000
(1430319849.947440) can0 294#00009CFFFA000000
(1430319849.947691) can0 270#E313000000000000
(1430319849.993654) can0 477#07004D7C61001400
(1430319850.046877) can0 475#D1131D4945000000
(1430319850.047215) can0 306#2000000000000000
(1430319850.047467) can0 294#00009CFFFA000000
(1430319850.047719) can0 270#E313000000000000
(1430319850.089980) can0 477#07004C7C61001400
(1430319850.147128) can0 475#C1131D4945000000
(1430319850.147432) can0 306#2000000000000000
(1430319850.147674) can0 294#00009CFFFA000000
(1430319850.147918) can0 270#E313000000000000
(1430319850.186889) can0 477#07004C7C61001400
(1430319850.247063) can0 475#C9131D4945000000
(1430319850.247421) can0 306#2100000000000000
(1430319850.247676) can0 294#00009CFFFA000000
(1430319850.247928) can0 270#E313000000000000
(1430319850.283943) can0 477#07004B7C61001400
(1430319850.347049) can0 475#BD131D4945000000
(1430319850.347380) can0 306#2200000000000000
(1430319850.347628) can0 294#00009CFFFA000000
(1430319850.347876) can0 270#E313000000000000
(1430319850.380819) can0 477#07004D7C61001400
(1430319850.447033) can0 475#D1131D4945000000
(1430319850.447325) can0 306#2200000000000000
(1430319850.447607) can0 294#00009CFFFA000000
(1430319850.447869) can0 270#E313000000000000
(1430319850.478746) can0 477#07004D7C61001400
(1430319850.547004) can0 475#C5131D4945000000
(1430319850.547310) can0 306#2200000000000000
(1430319850.547563) can0 294#00009CFFFA000000
(1430319850.547807) can0 270#E313000000000000
(1430319850.575306) can0 477#07004C7C61001400
(1430319850.646962) can0 475#BF131D4945000000
(1430319850.647577) can0 306#2300000000000000
(1430319850.647806) can0 294#00009CFFFA000000
(1430319850.672088) can0 477#07004C7C61001400
(1430319850.746895) can0 475#C9131D4945000000
(1430319850.747213) can0 306#2300000000000000
(1430319850.747461) can0 294#00009CFFFA000000
(1430319850.747705) can0 270#E313000000000000
(1430319850.768840) can0 477#07004C7C61001400
(1430319850.846716) can0 475#D2131D4945000000
(1430319850.847131) can0 306#2300000000000000
(1430319850.847391) can0 294#00009CFFFA000000
(1430319850.847638) can0 270#E313000000000000
(1430319850.865807) can0 477#07004C7C61001400
(1430319850.946830) can0 475#C7131D4945000000
(1430319850.947207) can0 306#2300000000000000
(1430319850.947484) can0 294#00009CFFFA000000
(1430319850.947748) can0 270#E313000000000000
(1430319850.962695) can0 477#07004C7C61001400
(1430319851.046853) can0 475#C5131D4945000000
(1430319851.047185) can0 306#2300000000000000
(1430319851.047433) can0 294#00009CFFFA000000
(1430319851.047680) can0 270#E313000000000000
(1430319851.059644) can0 477#07004D7C61001400
(1430319851.146741) can0 475#C9131D4945000000
(1430319851.147093) can0 306#2200000000000000
(1430319851.147354) can0 294#00009CFFFA000000
(1430319851.147601) can0 270#E313000000000000
(1430319851.156723) can0 477#07004C7C61001400
(1430319851.246845) can0 475#CD131D4945000000
(1430319851.247152) can0 294#00009CFFFA000000
(1430319851.247355) can0 306#2300000000000000
(1430319851.247592) can0 270#E313000000000000
(1430319851.253558) can0 477#07004C7C61001400
(1430319851.346784) can0 475#CB131D4945000000
(1430319851.347109) can0 306#2300000000000000
(1430319851.347361) can0 270#E313000000000000
(1430319851.347558) can0 294#00009CFFFA000000
(1430319851.350532) can0 477#07004D7C61001400
(1430319851.446734) can0 475#C1131D4945000000
(1430319851.447025) can0 306#2300000000000000
(1430319851.447270) can0 294#00009CFFFA000000
(1430319851.447513) can0 270#E313000000000000
(1430319851.447938) can0 477#07004D7C61001400
(1430319851.544476) can0 477#07004D7C61001400
(1430319851.546732) can0 475#CB131D4945000000
(1430319851.547130) can0 306#2300000000000000
(1430319851.547395) can0 294#00009CFFFA000000
(1430319851.547639) can0 270#E313000000000000
(1430319851.641424) can0 477#07004C7C61001400
(1430319851.646918) can0 475#CD131D4945000000
(1430319851.647208) can0 306#2300000000000000
(1430319851.647452) can0 294#00009CFFFA000000
(1430319851.647696) can0 270#E313000000000000
(1430319851.738424) can0 477#07004C7C61001400
(1430319851.748453) can0 475#CF131D4945000000
(1430319851.835384) can0 477#07004C7C61001400
(1430319851.846889) can0 475#C7131D4945000000
(1430319851.847181) can0 306#2300000000000000
(1430319851.847441) can0 294#00009CFFFA000000
(1430319851.847709) can0 270#E313000000000000
(1430319851.934722) can0 477#07004C7C61001400
(1430319851.946792) can0 475#CB131D4945000000
(1430319851.947127) can0 306#2300000000000000
(1430319851.947829) can0 270#E313000000000000
(1430319851.948044) can0 294#00009CFFFA000000
(1430319852.029293) can0 477#07004C7C61001400
(1430319852.046782) can0 475#C7131D4945000000
(1430319852.047081) can0 306#2200000000000000
(1430319852.047333) can0 294#00009CFFFA000000
(1430319852.047575) can0 270#E313000000000000
(1430319852.126311) can0 477#07004C7C61001400
(1430319852.146848) can0 475#C9131D4945000000
(1430319852.147188) can0 306#2200000000000000
(1430319852.147452) can0 294#00009CFFFA000000
(1430319852.147701) can0 270#E313000000000000
(1430319852.223253) can0 477#07004D7C61001400
(1430319852.247943) can0 475#C9131D4945000000
(1430319852.248754) can0 270#E313000000000000
(1430319852.320215) can0 477#07004C7C61001400
(1430319852.346687) can0 475#C9131D4945000000
(1430319852.347151) can0 306#2200000000000000
(1430319852.347408) can0 294#00009CFFFA000000
(1430319852.347667) can0 270#E313000000000000
(1430319852.417177) can0 477#07004E7C61001400
(1430319852.447127) can0 475#CB131D4945000000
(1430319852.447474) can0 306#2200000000000000
(1430319852.447721) can0 294#00009CFFFA000000
(1430319852.447970) can0 270#E313000000000000
(1430319852.514212) can0 477#07004C7C61001400
(1430319852.546901) can0 475#C3131D4945000000
(1430319852.547213) can0 306#2200000000000000
(1430319852.547466) can0 294#00009CFFFA000000
(1430319852.547710) can0 270#E313000000000000
(1430319852.611120) can0 477#07004C7C61001400
(1430319852.646842) can0 475#C1131D4945000000
(1430319852.647189) can0 306#2200000000000000
(1430319852.647444) can0 294#00009CFFFA000000
(1430319852.647691) can0 270#E313000000000000
(1430319852.708093) can0 477#07004D7C61001400
(1430319852.746826) can0 475#C1131D4945000000
(1430319852.747154) can0 306#2100000000000000
(1430319852.747405) can0 294#00009CFFFA000000
(1430319852.747693) can0 270#E313000000000000
(1430319852.805081) can0 477#07004C7C61001400
(1430319852.847035) can0 475#CB131D4945000000
(1430319852.847346) can0 306#2100000000000000
(1430319852.847627) can0 294#00009CFFFA000000
(1430319852.847888) can0 270#E313000000000000
(1430319852.902047) can0 477#07004C7C61001400
(1430319852.947028) can0 475#C5131D4945000000
(1430319852.947321) can0 306#2000000000000000
(1430319852.947599) can0 294#00009CFFFA000000
(1430319852.947867) can0 270#E313000000000000
(1430319852.998972) can0 477#07004D7C61001400
(1430319853.046920) can0 475#BF131D4945000000
(1430319853.047281) can0 306#1F00000000000000
(1430319853.047534) can0 294#00009CFFFA000000
(1430319853.047783) can0 270#E313000000000000
(1430319853.095983) can0 477#07004C7C61001400
(1430319853.146971) can0 475#CF131D4945000000
(1430319853.147431) can0 306#1F00000000000000
(1430319853.147694) can0 294#00009CFFFA000000
(1430319853.147941) can0 270#E313000000000000
(1430319853.192924) can0 477#07004C7C61001400
(1430319853.246936) can0 475#C1131D4945000000
(1430319853.247404) can0 306#1F00000000000000
(1430319853.247661) can0 294#00009CFFFA000000
(1430319853.247906) can0 270#E313000000000000
(1430319853.289911) can0 477#07004D7C61001400
(1430319853.347093) can0 475#C5131D4945000000
(1430319853.347392) can0 306#1F00000000000000
(1430319853.347643) can0 294#00009CFFFA000000
(1430319853.347896) can0 270#E313000000000000
(1430319853.386972) can0 477#07004D7C61001400
(1430319853.446918) can0 475#CD131D4945000000
(1430319853.447341) can0 306#1F00000000000000
(1430319853.447589) can0 294#00009CFFFA000000
(1430319853.447834) can0 270#E313000000000000
(1430319853.483834) can0 477#07004C7C61001400
(1430319853.546842) can0 475#C7131D4945000000
(1430319853.547274) can0 306#1F00000000000000
(1430319853.547549) can0 294#00009CFFFA000000
(1430319853.547809) can0 270#E313000000000000
(1430319853.581211) can0 477#07004D7C61001400
(1430319853.646951) can0 475#CB131D4945000000
(1430319853.647316) can0 306#1E00000000000000
(1430319853.647585) can0 294#00009CFFFA000000
(1430319853.647834) can0 270#E313000000000000
(1430319853.677758) can0 477#07004C7C61001400
(1430319853.746809) can0 475#C7131D4945000000
(1430319853.747253) can0 306#1F00000000000000
(1430319853.748223) can0 294#00009CFFFA000000
(1430319853.748469) can0 270#E313000000000000
(1430319853.775024) can0 477#07004D7C61001400
(1430319853.847306) can0 306#1F00000000000000
(1430319853.847597) can0 475#CD131D4945000000
(1430319853.847986) can0 270#E313000000000000
(1430319853.873379) can0 477#07004D7C61001400
(1430319853.947214) can0 475#C7131D4945000000
(1430319853.947671) can0 294#00009CFFFA000000
(1430319853.947887) can0 270#E313000000000000
(1430319853.968839) can0 477#07004D7C61001400
(1430319854.046861) can0 475#CB131D4945000000
(1430319854.047211) can0 306#1E00000000000000
(1430319854.047479) can0 294#00009CFFFA000000
(1430319854.047736) can0 270#E313000000000000
(1430319854.065701) can0 477#07004C7C61001400
(1430319854.147011) can0 306#1E00000000000000
(1430319854.147464) can0 294#00009CFFFA000000
(1430319854.147730) can0 270#E313000000000000
(1430319854.163251) can0 477#07004C7C61001400
(1430319854.246808) can0 475#C7131D4945000000
(1430319854.247145) can0 306#1E00000000000000
(1430319854.247399) can0 294#00009CFFFA000000
(1430319854.247652) can0 270#E313000000000000
(1430319854.259797) can0 477#07004D7C61001400
(1430319854.346734) can0 475#C7131D4945000000
(1430319854.347089) can0 306#1E00000000000000
(1430319854.347626) can0 270#E313000000000000
(1430319854.347861) can0 294#00009CFFFA000000
(1430319854.356534) can0 477#07004C7C61001400
(1430319854.446740) can0 475#C1131D4945000000
(1430319854.447134) can0 306#1E00000000000000
(1430319854.447405) can0 294#00009CFFFA000000
(1430319854.448034) can0 270#E313000000000000
(1430319854.453644) can0 477#07004D7C61001400
(1430319854.546788) can0 475#C9131D4945000000
(1430319854.547122) can0 306#1E00000000000000
(1430319854.547377) can0 270#E313000000000000
(1430319854.547580) can0 294#00009CFFFA000000
(1430319854.550514) can0 477#07004D7C61001400
(1430319854.646762) can0 475#CD131D4945000000
(1430319854.647193) can0 306#1D00000000000000
(1430319854.647471) can0 294#00009CFFFA000000
(1430319854.647752) can0 477#07004D7C61001400
(1430319854.648020) can0 270#E313000000000000
(1430319854.744440) can0 477#06004E7C61001400
(1430319854.746880) can0 475#C5131D4945000000
(1430319854.747220) can0 306#1D00000000000000
(1430319854.747488) can0 294#00009CFFFA000000
(1430319854.747753) can0 270#E313000000000000
(1430319854.841408) can0 477#07004D7C61001400
(1430319854.847329) can0 475#C9131D4945000000
(1430319854.847647) can0 306#1C00000000000000
(1430319854.847916) can0 294#00009CFFFA000000
(1430319854.848166) can0 270#E313000000000000
(1430319854.938453) can0 477#07004D7C61001400
(1430319854.946907) can0 475#C3131D4945000000
(1430319854.947203) can0 306#1B00000000000000
(1430319854.947458) can0 294#00009CFFFA000000
(1430319854.947739) can0 270#E313000000000000
(1430319855.035353) can0 477#06004D7C61001400
(1430319855.046785) can0 475#C5131D4945000000
(1430319855.047124) can0 306#1C00000000000000
(1430319855.047404) can0 294#00009CFFFA000000
(1430319855.047656) can0 270#E313000000000000
(1430319855.132316) can0 477#07004D7C61001400
(1430319855.146807) can0 475#CF131D4945000000
(1430319855.147122) can0 306#1C00000000000000
(1430319855.147370) can0 294#00009CFFFA000000
(1430319855.147616) can0 270#E313000000000000
(1430319855.229326) can0 477#07004C7C61001400
(1430319855.246758) can0 475#CF131D4945000000
(1430319855.247086) can0 306#1C00000000000000
(1430319855.247336) can0 294#00009CFFFA000000
(1430319855.247589) can0 270#E313000000000000
(1430319855.326239) can0 477#07004D7C61001400
(1430319855.346843) can0 475#D1131D4945000000
(1430319855.347126) can0 306#1D00000000000000
(1430319855.347381) can0 294#00009CFFFA000000
(1430319855.347629) can0 270#E313000000000000
(1430319855.423316) can0 477#07004D7C61001400
(1430319855.447185) can0 475#C3131D4945000000
(1430319855.447481) can0 306#1D00000000000000
(1430319855.447730) can0 294#00009CFFFA000000
(1430319855.447979) can0 270#E313000000000000
(1430319855.520200) can0 477#06004D7C61001400
(1430319855.547227) can0 475#CD131D4945000000
(1430319855.547522) can0 306#1E00000000000000
(1430319855.547810) can0 294#00009CFFFA000000
(1430319855.548063) can0 270#E313000000000000
(1430319855.617160) can0 477#07004D7C61001400
(1430319855.647190) can0 475#C9131D4945000000
(1430319855.647488) can0 306#1D00000000000000
(1430319855.647753) can0 294#00009CFFFA000000
(1430319855.648018) can0 270#E313000000000000
(1430319855.714114) can0 477#07004D7C61001400
(1430319855.747175) can0 475#BD131D4945000000
(1430319855.747470) can0 306#1D00000000000000
(1430319855.747755) can0 294#00009CFFFA000000
(1430319855.748011) can0 270#E313000000000000
(1430319855.811286) can0 477#06004D7C61001400
(1430319855.847134) can0 475#C3131D4945000000
(1430319855.847435) can0 306#1D00000000000000
(1430319855.847695) can0 294#00009CFFFA000000
(1430319855.847947) can0 270#E313000000000000
(1430319855.908074) can0 477#07004D7C61001400
(1430319855.947109) can0 475#CB131D4945000000
(1430319855.947412) can0 306#1D00000000000000
(1430319855.947684) can0 294#00009CFFFA000000
(1430319855.947930) can0 270#E313000000000000
(1430319856.005066) can0 477#06004D7C61001400
(1430319856.047053) can0 475#BD131D4945000000
(1430319856.047381) can0 306#1D00000000000000
(1430319856.047634) can0 294#00009CFFFA000000
(1430319856.047885) can0 270#E313000000000000
(1430319856.109073) can0 477#07004C7C61001400
(1430319856.146982) can0 475#C1131D4945000000
(1430319856.147345) can0 306#1D00000000000000
(1430319856.147599) can0 294#00009CFFFA000000
(1430319856.147853) can0 270#E313000000000000
(1430319856.199004) can0 477#07004D7C61001400
(1430319856.247264) can0 475#CD131D4945000000
(1430319856.247546) can0 306#1C00000000000000
(1430319856.247795) can0 294#00009CFFFA000000
(1430319856.248042) can0 270#E313000000000000
(1430319856.295967) can0 477#06004D7C61001400
(1430319856.346987) can0 475#C3131D4945000000
(1430319856.347272) can0 306#1C00000000000000
(1430319856.347662) can0 294#00009CFFFA000000
(1430319856.347918) can0 270#E313000000000000
(1430319856.392891) can0 477#06004D7C61001400
(1430319856.447190) can0 475#C7131D4945000000
(1430319856.447523) can0 306#1C00000000000000
(1430319856.447789) can0 270#E313000000000000
(1430319856.448005) can0 294#00009CFFFA000000
(1430319856.489903) can0 477#07004D7C61001400
(1430319856.547107) can0 475#CF131D4945000000
(1430319856.547413) can0 306#1B00000000000000
(1430319856.547665) can0 294#00009CFFFA000000
(1430319856.547909) can0 270#E313000000000000
(1430319856.586857) can0 477#07004D7C61001400
(1430319856.647136) can0 475#C1131D4945000000
(1430319856.647445) can0 306#1A00000000000000
(1430319856.647716) can0 294#00009CFFFA000000
(1430319856.647975) can0 270#E313000000000000
(1430319856.683842) can0 477#07004E7C61001400
(1430319856.747031) can0 475#C7131D4945000000
(1430319856.747342) can0 306#1B00000000000000
(1430319856.747639) can0 294#00009CFFFA000000
(1430319856.747900) can0 270#E313000000000000
(1430319856.780801) can0 477#06004D7C61001400
(1430319856.847015) can0 475#C3131D4945000000
(1430319856.847322) can0 306#1C00000000000000
(1430319856.847571) can0 294#00009CFFFA000000
(1430319856.847823) can0 270#E313000000000000
(1430319856.878167) can0 477#07004D7C61001400
(1430319856.947012) can0 475#CD131D4945000000
(1430319856.947302) can0 306#1D00000000000000
(1430319856.947551) can0 294#00009CFFFA000000
(1430319856.947801) can0 270#E313000000000000
(1430319856.975502) can0 477#07004C7C61001400
(1430319857.047006) can0 475#C3131D4945000000
(1430319857.047328) can0 306#1D00000000000000
(1430319857.047589) can0 294#00009CFFFA000000
(1430319857.047840) can0 270#E313000000000000
(1430319857.072273) can0 477#07004E7C61001400
(1430319857.147191) can0 306#1C00000000000000
(1430319857.147539) can0 294#00009CFFFA000000
(1430319857.147809) can0 270#E313000000000000
(1430319857.169219) can0 477#07004D7C61001400
(1430319857.246913) can0 475#DA131D4945000000
(1430319857.247256) can0 306#1C00000000000000
(1430319857.247504) can0 294#00009CFFFA000000
(1430319857.247751) can0 270#E313000000000000
(1430319857.265624) can0 477#06004D7C61001400
(1430319857.346811) can0 475#C7131D4945000000
(1430319857.347270) can0 306#1C00000000000000
(1430319857.347530) can0 270#E313000000000000
(1430319857.347735) can0 294#00009CFFFA000000
(1430319857.362633) can0 477#06004D7C61001400
(1430319857.446858) can0 475#C9131D4945000000
(1430319857.447157) can0 306#1C00000000000000
(1430319857.447422) can0 294#00009CFFFA000000
(1430319857.447683) can0 270#E313000000000000
(1430319857.459598) can0 477#07004D7C61001400
(1430319857.546778) can0 475#C9131D4945000000
(1430319857.547200) can0 306#1C00000000000000
(1430319857.547461) can0 294#00009CFFFA000000
(1430319857.547713) can0 270#E313000000000000
(1430319857.556540) can0 477#07004E7C61001400
(1430319857.646813) can0 475#C5131D4945000000
(1430319857.647099) can0 306#1C00000000000000
(1430319857.647354) can0 294#00009CFFFA000000
(1430319857.647603) can0 270#E313000000000000
(1430319857.653511) can0 477#07004D7C61001400
(1430319857.746843) can0 475#C9131D4945000000
(1430319857.747133) can0 294#00009CFFFA000000
(1430319857.747337) can0 306#1B00000000000000
(1430319857.747582) can0 270#E313000000000000
(1430319857.750607) can0 477#06004D7C61001400
(1430319857.846755) can0 475#CB131D4945000000
(1430319857.847149) can0 306#1C00000000000000
(1430319857.847426) can0 294#00009CFFFA000000
(1430319857.847675) can0 270#E313000000000000
(1430319857.848103) can0 477#06004E7C61001400
(1430319857.944384) can0 477#07004D7C61001400
(1430319857.946953) can0 475#C3131D4945000000
(1430319857.947250) can0 306#1C00000000000000
(1430319857.947498) can0 294#00009CFFFA000000
(1430319857.947742) can0 270#E313000000000000
(1430319858.041392) can0 477#07004C7C61001400
(1430319858.046867) can0 475#C5131D4945000000
(1430319858.047185) can0 306#1C00000000000000
(1430319858.047441) can0 294#00009CFFFA000000
(1430319858.047690) can0 270#E313000000000000
(1430319858.138336) can0 477#07004E7C61001400
(1430319858.146942) can0 475#CB131D4945000000
(1430319858.147215) can0 306#1D00000000000000
(1430319858.147461) can0 294#00009CFFFA000000
(1430319858.147704) can0 270#E313000000000000
(1430319858.235338) can0 477#07004D7C61001400
(1430319858.246875) can0 475#C7131D4945000000
(1430319858.247163) can0 306#1D00000000000000
(1430319858.247415) can0 294#00009CFFFA000000
(1430319858.247662) can0 270#E313000000000000
(1430319858.332321) can0 477#07004D7C61001400
(1430319858.346909) can0 475#C1131D4945000000
(1430319858.347194) can0 294#00009CFFFA000000
(1430319858.347397) can0 306#1D00000000000000
(1430319858.347641) can0 270#E313000000000000
(1430319858.429241) can0 477#07004E7C61001400
(1430319858.446874) can0 475#C3131D4945000000
(1430319858.447176) can0 306#1D00000000000000
(1430319858.447425) can0 294#00009CFFFA000000
(1430319858.447676) can0 270#E313000000000000
(1430319858.526223) can0 477#07004E7C61001400
(1430319858.546989) can0 475#C3131D4945000000
(1430319858.547287) can0 306#1D00000000000000
(1430319858.547538) can0 294#00009CFFFA000000
(1430319858.547783) can0 270#E313000000000000
(1430319858.623188) can0 477#07004D7C61001400
(1430319858.646753) can0 475#C5131D4945000000
(1430319858.647215) can0 306#1D00000000000000
(1430319858.647492) can0 294#00009CFFFA000000
(1430319858.647730) can0 270#E313000000000000
(1430319858.720167) can0 477#06004E7C61001400
(1430319858.747257) can0 475#C7131D4945000000
(1430319858.747552) can0 306#1D00000000000000
(1430319858.747812) can0 294#00009CFFFA000000
(1430319858.748061) can0 270#E313000000000000
(1430319858.817137) can0 477#07004E7C61001400
(1430319858.847130) can0 475#CD131D4945000000
(1430319858.847441) can0 306#1D00000000000000
(1430319858.847692) can0 294#00009CFFFA000000
(1430319858.847936) can0 270#E313000000000000
(1430319858.914125) can0 477#07004D7C61001400
(1430319858.947154) can0 475#C1131D4945000000
(1430319858.947515) can0 306#1E00000000000000
(1430319858.947777) can0 294#00009CFFFA000000
(1430319858.948021) can0 270#E313000000000000
(1430319859.011113) can0 477#07004E7C61001400
(1430319859.047076) can0 475#C3131D4945000000
(1430319859.047393) can0 306#1E00000000000000
(1430319859.047653) can0 294#00009CFFFA000000
(1430319859.047909) can0 270#E313000000000000
(1430319859.108040) can0 477#07004D7C61001400
(1430319859.147001) can0 475#C7131D4945000000
(1430319859.147318) can0 306#1D00000000000000
(1430319859.147570) can0 294#00009CFFFA000000
(1430319859.147818) can0 270#E313000000000000
(1430319859.205035) can0 477#06004E7C61001400
(1430319859.247022) can0 475#CB131D4945000000
(1430319859.247375) can0 306#1E00000000000000
(1430319859.247653) can0 294#00009CFFFA000000
(1430319859.247905) can0 270#E313000000000000
(1430319859.301979) can0 477#06004E7C61001400
(1430319859.347241) can0 475#C3131D4945000000
(1430319859.347526) can0 306#1D00000000000000
(1430319859.347775) can0 294#00009CFFFA000000
(1430319859.348022) can0 270#E313000000000000
(1430319859.398964) can0 477#07004D7C61001400
(1430319859.447018) can0 475#C9131D4945000000
(1430319859.447303) can0 306#1D00000000000000
(1430319859.447663) can0 294#00009CFFFA000000
(1430319859.447938) can0 270#E313000000000000
(1430319859.495893) can0 477#06004E7C61001400
(1430319859.547244) can0 475#CB131D4945000000
(1430319859.547626) can0 306#1D00000000000000
(1430319859.547889) can0 294#00009CFFFA000000
(1430319859.548148) can0 270#E313000000000000
(1430319859.593438) can0 477#06004E7C61001400
(1430319859.647207) can0 475#BF131D4945000000
(1430319859.647525) can0 306#1D00000000000000
(1430319859.647774) can0 294#00009CFFFA000000
(1430319859.648307) can0 270#E313000000000000
(1430319859.690964) can0 477#07004E7C61001400
(1430319859.747003) can0 475#C9131D4945000000
(1430319859.747447) can0 306#1D00000000000000
(1430319859.747713) can0 294#00009CFFFA000000
(1430319859.747963) can0 270#E313000000000000
(1430319859.786919) can0 477#07004E7C61001400
(1430319859.847114) can0 475#C9131D4945000000
(1430319859.847471) can0 306#1D00000000000000
(1430319859.847734) can0 294#00009CFFFA000000
(1430319859.847978) can0 270#E313000000000000
(1430319859.883763) can0 477#07004D7C61001400
(1430319859.947104) can0 475#C7131D4945000000
(1430319859.947384) can0 306#1E00000000000000
(1430319859.947637) can0 294#00009CFFFA000000
(1430319859.947883) can0 270#E313000000000000
(1430319859.981336) can0 477#06004D7C61001400
(1430319860.047081) can0 475#BC131D4945000000
(1430319860.047409) can0 306#1D00000000000000
(1430319860.047661) can0 294#00009CFFFA000000
(1430319860.047906) can0 270#E313000000000000
(1430319860.077736) can0 477#07004D7C61001400
(1430319860.147082) can0 475#C9131D4945000000
(1430319860.147364) can0 306#1D00000000000000
(1430319860.147615) can0 294#00009CFFFA000000
(1430319860.147815) can0 270#E313000000000000
(1430319860.174672) can0 477#06004E7C61001400
(1430319860.247000) can0 475#D6131D4945000000
(1430319860.247334) can0 306#1D00000000000000
(1430319860.247605) can0 270#E313000000000000
(1430319860.247820) can0 294#00009CFFFA000000
(1430319860.272788) can0 477#07004E7C61001400
(1430319860.347074) can0 475#CD131D4945000000
(1430319860.347403) can0 294#00009CFFFA000000
(1430319860.347607) can0 306#1D00000000000000
(1430319860.347862) can0 270#E313000000000000
(1430319860.369620) can0 477#06004D7C61001400
(1430319860.446889) can0 475#C9131D4945000000
(1430319860.447187) can0 306#1D00000000000000
(1430319860.447434) can0 294#00009CFFFA000000
(1430319860.447680) can0 270#E313000000000000
(1430319860.465591) can0 477#07004E7C61001400
(1430319860.546934) can0 475#CD131D4945000000
(1430319860.547243) can0 306#1D00000000000000
(1430319860.547532) can0 294#00009CFFFA000000
(1430319860.547794) can0 270#E313000000000000
(1430319860.562566) can0 477#07004E7C61001400
(1430319860.646831) can0 475#C7131D4945000000
(1430319860.647138) can0 306#1D00000000000000
(1430319860.647393) can0 294#00009CFFFA000000
(1430319860.647648) can0 270#E313000000000000
(1430319860.659559) can0 477#06004C7C61001400
(1430319860.746865) can0 475#C3131D4945000000
(1430319860.747222) can0 306#1D00000000000000
(1430319860.747476) can0 294#00009CFFFA000000
(1430319860.747725) can0 270#E313000000000000
(1430319860.756543) can0 477#07004E7C61001400
(1430319860.846845) can0 475#BC131D4945000000
(1430319860.847183) can0 306#1C00000000000000
(1430319860.847435) can0 294#00009CFFFA000000
(1430319860.847681) can0 270#E313000000000000
(1430319860.853509) can0 477#07004D7C61001400
(1430319860.947035) can0 475#C1131D4945000000
(1430319860.947337) can0 306#1C00000000000000
(1430319860.947584) can0 294#00009CFFFA000000
(1430319860.947785) can0 270#E313000000000000
(1430319860.950441) can0 477#07004D7C61001400
(1430319861.046761) can0 475#C7131D4945000000
(1430319861.047188) can0 306#1C00000000000000
(1430319861.047444) can0 294#00009CFFFA000000
(1430319861.047695) can0 270#E313000000000000
(1430319861.048083) can0 477#07004D7C61001400
(1430319861.144455) can0 477#07004D7C61001400
(1430319861.146921) can0 475#CB131D4945000000
(1430319861.147239) can0 306#1C00000000000000
(1430319861.147489) can0 294#00009CFFFA000000
(1430319861.147744) can0 270#E313000000000000
(1430319861.241375) can0 477#07004E7C61001400
(1430319861.246932) can0 475#BC131D4945000000
(1430319861.247221) can0 306#1C00000000000000
(1430319861.247472) can0 294#00009CFFFA000000
(1430319861.247725) can0 270#E313000000000000
(1430319861.338272) can0 477#07004D7C61001400
(1430319861.346881) can0 475#CB131D4945000000
(1430319861.347210) can0 306#1D00000000000000
(1430319861.347560) can0 294#00009CFFFA000000
(1430319861.347848) can0 270#E313000000000000
(1430319861.435292) can0 477#07004E7C61001400
(1430319861.446877) can0 475#BA131D4945000000
(1430319861.447433) can0 306#1C00000000000000
(1430319861.447673) can0 294#00009CFFFA000000
(1430319861.447924) can0 270#E313000000000000
(1430319861.532278) can0 477#07004E7C61001400
(1430319861.546885) can0 475#BF131D4945000000
(1430319861.547260) can0 294#00009CFFFA000000
(1430319861.547476) can0 306#1C00000000000000
(1430319861.547729) can0 270#E313000000000000
(1430319861.629403) can0 477#07004E7C61001400
(1430319861.646847) can0 475#C3131D4945000000
(1430319861.647239) can0 306#1C00000000000000
(1430319861.647491) can0 294#00009CFFFA000000
(1430319861.647736) can0 270#E313000000000000
(1430319861.726217) can0 477#07004E7C61001400
(1430319861.747050) can0 475#CB131D4945000000
(1430319861.747349) can0 306#1D00000000000000
(1430319861.747602) can0 294#00009CFFFA000000
(1430319861.747853) can0 270#E313000000000000
(1430319861.823146) can0 477#07004D7C61001400
(1430319861.846792) can0 475#C7131D4945000000
(1430319861.847191) can0 306#1D00000000000000
(1430319861.847443) can0 294#00009CFFFA000000
(1430319861.847690) can0 270#E313000000000000
(1430319861.920131) can0 477#07004E7C61001400
(1430319861.947187) can0 475#BD131D4945000000
(1430319861.947508) can0 306#1C00000000000000
(1430319861.947756) can0 294#00009CFFFA000000
(1430319861.948001) can0 270#E313000000000000
(1430319862.017098) can0 477#07004E7C61001400
(1430319862.047164) can0 475#C3131D4945000000
(1430319862.047482) can0 306#1D00000000000000
(1430319862.047735) can0 294#00009CFFFA000000
(1430319862.047982) can0 270#E313000000000000
(1430319862.114095) can0 477#07004D7C61001400
(1430319862.147090) can0 475#C9131D4945000000
(1430319862.147406) can0 306#1D00000000000000
(1430319862.147657) can0 294#00009CFFFA000000
(1430319862.147904) can0 270#E313000000000000
(1430319862.211119) can0 477#07004D7C61001400
(1430319862.247120) can0 475#CD131D4945000000
(1430319862.247418) can0 306#1D00000000000000
(1430319862.247671) can0 294#00009CFFFA000000
(1430319862.247913) can0 270#E313000000000000
(1430319862.308026) can0 477#07004E7C61001400
(1430319862.347004) can0 475#C7131D4945000000
(1430319862.347382) can0 306#1D00000000000000
(1430319862.347636) can0 294#00009CFFFA000000
(1430319862.347883) can0 270#E313000000000000
(1430319862.405010) can0 477#07004E7C61001400
(1430319862.447072) can0 475#D1131D4945000000
(1430319862.447343) can0 306#1D00000000000000
(1430319862.447740) can0 294#00009CFFFA000000
(1430319862.447996) can0 270#E313000000000000
(1430319862.501939) can0 477#07004E7C61001400
(1430319862.547123) can0 475#CB131D4945000000
(1430319862.547411) can0 306#1D00000000000000
(1430319862.547800) can0 294#00009CFFFA000000
(1430319862.548188) can0 270#E313000000000000
(1430319862.598957) can0 477#07004D7C61001400
(1430319862.647280) can0 475#C7131D4945000000
(1430319862.647598) can0 306#1D00000000000000
(1430319862.647883) can0 294#00009CFFFA000000
(1430319862.648139) can0 270#E313000000000000
(1430319862.695870) can0 477#07004D7C61001400
(1430319862.747190) can0 475#C7131D4945000000
(1430319862.747499) can0 306#1D00000000000000
(1430319862.747748) can0 294#00009CFFFA000000
(1430319862.747993) can0 270#E313000000000000
(1430319862.792848) can0 477#07004D7C61001400
(1430319862.846950) can0 475#CB131D4945000000
(1430319862.847348) can0 306#1D00000000000000
(1430319862.847611) can0 294#00009CFFFA000000
(1430319862.847887) can0 270#E313000000000000
(1430319862.889810) can0 477#07004E7C61001400
(1430319862.946947) can0 475#CF131D4945000000
(1430319862.947429) can0 306#1D00000000000000
(1430319862.947688) can0 294#00009CFFFA000000
(1430319862.947934) can0 270#E313000000000000
(1430319862.986797) can0 477#07004E7C61001400
(1430319863.047126) can0 475#CB131D4945000000
(1430319863.047447) can0 306#1E00000000000000
(1430319863.047712) can0 294#00009CFFFA000000
(1430319863.047963) can0 270#E313000000000000
(1430319863.084200) can0 477#07004D7C61001400
(1430319863.147079) can0 475#C9131D4945000000
(1430319863.147420) can0 294#00009CFFFA000000
(1430319863.147630) can0 306#1E00000000000000
(1430319863.147884) can0 270#E313000000000000
(1430319863.180765) can0 477#07004D7C61001400
(1430319863.246841) can0 475#C7131D4945000000
(1430319863.247282) can0 306#1E00000000000000
(1430319863.247541) can0 294#00009CFFFA000000
(1430319863.247786) can0 270#E313000000000000
(1430319863.277672) can0 477#07004E7C61001400
(1430319863.374790) can0 477#07004E7C61001400
(1430319863.446974) can0 475#D1131D4945000000
(1430319863.447316) can0 306#1E00000000000000
(1430319863.447563) can0 294#00009CFFFA000000
(1430319863.447819) can0 270#E313000000000000
(1430319863.471676) can0 477#07004D7C61001400
(1430319863.546948) can0 475#C5131D4945000000
(1430319863.547317) can0 294#00009CFFFA000000
(1430319863.547524) can0 306#1E00000000000000
(1430319863.547782) can0 270#E313000000000000
(1430319863.569186) can0 477#07004E7C61001400
(1430319863.646963) can0 475#CB131D4945000000
(1430319863.647283) can0 306#1F00000000000000
(1430319863.647544) can0 294#00009CFFFA000000
(1430319863.647794) can0 270#E313000000000000
(1430319863.666852) can0 477#07004E7C61001400
(1430319863.746895) can0 475#BF131D4945000000
(1430319863.747282) can0 306#1F00000000000000
(1430319863.747538) can0 294#00009CFFFA000000
(1430319863.747783) can0 270#E313000000000000
(1430319863.762556) can0 477#07004E7C61001400
(1430319863.846669) can0 475#BF131D4945000000
(1430319863.847096) can0 306#1F00000000000000
(1430319863.847354) can0 294#00009CFFFA000000
(1430319863.847598) can0 270#E313000000000000
(1430319863.859537) can0 477#07004D7C61001400
(1430319863.946859) can0 475#C3131D4945000000
(1430319863.947226) can0 306#1F00000000000000
(1430319863.947480) can0 294#00009CFFFA000000
(1430319863.947734) can0 270#E313000000000000
(1430319863.956468) can0 477#07004D7C61001400
(1430319864.046979) can0 475#C3131D4945000000
(1430319864.047303) can0 306#1F00000000000000
(1430319864.047555) can0 294#00009CFFFA000000
(1430319864.047802) can0 270#E313000000000000
(1430319864.053501) can0 477#07004E7C61001400
(1430319864.146818) can0 475#CD131D4945000000
(1430319864.147276) can0 306#1F00000000000000
(1430319864.147533) can0 294#00009CFFFA000000
(1430319864.147777) can0 270#E313000000000000
(1430319864.150467) can0 477#07004E7C61001400
(1430319864.247024) can0 475#C3131D4945000000
(1430319864.247339) can0 306#1E00000000000000
(1430319864.247596) can0 294#00009CFFFA000000
(1430319864.247849) can0 477#07004D7C61001400
(1430319864.248096) can0 270#E313000000000000
(1430319864.344350) can0 477#07004E7C61001400
(1430319864.346932) can0 475#CB131D4945000000
(1430319864.347284) can0 306#1F00000000000000
(1430319864.347546) can0 294#00009CFFFA000000
(1430319864.347798) can0 270#E313000000000000
(1430319864.441338) can0 477#07004E7C61001400
(1430319864.446843) can0 475#C5131D4945000000
(1430319864.447141) can0 306#1E00000000000000
(1430319864.447403) can0 294#00009CFFFA000000
(1430319864.447675) can0 270#E313000000000000
(1430319864.538279) can0 477#07004D7C61001400
(1430319864.546883) can0 475#C5131D4945000000
(1430319864.547211) can0 306#1E00000000000000
(1430319864.547518) can0 270#E313000000000000
(1430319864.547723) can0 294#00009CFFFA000000
(1430319864.635348) can0 477#07004E7C61001400
(1430319864.646835) can0 475#CF131D4945000000
(1430319864.647128) can0 306#1D00000000000000
(1430319864.647380) can0 294#00009CFFFA000000
(1430319864.647623) can0 270#E313000000000000
(1430319864.732231) can0 477#07004E7C61001400
(1430319864.746792) can0 475#C9131D4945000000
(1430319864.747320) can0 306#1D00000000000000
(1430319864.747587) can0 294#00009CFFFA000000
(1430319864.747831) can0 270#E313000000000000
(1430319864.829204) can0 477#07004E7C61001400
(1430319864.846776) can0 475#C3131D4945000000
(1430319864.847248) can0 306#1D00000000000000
(1430319864.847559) can0 294#00009CFFFA000000
(1430319864.847806) can0 270#E313000000000000
(1430319864.926187) can0 477#07004E7C61001400
(1430319864.947316) can0 475#D1131D4945000000
(1430319864.947619) can0 306#1D00000000000000
(1430319864.947877) can0 294#00009CFFFA000000
(1430319864.948129) can0 270#E313000000000000
(1430319865.023172) can0 477#07004D7C61001400
(1430319865.047279) can0 475#D1131D4945000000
(1430319865.047597) can0 306#1D00000000000000
(1430319865.048125) can0 270#E313000000000000
(1430319865.048359) can0 294#00009CFFFA000000
(1430319865.120104) can0 477#07004E7C61001400
(1430319865.147262) can0 475#D2131D4945000000
(1430319865.147593) can0 306#1D00000000000000
(1430319865.147840) can0 294#00009CFFFA000000
(1430319865.148083) can0 270#E313000000000000
(1430319865.217107) can0 477#07004E7C61001400
(1430319865.247122) can0 475#BF131D4945000000
(1430319865.247415) can0 306#1C00000000000000
(1430319865.247666) can0 294#00009CFFFA000000
(1430319865.247917) can0 270#E313000000000000
(1430319865.314084) can0 477#07004D7C61001400
(1430319865.347093) can0 475#C9131D4945000000
(1430319865.347474) can0 306#1C00000000000000
(1430319865.347731) can0 270#E313000000000000
(1430319865.347930) can0 294#00009CFFFA000000
(1430319865.419020) can0 477#07004F7C61001400
(1430319865.447127) can0 475#CD131D4945000000
(1430319865.447483) can0 306#1B00000000000000
(1430319865.447734) can0 294#00009CFFFA000000
(1430319865.447987) can0 270#E313000000000000
(1430319865.508176) can0 477#07004E7C61001400
(1430319865.547321) can0 475#C9131D4945000000
(1430319865.547642) can0 306#1B00000000000000
(1430319865.547890) can0 294#00009CFFFA000000
(1430319865.548134) can0 270#E313000000000000
(1430319865.604962) can0 477#07004E7C61001400
(1430319865.647074) can0 475#C3131D4945000000
(1430319865.647425) can0 306#1C00000000000000
(1430319865.647684) can0 294#00009CFFFA000000
(1430319865.647929) can0 270#E313000000000000
(1430319865.701916) can0 477#07004F7C61001400
(1430319865.747281) can0 475#C1131D4945000000
(1430319865.747605) can0 306#1B00000000000000
(1430319865.747856) can0 294#00009CFFFA000000
(1430319865.748055) can0 270#E313000000000000
(1430319865.798908) can0 477#07004F7C61001400
(1430319865.847276) can0 475#BD131D4945000000
(1430319865.847668) can0 306#1B00000000000000
(1430319865.847934) can0 294#00009CFFFA000000
(1430319865.848186) can0 270#E313000000000000
(1430319865.895886) can0 477#07004E7C61001400
(1430319865.947224) can0 475#C3131D4945000000
(1430319865.947625) can0 306#1B00000000000000
(1430319865.948021) can0 294#00009CFFFA000000
(1430319865.948226) can0 270#E313000000000000
(1430319865.992854) can0 477#07004E7C61001400
(1430319866.047211) can0 475#C7131D4945000000
(1430319866.047546) can0 306#1B00000000000000
(1430319866.047792) can0 294#00009CFFFA000000
(1430319866.048030) can0 270#E313000000000000
(1430319866.089860) can0 477#07004E7C61001400
(1430319866.147171) can0 475#CD131D4945000000
(1430319866.147622) can0 306#1B00000000000000
(1430319866.147867) can0 294#00009CFFFA000000
(1430319866.148112) can0 270#E313000000000000
(1430319866.186763) can0 477#07004E7C61001400
(1430319866.247096) can0 475#CD131D4945000000
(1430319866.247396) can0 306#1C00000000000000
(1430319866.247638) can0 294#00009CFFFA000000
(1430319866.247880) can0 270#E313000000000000
(1430319866.284748) can0 477#07004E7C61001400
(1430319866.347076) can0 475#C3131D4945000000
(1430319866.347459) can0 306#1C00000000000000
(1430319866.347675) can0 294#00009CFFFA000000
(1430319866.347921) can0 270#E313000000000000
(1430319866.380697) can0 477#07004E7C61001400
(1430319866.477771) can0 477#07004E7C61001400
(1430319866.546977) can0 475#C3131D4945000000
(1430319866.547351) can0 306#1D00000000000000
(1430319866.547652) can0 270#E313000000000000
(1430319866.547853) can0 294#00009CFFFA000000
(1430319866.574676) can0 477#07004E7C61001400
(1430319866.647032) can0 475#C7131D4945000000
(1430319866.647445) can0 306#1D00000000000000
(1430319866.647699) can0 294#00009CFFFA000000
(1430319866.647945) can0 270#E313000000000000
(1430319866.672807) can0 477#06004E7C61001400
(1430319866.746975) can0 475#C9131D4945000000
(1430319866.747274) can0 306#1D00000000000000
(1430319866.747629) can0 294#00009CFFFA000000
(1430319866.747916) can0 270#E313000000000000
(1430319866.768579) can0 477#07004E7C61001400
(1430319866.846975) can0 475#CF131D4945000000
(1430319866.847373) can0 306#1C00000000000000
(1430319866.847623) can0 294#00009CFFFA000000
(1430319866.847867) can0 270#E313000000000000
(1430319866.866741) can0 477#06004E7C61001400
(1430319866.946918) can0 475#BD131D4945000000
(1430319866.947252) can0 306#1C00000000000000
(1430319866.947630) can0 294#00009CFFFA000000
(1430319866.947989) can0 270#E313000000000000
(1430319866.962503) can0 477#07004F7C61001400
(1430319867.046893) can0 475#C3131D4945000000
(1430319867.047212) can0 306#1C00000000000000
(1430319867.047475) can0 294#00009CFFFA000000
(1430319867.047759) can0 270#E313000000000000
(1430319867.059612) can0 477#07004E7C61001400
(1430319867.146865) can0 475#CB131D4945000000
(1430319867.147184) can0 306#1C00000000000000
(1430319867.147508) can0 294#00009CFFFA000000
(1430319867.147768) can0 270#E313000000000000
(1430319867.156462) can0 477#06004F7C61001400
(1430319867.246827) can0 475#CD131D4945000000
(1430319867.247112) can0 306#1D00000000000000
(1430319867.247497) can0 294#00009CFFFA000000
(1430319867.247748) can0 270#E313000000000000
(1430319867.253439) can0 477#07004E7C61001400
(1430319867.347032) can0 475#CF131D4945000000
(1430319867.347328) can0 306#1D00000000000000
(1430319867.347675) can0 294#00009CFFFA000000
(1430319867.347910) can0 270#E313000000000000
(1430319867.350428) can0 477#07004F7C61001400
(1430319867.447014) can0 475#CF131D4945000000
(1430319867.447306) can0 306#1D00000000000000
(1430319867.447759) can0 294#00009CFFFA000000
(1430319867.448029) can0 270#E313000000000000
(1430319867.448479) can0 477#06004E7C61001400
(1430319867.544358) can0 477#07004E7C61001400
(1430319867.546918) can0 475#C7131D4945000000
(1430319867.547329) can0 306#1D00000000000000
(1430319867.547680) can0 294#00009CFFFA000000
(1430319867.547935) can0 270#E313000000000000
(1430319867.641363) can0 477#07004F7C61001400
(1430319867.646946) can0 475#C9131D4945000000
(1430319867.647223) can0 306#1E00000000000000
(1430319867.647472) can0 294#00009CFFFA000000
(1430319867.647726) can0 270#E313000000000000
(1430319867.738268) can0 477#07004E7C61001400
(1430319867.746863) can0 475#CF131D4945000000
(1430319867.747320) can0 306#1E00000000000000
(1430319867.747665) can0 294#00009CFFFA000000
(1430319867.747914) can0 270#E313000000000000
(1430319867.835266) can0 477#07004F7C61001400
(1430319867.846883) can0 475#D1131D4945000000
(1430319867.847178) can0 306#1E00000000000000
(1430319867.847440) can0 294#00009CFFFA000000
(1430319867.847696) can0 270#E313000000000000
(1430319867.932256) can0 477#07004F7C61001400
(1430319867.947056) can0 475#BA131D4945000000
(1430319867.947342) can0 306#1E00000000000000
(1430319867.947683) can0 294#00009CFFFA000000
(1430319867.947937) can0 270#E313000000000000
(1430319868.029205) can0 477#07004E7C61001400
(1430319868.047212) can0 475#C5131D4945000000
(1430319868.047537) can0 306#1E00000000000000
(1430319868.047786) can0 294#00009CFFFA000000
(1430319868.048028) can0 270#E313000000000000
(1430319868.126153) can0 477#07004E7C61001400
(1430319868.147233) can0 475#CD131D4945000000
(1430319868.147634) can0 306#1F00000000000000
(1430319868.147895) can0 294#00009CFFFA000000
(1430319868.148139) can0 270#E313000000000000
(1430319868.223107) can0 477#0700507C61001400
(1430319868.247246) can0 475#CF131D4945000000
(1430319868.247543) can0 306#1F00000000000000
(1430319868.247841) can0 294#00009CFFFA000000
(1430319868.248094) can0 270#E313000000000000
(1430319868.320140) can0 477#07004E7C61001400
(1430319868.347197) can0 475#CD131D4945000000
(1430319868.347525) can0 306#1F00000000000000
(1430319868.347824) can0 294#00009CFFFA000000
(1430319868.348082) can0 270#E313000000000000
(1430319868.417054) can0 477#0700507C61001400
(1430319868.447134) can0 475#CB131D4945000000
(1430319868.447460) can0 306#1F00000000000000
(1430319868.447710) can0 294#00009CFFFA000000
(1430319868.447970) can0 270#E313000000000000
(1430319868.519074) can0 477#07004F7C61001400
(1430319868.547056) can0 475#CF131D4945000000
(1430319868.547414) can0 306#1F00000000000000
(1430319868.547784) can0 270#E313000000000000
(1430319868.547993) can0 294#00009CFFFA000000
(1430319868.611076) can0 477#07004F7C61001400
(1430319868.647132) can0 475#C1131D4945000000
(1430319868.647447) can0 306#1F00000000000000
(1430319868.647745) can0 294#00009CFFFA000000
(1430319868.648975) can0 270#E313000000000000
(1430319868.708000) can0 477#07004F7C61001400
(1430319868.747132) can0 475#D1131D4945000000
(1430319868.747564) can0 306#2000000000000000
(1430319868.747864) can0 294#00009CFFFA000000
(1430319868.748214) can0 270#E313000000000000
(1430319868.804917) can0 477#07004F7C61001400
(1430319868.847041) can0 475#CD131D4945000000
(1430319868.847351) can0 306#2000000000000000
(1430319868.847714) can0 294#00009CFFFA000000
(1430319868.847990) can0 270#E313000000000000
(1430319868.901936) can0 477#07004E7C61001400
(1430319868.947282) can0 475#BC131D4945000000
(1430319868.947751) can0 306#1F00000000000000
(1430319868.948003) can0 294#00009CFFFA000000
(1430319868.948251) can0 270#E313000000000000
(1430319868.998874) can0 477#07004F7C61001400
(1430319869.047245) can0 475#CD131D4945000000
(1430319869.047562) can0 306#1F00000000000000
(1430319869.047809) can0 294#00009CFFFA000000
(1430319869.048052) can0 270#E313000000000000
(1430319869.095834) can0 477#07004F7C61001400
(1430319869.147238) can0 475#C1131D4945000000
(1430319869.147589) can0 306#1F00000000000000
(1430319869.147896) can0 294#00009CFFFA000000
(1430319869.148193) can0 270#E313000000000000
(1430319869.192820) can0 477#07004F7C61001400
(1430319869.247207) can0 475#C1131D4945000000
(1430319869.247524) can0 306#1F00000000000000
(1430319869.247772) can0 294#00009CFFFA000000
(1430319869.248027) can0 270#E313000000000000
(1430319869.289811) can0 477#0700507C61001400
(1430319869.346976) can0 475#C1131D4945000000
(1430319869.347401) can0 306#1F00000000000000
(1430319869.347729) can0 294#00009CFFFA000000
(1430319869.348092) can0 270#E313000000000000
(1430319869.386924) can0 477#07004F7C61001400
(1430319869.447090) can0 475#D2131D4945000000
(1430319869.447404) can0 306#1F00000000000000
(1430319869.447652) can0 294#00009CFFFA000000
(1430319869.447901) can0 270#E313000000000000
(1430319869.483933) can0 477#07004F7C61001400
(1430319869.546831) can0 475#C1131D4945000000
(1430319869.558987) can0 306#1E00000000000000
(1430319869.580781) can0 477#07004E7C61001400
(1430319869.647002) can0 475#C5131D4945000000
(1430319869.647349) can0 306#1E00000000000000
(1430319869.647601) can0 294#00009CFFFA000000
(1430319869.647854) can0 270#E313000000000000
(1430319869.677967) can0 477#0700507C61001400
(1430319869.747057) can0 475#CD131D4945000000
(1430319869.747347) can0 306#1D00000000000000
(1430319869.747636) can0 294#00009CFFFA000000
(1430319869.748041) can0 270#E313000000000000
(1430319869.774938) can0 477#07004F7C61001400
(1430319869.846999) can0 475#D4131D4945000000
(1430319869.847307) can0 306#1D00000000000000
(1430319869.847591) can0 294#00009CFFFA000000
(1430319869.847840) can0 270#E313000000000000
(1430319869.871596) can0 477#07004D7C61001400
(1430319869.946990) can0 475#D1131D4945000000
(1430319869.947312) can0 306#1D00000000000000
(1430319869.947576) can0 294#00009CFFFA000000
(1430319869.948019) can0 270#E313000000000000
(1430319869.969883) can0 477#07004E7C61001400
(1430319870.046904) can0 475#C9131D4945000000
(1430319870.047243) can0 306#1D00000000000000
(1430319870.047496) can0 294#00009CFFFA000000
(1430319870.047749) can0 270#E313000000000000
(1430319870.066576) can0 477#07004E7C61001400
(1430319870.146880) can0 475#CB131D4945000000
(1430319870.147180) can0 306#1D00000000000000
(1430319870.147437) can0 294#00009CFFFA000000
(1430319870.147727) can0 270#E313000000000000
(1430319870.162497) can0 477#07004E7C61001400
(1430319870.246918) can0 475#C1131D4945000000
(1430319870.247221) can0 306#1D00000000000000
(1430319870.247468) can0 294#00009CFFFA000000
(1430319870.247714) can0 270#E313000000000000
(1430319870.259457) can0 477#07004E7C61001400
(1430319870.346878) can0 475#C7131D4945000000
(1430319870.347197) can0 306#1D00000000000000
(1430319870.347445) can0 294#00009CFFFA000000
(1430319870.347726) can0 270#E313000000000000
(1430319870.356482) can0 477#07004F7C61001400
(1430319870.447062) can0 475#C7131D4945000000
(1430319870.447431) can0 306#1C00000000000000
(1430319870.447746) can0 294#00009CFFFA000000
(1430319870.448018) can0 270#E313000000000000
(1430319870.453412) can0 477#0700507C61001400
(1430319870.547062) can0 475#CD131D4945000000
(1430319870.547352) can0 306#1C00000000000000
(1430319870.547605) can0 294#00009CFFFA000000
(1430319870.547945) can0 270#E313000000000000
(1430319870.550398) can0 477#06004F7C61001400
(1430319870.647002) can0 475#C7131D4945000000
(1430319870.647343) can0 477#06004F7C61001400
(1430319870.647621) can0 306#1C00000000000000
(1430319870.647870) can0 294#00009CFFFA000000
(1430319870.648117) can0 270#E313000000000000
(1430319870.744334) can0 477#06004F7C61001400
(1430319870.747018) can0 475#BC131D4945000000
(1430319870.747398) can0 306#1C00000000000000
(1430319870.747734) can0 294#00009CFFFA000000
(1430319870.748031) can0 270#E313000000000000
(1430319870.841336) can0 477#07004F7C61001400
(1430319870.846984) can0 475#C3131D4945000000
(1430319870.847357) can0 306#1C00000000000000
(1430319870.847646) can0 294#00009CFFFA000000
(1430319870.847911) can0 270#E313000000000000
(1430319870.938252) can0 477#0700507C61001400
(1430319870.946914) can0 475#CB131D4945000000
(1430319870.947343) can0 306#1C00000000000000
(1430319870.947657) can0 294#00009CFFFA000000
(1430319870.948146) can0 270#E313000000000000
(1430319871.035240) can0 477#07004E7C61001400
(1430319871.046916) can0 475#C3131D4945000000
(1430319871.047298) can0 306#1C00000000000000
(1430319871.047584) can0 294#00009CFFFA000000
(1430319871.047856) can0 270#E313000000000000
(1430319871.132241) can0 477#06004F7C61001400
(1430319871.147283) can0 475#CF131D4945000000
(1430319871.147588) can0 306#1C00000000000000
(1430319871.147923) can0 294#00009CFFFA000000
(1430319871.148182) can0 270#E313000000000000
(1430319871.229181) can0 477#07004F7C61001400
(1430319871.247570) can0 475#C5131D4945000000
(1430319871.247937) can0 306#1C00000000000000
(1430319871.248154) can0 294#00009CFFFA000000
(1430319871.248408) can0 270#E313000000000000
(1430319871.326301) can0 477#07004F7C61001400
(1430319871.347477) can0 475#CB131D4945000000
(1430319871.347791) can0 306#1C00000000000000
(1430319871.348093) can0 294#00009CFFFA000000
(1430319871.348345) can0 270#E313000000000000
(1430319871.423126) can0 477#0700507C61001400
(1430319871.447439) can0 475#CD131D4945000000
(1430319871.447753) can0 306#1C00000000000000
(1430319871.448007) can0 294#00009CFFFA000000
(1430319871.448261) can0 270#E313000000000000
(1430319871.520109) can0 477#0700507C61001400
(1430319871.547467) can0 475#C9131D4945000000
(1430319871.547787) can0 306#1D00000000000000
(1430319871.548093) can0 294#00009CFFFA000000
(1430319871.548301) can0 270#E313000000000000
(1430319871.628353) can0 477#07004F7C61001400
(1430319871.647142) can0 475#C7131D4945000000
(1430319871.647525) can0 306#1C00000000000000
(1430319871.647800) can0 294#00009CFFFA000000
(1430319871.648064) can0 270#E313000000000000
(1430319871.714033) can0 477#06004F7C61001400
(1430319871.747199) can0 475#C7131D4945000000
(1430319871.747625) can0 306#1D00000000000000
(1430319871.747942) can0 294#00009CFFFA000000
(1430319871.748303) can0 270#E313000000000000
(1430319871.810983) can0 477#07004F7C61001400
(1430319871.847148) can0 475#BF131D4945000000
(1430319871.847451) can0 306#1D00000000000000
(1430319871.847807) can0 294#00009CFFFA000000
(1430319871.848054) can0 270#E313000000000000
(1430319871.908050) can0 477#07004F7C61001400
(1430319871.947074) can0 475#C3131D4945000000
(1430319871.947529) can0 306#1D00000000000000
(1430319871.947823) can0 294#00009CFFFA000000
(1430319871.948277) can0 270#E313000000000000
(1430319872.004952) can0 477#07004F7C61001400
(1430319872.047346) can0 475#C7131D4945000000
(1430319872.047657) can0 306#1E00000000000000
(1430319872.047915) can0 294#00009CFFFA000000
(1430319872.048181) can0 270#E313000000000000
(1430319872.101899) can0 477#07004F7C61001400
(1430319872.147233) can0 475#CF131D4945000000
(1430319872.147593) can0 306#1E00000000000000
(1430319872.147894) can0 294#00009CFFFA000000
(1430319872.148202) can0 270#E313000000000000
(1430319872.198848) can0 477#07004F7C61001400
(1430319872.247221) can0 475#C5131D4945000000
(1430319872.247559) can0 306#1E00000000000000
(1430319872.248117) can0 294#00009CFFFA000000
(1430319872.248350) can0 270#E313000000000000
(1430319872.295828) can0 477#06004F7C61001400
(1430319872.347470) can0 475#C1131D4945000000
(1430319872.347770) can0 306#1E00000000000000
(1430319872.348115) can0 294#00009CFFFA000000
(1430319872.348328) can0 270#E313000000000000
(1430319872.392806) can0 477#07004F7C61001400
(1430319872.447169) can0 475#C5131D4945000000
(1430319872.447481) can0 306#1E00000000000000
(1430319872.447736) can0 294#00009CFFFA000000
(1430319872.447984) can0 270#E313000000000000
(1430319872.489792) can0 477#07004F7C61001400
(1430319872.547128) can0 475#CD131D4945000000
(1430319872.547441) can0 306#1F00000000000000
(1430319872.547690) can0 294#00009CFFFA000000
(1430319872.548011) can0 270#E313000000000000
(1430319872.586714) can0 477#0600507C61001400
(1430319872.647128) can0 475#C3131D4945000000
(1430319872.647499) can0 306#1F00000000000000
(1430319872.647777) can0 294#00009CFFFA000000
(1430319872.648050) can0 270#E313000000000000
(1430319872.683782) can0 477#0700507C61001400
(1430319872.747023) can0 475#C1131D4945000000
(1430319872.747365) can0 306#1E00000000000000
(1430319872.747616) can0 294#00009CFFFA000000
(1430319872.747899) can0 270#E313000000000000
(1430319872.780652) can0 477#07004F7C61001400
(1430319872.847042) can0 475#CB131D4945000000
(1430319872.847362) can0 306#1F00000000000000
(1430319872.847619) can0 294#00009CFFFA000000
(1430319872.847872) can0 270#E313000000000000
(1430319872.877661) can0 477#0700507C61001400
(1430319872.947053) can0 475#CB131D4945000000
(1430319872.947356) can0 306#1F00000000000000
(1430319872.947620) can0 294#00009CFFFA000000
(1430319872.947901) can0 270#E313000000000000
(1430319872.974626) can0 477#06004F7C61001400
(1430319873.046942) can0 475#CD131D4945000000
(1430319873.047275) can0 306#2000000000000000
(1430319873.047530) can0 294#00009CFFFA000000
(1430319873.047779) can0 270#E313000000000000
(1430319873.072149) can0 477#07004F7C61001400
(1430319873.146993) can0 475#D1131D4945000000
(1430319873.147277) can0 306#2000000000000000
(1430319873.147682) can0 294#00009CFFFA000000
(1430319873.147972) can0 270#E313000000000000
(1430319873.169858) can0 477#07004F7C61001400
(1430319873.246952) can0 475#D1131D4945000000
(1430319873.247259) can0 306#2000000000000000
(1430319873.247529) can0 294#00009CFFFA000000
(1430319873.247777) can0 270#E313000000000000
(1430319873.265691) can0 477#07004F7C61001400
(1430319873.346822) can0 475#DA131D4945000000
(1430319873.347165) can0 306#2100000000000000
(1430319873.347440) can0 294#00009CFFFA000000
(1430319873.347688) can0 270#E313000000000000
(1430319873.362517) can0 477#0600507C61001400
(1430319873.446885) can0 475#CD131D4945000000
(1430319873.447276) can0 306#2100000000000000
(1430319873.447574) can0 294#00009CFFFA000000
(1430319873.447830) can0 270#E313000000000000
(1430319873.459476) can0 477#07004F7C61001400
(1430319873.547074) can0 475#C3131D4945000000
(1430319873.547364) can0 306#2100000000000000
(1430319873.547613) can0 294#00009CFFFA000000
(1430319873.547855) can0 270#E313000000000000
(1430319873.556430) can0 477#0700507C61001400
(1430319873.647045) can0 475#C9131D4945000000
(1430319873.647357) can0 306#2000000000000000
(1430319873.647613) can0 294#00009CFFFA000000
(1430319873.647864) can0 270#E313000000000000
(1430319873.653415) can0 477#07004F7C61001400
(1430319873.747013) can0 475#C1131D4945000000
(1430319873.747337) can0 306#2000000000000000
(1430319873.747616) can0 294#00009CFFFA000000
(1430319873.747872) can0 270#E313000000000000
(1430319873.750349) can0 477#07004F7C61001400
(1430319873.847005) can0 475#C7131D4945000000
(1430319873.847298) can0 306#2000000000000000
(1430319873.847549) can0 294#00009CFFFA000000
(1430319873.847794) can0 270#E313000000000000
(1430319873.848233) can0 477#07004F7C61001400
(1430319873.944319) can0 477#0700507C61001400
(1430319873.946943) can0 475#BF131D4945000000
(1430319873.947226) can0 306#1F00000000000000
(1430319873.947473) can0 294#00009CFFFA000000
(1430319873.947724) can0 270#E313000000000000
(1430319874.041282) can0 477#0600507C61001400
(1430319874.046937) can0 475#CB131D4945000000
(1430319874.047230) can0 306#1E00000000000000
(1430319874.047502) can0 294#00009CFFFA000000
(1430319874.047756) can0 270#E313000000000000
(1430319874.138254) can0 477#07004F7C61001400
(1430319874.147290) can0 475#C7131D4945000000
(1430319874.147605) can0 306#1F00000000000000
(1430319874.147875) can0 294#00009CFFFA000000
(1430319874.148219) can0 270#E313000000000000
(1430319874.235229) can0 477#07004F7C61001400
(1430319874.246936) can0 475#BF131D4945000000
(1430319874.247329) can0 306#1E00000000000000
(1430319874.247591) can0 294#00009CFFFA000000
(1430319874.247858) can0 270#E313000000000000
(1430319874.332293) can0 477#0700507C61001400
(1430319874.347274) can0 475#C5131D4945000000
(1430319874.347570) can0 306#1E00000000000000
(1430319874.347823) can0 294#00009CFFFA000000
(1430319874.348111) can0 270#E313000000000000
(1430319874.429155) can0 477#0700507C61001400
(1430319874.447248) can0 475#C9131D4945000000
(1430319874.447546) can0 306#1E00000000000000
(1430319874.447796) can0 294#00009CFFFA000000
(1430319874.448088) can0 270#E313000000000000
(1430319874.526133) can0 477#07004F7C61001400
(1430319874.547290) can0 475#C9131D4945000000
(1430319874.547584) can0 306#1D00000000000000
(1430319874.547849) can0 294#00009CFFFA000000
(1430319874.548186) can0 270#E313000000000000
(1430319874.623061) can0 477#07004F7C61001400
(1430319874.647279) can0 475#C1131D4945000000
(1430319874.647591) can0 306#1C00000000000000
(1430319874.647850) can0 294#00009CFFFA000000
(1430319874.648102) can0 270#E313000000000000
(1430319874.729022) can0 477#0700507C61001400
(1430319874.747134) can0 475#C1131D4945000000
(1430319874.747507) can0 306#1D00000000000000
(1430319874.747771) can0 294#00009CFFFA000000
(1430319874.748086) can0 270#E313000000000000
(1430319874.817056) can0 477#07004F7C61001400
(1430319874.846919) can0 475#C9131D4945000000
(1430319874.847244) can0 306#1E00000000000000
(1430319874.847494) can0 294#00009CFFFA000000
(1430319874.847743) can0 270#E313000000000000
(1430319874.914004) can0 477#07004F7C61001400
(1430319874.947160) can0 475#CD131D4945000000
(1430319874.947588) can0 306#1E00000000000000
(1430319874.947850) can0 294#00009CFFFA000000
(1430319874.948151) can0 270#E313000000000000
(1430319875.010964) can0 477#07004F7C61001400
(1430319875.047341) can0 475#CB131D4945000000
(1430319875.047640) can0 306#1F00000000000000
(1430319875.047890) can0 294#00009CFFFA000000
(1430319875.048139) can0 270#E313000000000000
(1430319875.107925) can0 477#0700507C61001400
(1430319875.147301) can0 475#CB131D4945000000
(1430319875.147607) can0 306#1F00000000000000
(1430319875.147859) can0 294#00009CFFFA000000
(1430319875.148144) can0 270#E313000000000000
(1430319875.205075) can0 477#07004F7C61001400
(1430319875.247107) can0 475#C9131D4945000000
(1430319875.247505) can0 306#1F00000000000000
(1430319875.247778) can0 294#00009CFFFA000000
(1430319875.248032) can0 270#E313000000000000
(1430319875.301857) can0 477#07004F7C61001400
(1430319875.347266) can0 475#C3131D4945000000
(1430319875.347578) can0 306#1F00000000000000
(1430319875.347826) can0 294#00009CFFFA000000
(1430319875.348072) can0 270#E313000000000000
(1430319875.398863) can0 477#07004F7C61001400
(1430319875.447177) can0 475#C7131D4945000000
(1430319875.447702) can0 306#1F00000000000000
(1430319875.447914) can0 294#00009CFFFA000000
(1430319875.448170) can0 270#E313000000000000
(1430319875.495800) can0 477#07004F7C61001400
(1430319875.547222) can0 475#CF131D4945000000
(1430319875.547519) can0 306#1F00000000000000
(1430319875.547783) can0 294#00009CFFFA000000
(1430319875.548057) can0 270#E313000000000000
(1430319875.592796) can0 477#07004F7C61001400
(1430319875.647198) can0 475#C9131D4945000000
(1430319875.647475) can0 306#1F00000000000000
(1430319875.647769) can0 294#00009CFFFA000000
(1430319875.648162) can0 270#E313000000000000
(1430319875.689734) can0 477#0700507C61001400
(1430319875.747161) can0 475#C5131D4945000000
(1430319875.747504) can0 306#1E00000000000000
(1430319875.747770) can0 294#00009CFFFA000000
(1430319875.748028) can0 270#E313000000000000
(1430319875.786777) can0 477#07004F7C61001400
(1430319875.847083) can0 475#C5131D4945000000
(1430319875.847424) can0 306#1F00000000000000
(1430319875.847671) can0 294#00009CFFFA000000
(1430319875.847916) can0 270#E313000000000000
(1430319875.884759) can0 477#0700507C61001400
(1430319875.947102) can0 475#C9131D4945000000
(1430319875.947398) can0 306#1E00000000000000
(1430319875.947663) can0 294#00009CFFFA000000
(1430319875.947931) can0 270#E313000000000000
(1430319875.980669) can0 477#07004F7C61001400
(1430319876.047063) can0 475#C9131D4945000000
(1430319876.047427) can0 306#1E00000000000000
(1430319876.047681) can0 294#00009CFFFA000000
(1430319876.047931) can0 270#E313000000000000
(1430319876.077644) can0 477#0700507C61001400
(1430319876.147047) can0 475#CD131D4945000000
(1430319876.147380) can0 294#00009CFFFA000000
(1430319876.147587) can0 306#1E00000000000000
(1430319876.147836) can0 270#E313000000000000
(1430319876.174830) can0 477#0700507C61001400
(1430319876.247001) can0 475#C3131D4945000000
(1430319876.247291) can0 306#1F00000000000000
(1430319876.247537) can0 294#00009CFFFA000000
(1430319876.247782) can0 270#E313000000000000
(1430319876.272424) can0 477#07004F7C61001400
(1430319876.347018) can0 475#CD131D4945000000
(1430319876.347333) can0 306#1F00000000000000
(1430319876.347585) can0 294#00009CFFFA000000
(1430319876.347843) can0 270#E313000000000000
(1430319876.368554) can0 477#0700507C61001400
(1430319876.446892) can0 475#C3131D4945000000
(1430319876.447197) can0 306#1F00000000000000
(1430319876.447449) can0 294#00009CFFFA000000
(1430319876.447944) can0 270#E313000000000000
(1430319876.466687) can0 477#0700507C61001400
(1430319876.546912) can0 475#C5131D4945000000
(1430319876.547343) can0 306#1F00000000000000
(1430319876.547598) can0 294#00009CFFFA000000
(1430319876.547851) can0 270#E313000000000000
(1430319876.562476) can0 477#07004F7C61001400
(1430319876.646914) can0 475#CB131D4945000000
(1430319876.647348) can0 306#1F00000000000000
(1430319876.647612) can0 294#00009CFFFA000000
(1430319876.647864) can0 270#E313000000000000
(1430319876.659486) can0 477#0700507C61001400
(1430319876.747091) can0 475#C5131D4945000000
(1430319876.747396) can0 306#1F00000000000000
(1430319876.747692) can0 294#00009CFFFA000000
(1430319876.747953) can0 270#E313000000000000
(1430319876.756510) can0 477#0700507C61001400
(1430319876.847276) can0 475#CD131D4945000000
(1430319876.847653) can0 306#1F00000000000000
(1430319876.847914) can0 294#00009CFFFA000000
(1430319876.848163) can0 270#E313000000000000
(1430319876.853373) can0 477#0700507C61001400
(1430319876.947015) can0 475#C9131D4945000000
(1430319876.947314) can0 306#1F00000000000000
(1430319876.947570) can0 294#00009CFFFA000000
(1430319876.947821) can0 270#E313000000000000
(1430319876.950345) can0 477#0700507C61001400
(1430319877.046963) can0 475#CD131D4945000000
(1430319877.047287) can0 306#1F00000000000000
(1430319877.047545) can0 294#00009CFFFA000000
(1430319877.047791) can0 270#E313000000000000
(1430319877.048228) can0 477#07004F7C61001400
(1430319877.144501) can0 477#0700507C61001400
(1430319877.146982) can0 475#C9131D4945000000
(1430319877.147427) can0 306#1F00000000000000
(1430319877.147688) can0 294#00009CFFFA000000
(1430319877.147940) can0 270#E313000000000000
(1430319877.241305) can0 477#07004F7C61001400
(1430319877.246918) can0 475#CD131D4945000000
(1430319877.247369) can0 306#1E00000000000000
(1430319877.247650) can0 294#00009CFFFA000000
(1430319877.247906) can0 270#E313000000000000
(1430319877.338254) can0 477#0700507C61001400
(1430319877.347139) can0 475#CF131D4945000000
(1430319877.347424) can0 306#1D00000000000000
(1430319877.347701) can0 294#00009CFFFA000000
(1430319877.347958) can0 270#E313000000000000
(1430319877.435235) can0 477#07004F7C61001400
(1430319877.447306) can0 475#C1131D4945000000
(1430319877.447600) can0 306#1D00000000000000
(1430319877.447856) can0 294#00009CFFFA000000
(1430319877.448112) can0 270#E313000000000000
(1430319877.532148) can0 477#0700507C61001400
(1430319877.547296) can0 475#C7131D4945000000
(1430319877.547620) can0 306#1D00000000000000
(1430319877.548164) can0 294#00009CFFFA000000
(1430319877.548481) can0 270#E313000000000000
(1430319877.629135) can0 477#0700507C61001400
(1430319877.647019) can0 475#C5131D4945000000
(1430319877.647353) can0 306#1D00000000000000
(1430319877.647613) can0 294#00009CFFFA000000
(1430319877.647867) can0 270#E313000000000000
(1430319877.726086) can0 477#07004E7C61001400
(1430319877.747225) can0 475#C7131D4945000000
(1430319877.747527) can0 306#1D00000000000000
(1430319877.747782) can0 294#00009CFFFA000000
(1430319877.748036) can0 270#E313000000000000
(1430319877.823066) can0 477#0700517C61001400
(1430319877.847193) can0 475#C9131D4945000000
(1430319877.847547) can0 306#1D00000000000000
(1430319877.847847) can0 294#00009CFFFA000000
(1430319877.848119) can0 270#E313000000000000
(1430319877.920054) can0 477#0700507C61001400
(1430319877.947223) can0 475#CF131D4945000000
(1430319877.947557) can0 306#1D00000000000000
(1430319877.947833) can0 294#00009CFFFA000000
(1430319877.948091) can0 270#E313000000000000
(1430319878.017043) can0 477#0700507C61001400
(1430319878.047184) can0 475#C7131D4945000000
(1430319878.047664) can0 306#1E00000000000000
(1430319878.047928) can0 294#00009CFFFA000000
(1430319878.048184) can0 270#E313000000000000
(1430319878.113983) can0 477#0600507C61001400
(1430319878.137192) can0 475#C7131D4945000000
(1430319878.137507) can0 306#1E00000000000000
(1430319878.137756) can0 294#00009CFFFA000000
(1430319878.138000) can0 270#E313000000000000
(1430319878.210957) can0 477#07004F7C61001400
(1430319878.237132) can0 475#CB131D4945000000
(1430319878.237587) can0 306#1E00000000000000
(1430319878.237849) can0 294#00009CFFFA000000
(1430319878.238110) can0 270#E313000000000000
(1430319878.307906) can0 477#0700507C61001400
(1430319878.337132) can0 475#CB131D4945000000
(1430319878.337538) can0 306#1D00000000000000
(1430319878.337968) can0 294#00009CFFFA000000
(1430319878.338238) can0 270#E313000000000000
(1430319878.404911) can0 477#0700507C61001400
(1430319878.437259) can0 475#CD131D4945000000
(1430319878.437550) can0 306#1E00000000000000
(1430319878.437799) can0 294#00009CFFFA000000
(1430319878.438082) can0 270#E313000000000000
(1430319878.501873) can0 477#0700507C61001400
(1430319878.537049) can0 475#CB131D4945000000
(1430319878.537507) can0 306#1E00000000000000
(1430319878.537767) can0 294#00009CFFFA000000
(1430319878.538018) can0 270#E313000000000000
(1430319878.598881) can0 477#0700507C61001400
(1430319878.637220) can0 475#CD131D4945000000
(1430319878.637531) can0 306#1E00000000000000
(1430319878.637780) can0 294#00009CFFFA000000
(1430319878.638030) can0 270#E313000000000000
(1430319878.695811) can0 477#07004F7C61001400
(1430319878.737232) can0 475#C3131D4945000000
(1430319878.737514) can0 306#1E00000000000000
(1430319878.737765) can0 294#00009CFFFA000000
(1430319878.738016) can0 270#E313000000000000
(1430319878.792776) can0 477#0600507C61001400
(1430319878.837137) can0 475#C1131D4945000000
(1430319878.837441) can0 306#1D00000000000000
(1430319878.837687) can0 294#00009CFFFA000000
(1430319878.837933) can0 270#E313000000000000
(1430319878.889772) can0 477#0700507C61001400
(1430319878.937119) can0 475#CD131D4945000000
(1430319878.937460) can0 306#1D00000000000000
(1430319878.937710) can0 294#00009CFFFA000000
(1430319878.937956) can0 270#E313000000000000
(1430319878.986699) can0 477#0600507C61001400
(1430319879.037110) can0 475#C3131D4945000000
(1430319879.037414) can0 306#1E00000000000000
(1430319879.037663) can0 294#00009CFFFA000000
(1430319879.037912) can0 270#E313000000000000
(1430319879.083813) can0 477#07004F7C61001400
(1430319879.137070) can0 475#D1131D4945000000
(1430319879.137381) can0 306#1E00000000000000
(1430319879.137634) can0 294#00009CFFFA000000
(1430319879.137896) can0 270#E313000000000000
(1430319879.180687) can0 477#0700507C61001400
(1430319879.237045) can0 475#CD131D4945000000
(1430319879.237374) can0 306#1E00000000000000
(1430319879.237620) can0 294#00009CFFFA000000
(1430319879.237868) can0 270#E313000000000000
(1430319879.278863) can0 477#06004E7C61001400
(1430319879.336820) can0 475#C1131D4945000000
(1430319879.337500) can0 306#1E00000000000000
(1430319879.337926) can0 270#E313000000000000
(1430319879.375437) can0 477#07004F7C61001400
(1430319879.436808) can0 475#C5131D4945000000
(1430319879.437190) can0 306#1E00000000000000
(1430319879.437465) can0 294#00009CFFFA000000
(1430319879.437714) can0 270#E313000000000000
(1430319879.472192) can0 477#0600517C61001400
(1430319879.536987) can0 475#CD131D4945000000
(1430319879.537287) can0 306#1E00000000000000
(1430319879.537563) can0 294#00009CFFFA000000
(1430319879.537812) can0 270#E313000000000000
(1430319879.569024) can0 477#07004F7C61001400
(1430319879.637005) can0 475#CD131D4945000000
(1430319879.637299) can0 306#1D00000000000000
(1430319879.637552) can0 294#00009CFFFA000000
(1430319879.637801) can0 270#E313000000000000
(1430319879.665457) can0 477#06004F7C61001400
(1430319879.736912) can0 475#BF131D4945000000
(1430319879.737382) can0 306#1E00000000000000
(1430319879.737637) can0 294#00009CFFFA000000
(1430319879.737888) can0 270#E313000000000000
(1430319879.762455) can0 477#0700507C61001400
(1430319879.837133) can0 475#C9131D4945000000
(1430319879.837421) can0 306#1D00000000000000
(1430319879.837778) can0 294#00009CFFFA000000
(1430319879.838080) can0 270#E313000000000000
(1430319879.859469) can0 477#0700507C61001400
(1430319879.937040) can0 475#CF131D4945000000
(1430319879.937396) can0 306#1D00000000000000
(1430319879.937647) can0 294#00009CFFFA000000
(1430319879.937895) can0 270#E313000000000000
(1430319879.956380) can0 477#0700507C61001400
(1430319880.037166) can0 475#C1131D4945000000
(1430319880.037475) can0 306#1D00000000000000
(1430319880.037730) can0 294#00009CFFFA000000
(1430319880.037979) can0 270#E313000000000000
(1430319880.053374) can0 477#0700507C61001400
(1430319880.137049) can0 475#C3131D4945000000
(1430319880.137401) can0 306#1D00000000000000
(1430319880.137655) can0 294#00009CFFFA000000
(1430319880.137905) can0 270#E313000000000000
(1430319880.150370) can0 477#0700507C61001400
(1430319880.237042) can0 475#C5131D4945000000
(1430319880.237341) can0 306#1E00000000000000
(1430319880.237598) can0 294#00009CFFFA000000
(1430319880.237854) can0 270#E313000000000000
(1430319880.247296) can0 477#07004F7C61001400
(1430319880.336957) can0 475#D4131D4945000000
(1430319880.337262) can0 306#1E00000000000000
(1430319880.337523) can0 294#00009CFFFA000000
(1430319880.337775) can0 270#E313000000000000
(1430319880.344271) can0 477#0700507C61001400
(1430319880.437075) can0 475#C5131D4945000000
(1430319880.437381) can0 306#1D00000000000000
(1430319880.437638) can0 294#00009CFFFA000000
(1430319880.437885) can0 270#E313000000000000
(1430319880.441205) can0 477#07004F7C61001400
(1430319880.537123) can0 475#C7131D4945000000
(1430319880.537416) can0 306#1D00000000000000
(1430319880.537696) can0 294#00009CFFFA000000
(1430319880.537953) can0 270#E313000000000000
(1430319880.538388) can0 477#07004F7C61001400
(1430319880.635194) can0 477#07004F7C61001400
(1430319880.637161) can0 475#CB131D4945000000
(1430319880.637446) can0 306#1D00000000000000
(1430319880.637694) can0 294#00009CFFFA000000
(1430319880.637941) can0 270#E313000000000000
(1430319880.732125) can0 477#0700507C61001400
(1430319880.737346) can0 475#CF131D4945000000
(1430319880.737633) can0 306#1C00000000000000
(1430319880.737885) can0 294#00009CFFFA000000
(1430319880.738145) can0 270#E313000000000000
(1430319880.829136) can0 477#0700507C61001400
(1430319880.837236) can0 475#C7131D4945000000
(1430319880.837538) can0 306#1C00000000000000
(1430319880.837789) can0 294#00009CFFFA000000
(1430319880.838036) can0 270#E313000000000000
(1430319880.926072) can0 477#0700507C61001400
(1430319880.937151) can0 475#BF131D4945000000
(1430319880.937525) can0 306#1C00000000000000
(1430319880.937797) can0 294#00009CFFFA000000
(1430319880.938059) can0 270#E313000000000000
(1430319881.023210) can0 477#0700507C61001400
(1430319881.037143) can0 475#C7131D4945000000
(1430319881.037486) can0 306#1C00000000000000
(1430319881.037748) can0 294#00009CFFFA000000
(1430319881.037997) can0 270#E313000000000000
(1430319881.120018) can0 477#0700507C61001400
(1430319881.137134) can0 475#CD131D4945000000
(1430319881.137497) can0 306#1C00000000000000
(1430319881.137752) can0 294#00009CFFFA000000
(1430319881.138002) can0 270#E313000000000000
(1430319881.217010) can0 477#0600507C61001400
(1430319881.237225) can0 475#C1131D4945000000
(1430319881.237534) can0 306#1C00000000000000
(1430319881.237787) can0 294#00009CFFFA000000
(1430319881.238036) can0 270#E313000000000000
(1430319881.313965) can0 477#0700507C61001400
(1430319881.337156) can0 475#CB131D4945000000
(1430319881.337639) can0 306#1C00000000000000
(1430319881.337899) can0 294#00009CFFFA000000
(1430319881.338154) can0 270#E313000000000000
(1430319881.410925) can0 477#0700507C61001400
(1430319881.437403) can0 475#CF131D4945000000
(1430319881.437688) can0 306#1C00000000000000
(1430319881.437937) can0 294#00009CFFFA000000
(1430319881.438182) can0 270#E313000000000000
(1430319881.507908) can0 477#07004F7C61001400
(1430319881.537310) can0 475#CD131D4945000000
(1430319881.537600) can0 306#1C00000000000000
(1430319881.537849) can0 294#00009CFFFA000000
(1430319881.538094) can0 270#E313000000000000
(1430319881.604952) can0 477#0700517C61001400
(1430319881.637293) can0 475#C1131D4945000000
(1430319881.637587) can0 306#1B00000000000000
(1430319881.637878) can0 294#00009CFFFA000000
(1430319881.638135) can0 270#E313000000000000
(1430319881.701818) can0 477#07004F7C61001400
(1430319881.737297) can0 475#C9131D4945000000
(1430319881.737576) can0 306#1C00000000000000
(1430319881.737826) can0 294#00009CFFFA000000
(1430319881.738073) can0 270#E313000000000000
(1430319881.798916) can0 477#0700507C61001400
(1430319881.837243) can0 475#BF131D4945000000
(1430319881.837569) can0 306#1C00000000000000
(1430319881.837823) can0 294#00009CFFFA000000
(1430319881.838080) can0 270#E313000000000000
(1430319881.895781) can0 477#0700507C61001400
(1430319881.937200) can0 475#BF131D4945000000
(1430319881.937490) can0 306#1C00000000000000
(1430319881.937743) can0 294#00009CFFFA000000
(1430319881.937995) can0 270#E313000000000000
(1430319881.992823) can0 477#0600507C61001400
(1430319882.037229) can0 475#C7131D4945000000
(1430319882.037677) can0 306#1C00000000000000
(1430319882.037898) can0 294#00009CFFFA000000
(1430319882.089716) can0 477#07004F7C61001400
(1430319882.136917) can0 475#C7131D4945000000
(1430319882.137354) can0 306#1C00000000000000
(1430319882.137604) can0 294#00009CFFFA000000
(1430319882.137857) can0 270#E313000000000000
(1430319882.186658) can0 477#07004F7C61001400
(1430319882.237006) can0 475#C7131D4945000000
(1430319882.237435) can0 306#1C00000000000000
(1430319882.237695) can0 270#E313000000000000
(1430319882.237900) can0 294#00009CFFFA000000
(1430319882.283689) can0 477#0700507C61001400
(1430319882.337042) can0 475#C7131D4945000000
(1430319882.337352) can0 306#1D00000000000000
(1430319882.337605) can0 294#00009CFFFA000000
(1430319882.337854) can0 270#E313000000000000
(1430319882.380636) can0 477#0600507C61001400
(1430319882.437109) can0 475#CD131D4945000000
(1430319882.437385) can0 306#1D00000000000000
(1430319882.437636) can0 294#00009CFFFA000000
(1430319882.437893) can0 270#E313000000000000
(1430319882.477602) can0 477#06004F7C61001400
(1430319882.536979) can0 475#C3131D4945000000
(1430319882.537286) can0 306#1D00000000000000
(1430319882.537536) can0 294#00009CFFFA000000
(1430319882.537785) can0 270#E313000000000000
(1430319882.574566) can0 477#0700517C61001400
(1430319882.637046) can0 475#CB131D4945000000
(1430319882.637329) can0 294#00009CFFFA000000
(1430319882.637538) can0 306#1E00000000000000
(1430319882.637783) can0 270#E313000000000000
(1430319882.672161) can0 477#0700507C61001400
(1430319882.736986) can0 475#CF131D4945000000
(1430319882.737289) can0 306#1E00000000000000
(1430319882.737682) can0 294#00009CFFFA000000
(1430319882.737942) can0 270#E313000000000000
(1430319882.768480) can0 477#07004F7C61001400
(1430319882.836984) can0 475#C5131D4945000000
(1430319882.837373) can0 306#1E00000000000000
(1430319882.837624) can0 294#00009CFFFA000000
(1430319882.837910) can0 270#E313000000000000
(1430319882.865918) can0 477#0700507C61001400
(1430319882.937119) can0 475#CB131D4945000000
(1430319882.937694) can0 306#1E00000000000000
(1430319882.937923) can0 294#00009CFFFA000000
(1430319882.962552) can0 477#0700507C61001400
(1430319883.037164) can0 475#CB131D4945000000
(1430319883.037487) can0 294#00009CFFFA000000
(1430319883.037700) can0 306#1E00000000000000
(1430319883.037945) can0 270#E313000000000000
(1430319883.059388) can0 477#0700507C61001400
(1430319883.137070) can0 475#CD131D4945000000
(1430319883.137389) can0 306#1E00000000000000
(1430319883.137648) can0 294#00009CFFFA000000
(1430319883.137933) can0 270#E313000000000000
(1430319883.156397) can0 477#0700507C61001400
(1430319883.237501) can0 475#D1131D4945000000
(1430319883.237845) can0 270#E313000000000000
(1430319883.238065) can0 306#1E00000000000000
(1430319883.253451) can0 477#0700517C61001400
(1430319883.337594) can0 306#1E00000000000000
(1430319883.350305) can0 477#0700517C61001400
(1430319883.437072) can0 475#C3131D4945000000
(1430319883.437395) can0 294#00009CFFFA000000
(1430319883.437614) can0 306#1F00000000000000
(1430319883.437860) can0 270#E313000000000000
(1430319883.447303) can0 477#07004F7C61001400
(1430319883.537075) can0 475#D2131D4945000000
(1430319883.537367) can0 306#1E00000000000000
(1430319883.537624) can0 294#00009CFFFA000000
(1430319883.537871) can0 270#E313000000000000
(1430319883.544272) can0 477#0700507C61001400
(1430319883.637017) can0 475#BC131D4945000000
(1430319883.637343) can0 306#1F00000000000000
(1430319883.637711) can0 294#00009CFFFA000000
(1430319883.638066) can0 270#E313000000000000
(1430319883.641177) can0 477#0700507C61001400
(1430319883.737325) can0 475#CF131D4945000000
(1430319883.737661) can0 306#1F00000000000000
(1430319883.737932) can0 294#00009CFFFA000000
(1430319883.738194) can0 270#E413000000000000
(1430319883.738610) can0 477#0700507C61001400
(1430319883.835201) can0 477#0700507C61001400
(1430319883.837318) can0 475#C5131D4945000000
(1430319883.837636) can0 306#2000000000000000
(1430319883.837900) can0 294#00009CFFFA000000
(1430319883.838149) can0 270#E413000000000000
(1430319883.932116) can0 477#0600517C61001400
(1430319883.937264) can0 475#C5131D4945000000
(1430319883.937578) can0 306#1F00000000000000
(1430319883.937837) can0 294#00009CFFFA000000
(1430319883.938087) can0 270#E313000000000000
(1430319884.029287) can0 477#0700507C61001400
(1430319884.037214) can0 475#C5131D4945000000
(1430319884.037571) can0 306#1F00000000000000
(1430319884.037831) can0 294#00009CFFFA000000
(1430319884.038095) can0 270#E313000000000000
(1430319884.126072) can0 477#06004F7C61001400
(1430319884.137232) can0 475#C9131D4945000000
(1430319884.137533) can0 306#1F00000000000000
(1430319884.137784) can0 294#00009CFFFA000000
(1430319884.138033) can0 270#E313000000000000
(1430319884.223053) can0 477#07004F7C61001400
(1430319884.237160) can0 475#CB131D4945000000
(1430319884.237485) can0 306#1F00000000000000
(1430319884.237742) can0 294#00009CFFFA000000
(1430319884.237989) can0 270#E313000000000000
(1430319884.320018) can0 477#0700507C61001400
(1430319884.337241) can0 475#C9131D4945000000
(1430319884.337571) can0 306#2000000000000000
(1430319884.337821) can0 294#00009CFFFA000000
(1430319884.338069) can0 270#E313000000000000
(1430319884.416963) can0 477#0700507C61001400
(1430319884.437368) can0 475#BD131D4945000000
(1430319884.437660) can0 306#2000000000000000
(1430319884.437909) can0 294#00009CFFFA000000
(1430319884.438155) can0 270#E313000000000000
(1430319884.513965) can0 477#0700507C61001400
(1430319884.537377) can0 475#C1131D4945000000
(1430319884.537691) can0 306#2000000000000000
(1430319884.537944) can0 294#00009CFFFA000000
(1430319884.538188) can0 270#E313000000000000
(1430319884.610920) can0 477#0700507C61001400
(1430319884.637255) can0 475#CB131D4945000000
(1430319884.637688) can0 306#2000000000000000
(1430319884.637949) can0 294#00009CFFFA000000
(1430319884.638202) can0 270#E313000000000000
(1430319884.707879) can0 477#0700507C61001400
(1430319884.737357) can0 475#CD131D4945000000
(1430319884.737647) can0 306#2000000000000000
(1430319884.737904) can0 294#00009CFFFA000000
(1430319884.738152) can0 270#E313000000000000
(1430319884.804855) can0 477#0600507C61001400
(1430319884.837190) can0 475#C9131D4945000000
(1430319884.837612) can0 306#2000000000000000
(1430319884.837874) can0 294#00009CFFFA000000
(1430319884.838120) can0 270#E313000000000000
(1430319884.901999) can0 477#06004F7C61001400
(1430319884.937284) can0 475#D2131D4945000000
(1430319884.937583) can0 306#2000000000000000
(1430319884.937832) can0 294#00009CFFFA000000
(1430319884.938082) can0 270#E313000000000000
(1430319884.998835) can0 477#0700507C61001400
(1430319885.037290) can0 475#C7131D4945000000
(1430319885.037611) can0 294#00009CFFFA000000
(1430319885.037816) can0 306#2000000000000000
(1430319885.038068) can0 270#E313000000000000
(1430319885.102259) can0 477#0700507C61001400
(1430319885.137135) can0 475#C5131D4945000000
(1430319885.137468) can0 306#2000000000000000
(1430319885.137724) can0 294#00009CFFFA000000
(1430319885.137971) can0 270#E313000000000000
(1430319885.192750) can0 477#07004F7C61001400
(1430319885.236952) can0 475#C3131D4945000000
(1430319885.237360) can0 306#2000000000000000
(1430319885.237766) can0 294#00009CFFFA000000
(1430319885.237978) can0 270#E313000000000000
(1430319885.289690) can0 477#0700507C61001400
(1430319885.336945) can0 475#CD131D4945000000
(1430319885.337349) can0 306#2000000000000000
(1430319885.337629) can0 294#00009CFFFA000000
(1430319885.337886) can0 270#E313000000000000
(1430319885.386670) can0 477#07004F7C61001400
(1430319885.437194) can0 475#CD131D4945000000
(1430319885.437476) can0 294#00009CFFFA000000
(1430319885.437686) can0 306#2100000000000000
(1430319885.437930) can0 270#E313000000000000
