(1430319781.435996) can0 477#07003E7C61001400
(1430319781.476566) can0 475#BF131C4945000000
(1430319781.476905) can0 306#1F00000000000000
(1430319781.477164) can0 294#00009CFFFA000000
(1430319781.477414) can0 270#E013000000000000
(1430319781.532830) can0 477#07003E7C61001400
(1430319781.576536) can0 475#C3131C4945000000
(1430319781.576843) can0 306#1F00000000000000
(1430319781.577098) can0 294#00009CFFFA000000
(1430319781.577346) can0 270#E013000000000000
(1430319781.629796) can0 477#07003E7C61001400
(1430319781.676522) can0 475#D1131C4945000000
(1430319781.676853) can0 306#1F00000000000000
(1430319781.677090) can0 294#00009CFFFA000000
(1430319781.677343) can0 270#E013000000000000
(1430319781.726724) can0 477#07003E7C61001400
(1430319781.776487) can0 475#CB131C4945000000
(1430319781.776803) can0 306#1F00000000000000
(1430319781.777061) can0 294#00009CFFFA000000
(1430319781.777310) can0 270#E013000000000000
(1430319781.823711) can0 477#06003E7C61001400
(1430319781.876411) can0 475#BC131C4945000000
(1430319781.876727) can0 306#1F00000000000000
(1430319781.876982) can0 294#00009CFFFA000000
(1430319781.877229) can0 270#E013000000000000
(1430319781.920698) can0 477#07003E7C61001400
(1430319781.976420) can0 475#C9131C4945000000
(1430319781.976743) can0 306#2000000000000000
(1430319781.976997) can0 294#00009CFFFA000000
(1430319781.977245) can0 270#E013000000000000
(1430319782.017621) can0 477#07003E7C61001400
(1430319782.076381) can0 475#BF131C4945000000
(1430319782.076693) can0 306#2000000000000000
(1430319782.076948) can0 294#00009CFFFA000000
(1430319782.077206) can0 270#E013000000000000
(1430319782.114768) can0 477#07003E7C61001400
(1430319782.176184) can0 475#BF131C4945000000
(1430319782.176596) can0 306#2000000000000000
(1430319782.176855) can0 294#00009CFFFA000000
(1430319782.177107) can0 270#E013000000000000
(1430319782.211586) can0 477#07003D7C61001400
(1430319782.276316) can0 475#BF131C4945000000
(1430319782.276617) can0 306#1F00000000000000
(1430319782.276877) can0 294#00009CFFFA000000
(1430319782.277132) can0 270#E013000000000000
(1430319782.308531) can0 477#07003E7C61001400
(1430319782.376293) can0 475#C7131C4945000000
(1430319782.376595) can0 306#1F00000000000000
(1430319782.376848) can0 294#00009CFFFA000000
(1430319782.377134) can0 270#E013000000000000
(1430319782.405562) can0 477#06003E7C61001400
(1430319782.476497) can0 306#1F00000000000000
(1430319782.476845) can0 294#00009CFFFA000000
(1430319782.477115) can0 270#E013000000000000
(1430319782.502528) can0 477#07003E7C61001400
(1430319782.576247) can0 475#C5131C4945000000
(1430319782.576547) can0 306#1F00000000000000
(1430319782.576802) can0 294#00009CFFFA000000
(1430319782.577050) can0 270#E113000000000000
(1430319782.599493) can0 477#06003F7C61001400
(1430319782.676062) can0 475#BF131C4945000000
(1430319782.676466) can0 306#1F00000000000000
(1430319782.676753) can0 294#00009CFFFA000000
(1430319782.677016) can0 270#E113000000000000
(1430319782.696440) can0 477#06003E7C61001400
(1430319782.776198) can0 475#C9131C4945000000
(1430319782.776504) can0 306#1F00000000000000
(1430319782.776772) can0 294#00009CFFFA000000
(1430319782.777050) can0 270#E013000000000000
(1430319782.793414) can0 477#07003E7C61001400
(1430319782.876324) can0 475#C3131C4945000000
(1430319782.876621) can0 306#1F00000000000000
(1430319782.876877) can0 294#00009CFFFA000000
(1430319782.877135) can0 270#E013000000000000
(1430319782.890375) can0 477#07003E7C61001400
(1430319782.976324) can0 475#D2131C4945000000
(1430319782.976659) can0 306#1F00000000000000
(1430319782.976914) can0 294#00009CFFFA000000
(1430319782.977164) can0 270#E013000000000000
(1430319782.987367) can0 477#07003F7C61001400
(1430319783.076373) can0 475#CF131C4945000000
(1430319783.076698) can0 306#1F00000000000000
(1430319783.076954) can0 294#00009CFFFA000000
(1430319783.077158) can0 270#E113000000000000
(1430319783.084295) can0 477#07003F7C61001400
(1430319783.176376) can0 475#C3131C4945000000
(1430319783.176669) can0 294#00009CFFFA000000
(1430319783.176880) can0 306#1D00000000000000
(1430319783.177131) can0 270#E113000000000000
(1430319783.181243) can0 477#06003F7C61001400
(1430319783.276220) can0 475#CB131C4945000000
(1430319783.276674) can0 306#1D00000000000000
(1430319783.276893) can0 294#00009CFFFA000000
(1430319783.277146) can0 270#E113000000000000
(1430319783.278320) can0 477#06003F7C61001400
(1430319783.375217) can0 477#0700407C61001400
(1430319783.376248) can0 475#C7131C4945000000
(1430319783.376541) can0 306#1D00000000000000
(1430319783.376798) can0 294#00009CFFFA000000
(1430319783.377049) can0 270#E113000000000000
(1430319783.472191) can0 477#07003F7C61001400
(1430319783.476263) can0 475#C5131C4945000000
(1430319783.476538) can0 306#1D00000000000000
(1430319783.476793) can0 294#00009CFFFA000000
(1430319783.477043) can0 270#E113000000000000
(1430319783.570467) can0 477#07003F7C61001400
(1430319783.576404) can0 475#BF131C4945000000
(1430319783.576710) can0 306#1D00000000000000
(1430319783.576994) can0 294#00009CFFFA000000
(1430319783.577251) can0 270#E113000000000000
(1430319783.666680) can0 477#07003F7C61001400
(1430319783.676398) can0 475#C7131C4945000000
(1430319783.676713) can0 306#1D00000000000000
(1430319783.676969) can0 294#00009CFFFA000000
(1430319783.677216) can0 270#E113000000000000
(1430319783.763072) can0 477#07003F7C61001400
(1430319783.776579) can0 475#C3131C4945000000
(1430319783.776886) can0 306#1D00000000000000
(1430319783.777140) can0 294#00009CFFFA000000
(1430319783.777392) can0 270#E113000000000000
(1430319783.860151) can0 477#07003F7C61001400
(1430319783.876517) can0 475#C5131C4945000000
(1430319783.876835) can0 306#1E00000000000000
(1430319783.877093) can0 294#00009CFFFA000000
(1430319783.877342) can0 270#E113000000000000
(1430319783.957021) can0 477#07003E7C61001400
(1430319783.976516) can0 475#C3131C4945000000
(1430319783.976853) can0 306#1F00000000000000
(1430319783.977106) can0 294#00009CFFFA000000
(1430319783.977355) can0 270#E113000000000000
(1430319784.054188) can0 477#07003F7C61001400
(1430319784.076460) can0 475#C1131C4945000000
(1430319784.076787) can0 306#1F00000000000000
(1430319784.077045) can0 294#00009CFFFA000000
(1430319784.077297) can0 270#E113000000000000
(1430319784.151006) can0 477#0700407C61001400
(1430319784.176253) can0 475#C3131C4945000000
(1430319784.176568) can0 306#1F00000000000000
(1430319784.176825) can0 294#00009CFFFA000000
(1430319784.177074) can0 270#E113000000000000
(1430319784.247938) can0 477#0700407C61001400
(1430319784.276290) can0 475#CB131C4945000000
(1430319784.276571) can0 306#1F00000000000000
(1430319784.276824) can0 294#00009CFFFA000000
(1430319784.277070) can0 270#E113000000000000
(1430319784.344945) can0 477#07003F7C61001400
(1430319784.366424) can0 475#C5131C4945000000
(1430319784.366842) can0 306#1F00000000000000
(1430319784.367107) can0 294#00009CFFFA000000
(1430319784.367367) can0 270#E113000000000000
(1430319784.441859) can0 477#0700407C61001400
(1430319784.466437) can0 475#C9131C4945000000
(1430319784.466764) can0 306#1F00000000000000
(1430319784.467019) can0 294#00009CFFFA000000
(1430319784.467267) can0 270#E113000000000000
(1430319784.538986) can0 477#06003F7C61001400
(1430319784.566608) can0 475#C3131C4945000000
(1430319784.566949) can0 306#1F00000000000000
(1430319784.567214) can0 294#00009CFFFA000000
(1430319784.567481) can0 270#E113000000000000
(1430319784.635813) can0 477#07003F7C61001400
(1430319784.666488) can0 475#C7131C4945000000
(1430319784.666805) can0 306#1F00000000000000
(1430319784.667081) can0 294#00009CFFFA000000
(1430319784.667341) can0 270#E113000000000000
(1430319784.732778) can0 477#0700407C61001400
(1430319784.766525) can0 475#C3131C4945000000
(1430319784.766830) can0 306#1E00000000000000
(1430319784.767106) can0 294#00009CFFFA000000
(1430319784.767364) can0 270#E113000000000000
(1430319784.829754) can0 477#0700407C61001400
(1430319784.866558) can0 475#BD131C4945000000
(1430319784.866860) can0 306#1D00000000000000
(1430319784.867156) can0 294#00009CFFFA000000
(1430319784.867415) can0 270#E113000000000000
(1430319784.926724) can0 477#0700407C61001400
(1430319784.966449) can0 475#C1131C4945000000
(1430319784.966792) can0 306#1D00000000000000
(1430319784.967045) can0 294#00009CFFFA000000
(1430319784.967678) can0 270#E113000000000000
(1430319785.023707) can0 477#06003F7C61001400
(1430319785.066453) can0 475#C9131C4945000000
(1430319785.066787) can0 306#1E00000000000000
(1430319785.067041) can0 294#00009CFFFA000000
(1430319785.067293) can0 270#E113000000000000
(1430319785.120673) can0 477#0700407C61001400
(1430319785.166199) can0 475#C5131C4945000000
(1430319785.166641) can0 306#1D00000000000000
(1430319785.166904) can0 294#00009CFFFA000000
(1430319785.167155) can0 270#E113000000000000
(1430319785.217628) can0 477#0700407C61001400
(1430319785.266341) can0 475#C1131C4945000000
(1430319785.266656) can0 306#1E00000000000000
(1430319785.266913) can0 294#00009CFFFA000000
(1430319785.267161) can0 270#E113000000000000
(1430319785.314573) can0 477#0700407C61001400
(1430319785.366397) can0 475#CB131C4945000000
(1430319785.366716) can0 306#1F00000000000000
(1430319785.366983) can0 294#00009CFFFA000000
(1430319785.367231) can0 270#E113000000000000
(1430319785.411574) can0 477#0600417C61001400
(1430319785.466351) can0 475#BA131C4945000000
(1430319785.466653) can0 306#1E00000000000000
(1430319785.466911) can0 294#00009CFFFA000000
(1430319785.467159) can0 270#E113000000000000
(1430319785.508535) can0 477#0700417C61001400
(1430319785.566357) can0 475#C5131C4945000000
(1430319785.566728) can0 306#1E00000000000000
(1430319785.567004) can0 294#00009CFFFA000000
(1430319785.567269) can0 270#E113000000000000
(1430319785.605506) can0 477#0700417C61001400
(1430319785.666283) can0 475#BD131C4945000000
(1430319785.666615) can0 306#1D00000000000000
(1430319785.666884) can0 294#00009CFFFA000000
(1430319785.667141) can0 270#E113000000000000
(1430319785.702454) can0 477#0700407C61001400
(1430319785.766234) can0 475#C5131C4945000000
(1430319785.766538) can0 306#1D00000000000000
(1430319785.766809) can0 294#00009CFFFA000000
(1430319785.767077) can0 270#E113000000000000
(1430319785.799478) can0 477#0700417C61001400
(1430319785.866195) can0 475#CD131C4945000000
(1430319785.866531) can0 306#1C00000000000000
(1430319785.866793) can0 294#00009CFFFA000000
(1430319785.867044) can0 270#E113000000000000
(1430319785.896413) can0 477#0700417C61001400
(1430319785.966184) can0 475#C5131C4945000000
(1430319785.966515) can0 306#1D00000000000000
(1430319785.966807) can0 294#00009CFFFA000000
(1430319785.967067) can0 270#E113000000000000
(1430319785.993548) can0 477#0700417C61001400
(1430319786.066206) can0 475#C3131C4945000000
(1430319786.066623) can0 306#1D00000000000000
(1430319786.066873) can0 294#00009CFFFA000000
(1430319786.067126) can0 270#E113000000000000
(1430319786.091376) can0 477#0700417C61001400
(1430319786.166369) can0 475#CB131C4945000000
(1430319786.166831) can0 306#1D00000000000000
(1430319786.167087) can0 294#00009CFFFA000000
(1430319786.167341) can0 270#E113000000000000
(1430319786.187282) can0 477#0700417C61001400
(1430319786.266300) can0 475#C3131C4945000000
(1430319786.266624) can0 306#1C00000000000000
(1430319786.266879) can0 294#00009CFFFA000000
(1430319786.267137) can0 270#E113000000000000
(1430319786.284361) can0 477#0600407C61001400
(1430319786.366267) can0 475#C1131C4945000000
(1430319786.366625) can0 306#1C00000000000000
(1430319786.366903) can0 294#00009CFFFA000000
(1430319786.367170) can0 270#E113000000000000
(1430319786.381866) can0 477#0600417C61001400
(1430319786.466325) can0 475#CB131C4945000000
(1430319786.466698) can0 306#1C00000000000000
(1430319786.466975) can0 294#00009CFFFA000000
(1430319786.467243) can0 270#E113000000000000
(1430319786.479124) can0 477#0700417C61001400
(1430319786.566286) can0 475#C5131C4945000000
(1430319786.566663) can0 306#1D00000000000000
(1430319786.566952) can0 294#00009CFFFA000000
(1430319786.567219) can0 270#E113000000000000
(1430319786.575284) can0 477#0700417C61001400
(1430319786.666193) can0 475#C7131C4945000000
(1430319786.666568) can0 306#1D00000000000000
(1430319786.666854) can0 294#00009CFFFA000000
(1430319786.667121) can0 270#E113000000000000
(1430319786.672741) can0 477#0700417C61001400
(1430319786.766205) can0 475#CD131C4945000000
(1430319786.766582) can0 306#1C00000000000000
(1430319786.767142) can0 270#E113000000000000
(1430319786.767376) can0 294#00009CFFFA000000
(1430319786.769513) can0 477#0600417C61001400
(1430319786.866136) can0 477#0700417C61001400
(1430319786.866609) can0 475#C7131C4945000000
(1430319786.866998) can0 294#00009CFFFA000000
(1430319786.867230) can0 306#1C00000000000000
(1430319786.867500) can0 270#E113000000000000
(1430319786.963251) can0 477#0600417C61001400
(1430319786.966567) can0 475#C9131C4945000000
(1430319786.966936) can0 306#1D00000000000000
(1430319786.967212) can0 294#00009CFFFA000000
(1430319786.967481) can0 270#E113000000000000
(1430319787.060647) can0 477#0700417C61001400
(1430319787.066477) can0 475#C7131C4945000000
(1430319787.066847) can0 306#1D00000000000000
(1430319787.067123) can0 294#00009CFFFA000000
(1430319787.067394) can0 270#E113000000000000
(1430319787.157042) can0 477#0700427C61001400
(1430319787.166495) can0 475#C7131C4945000000
(1430319787.166876) can0 306#1D00000000000000
(1430319787.167152) can0 294#00009CFFFA000000
(1430319787.167419) can0 270#E113000000000000
(1430319787.253995) can0 477#0700417C61001400
(1430319787.266462) can0 475#C3131C4945000000
(1430319787.266828) can0 306#1D00000000000000
(1430319787.267104) can0 294#00009CFFFA000000
(1430319787.267370) can0 270#E113000000000000
(1430319787.350988) can0 477#0700417C61001400
(1430319787.366423) can0 475#CF131C4945000000
(1430319787.366788) can0 306#1E00000000000000
(1430319787.367069) can0 294#00009CFFFA000000
(1430319787.367345) can0 270#E113000000000000
(1430319787.447958) can0 477#0700417C61001400
(1430319787.466403) can0 475#B4131C4945000000
(1430319787.466750) can0 306#1D00000000000000
(1430319787.467019) can0 294#00009CFFFA000000
(1430319787.467287) can0 270#E113000000000000
(1430319787.544910) can0 477#0700417C61001400
(1430319787.566578) can0 475#C5131C4945000000
(1430319787.566920) can0 306#1D00000000000000
(1430319787.567201) can0 294#00009CFFFA000000
(1430319787.567473) can0 270#E113000000000000
(1430319787.641881) can0 477#0700417C61001400
(1430319787.666587) can0 475#BD131C4945000000
(1430319787.666953) can0 306#1E00000000000000
(1430319787.667228) can0 270#E113000000000000
(1430319787.667448) can0 294#00009CFFFA000000
(1430319787.738990) can0 477#0700417C61001400
(1430319787.766550) can0 475#CB131C4945000000
(1430319787.766896) can0 306#1F00000000000000
(1430319787.767166) can0 294#00009CFFFA000000
(1430319787.767437) can0 270#E113000000000000
(1430319787.835825) can0 477#0700427C61001400
(1430319787.866520) can0 475#D1131C4945000000
(1430319787.866866) can0 306#1F00000000000000
(1430319787.867139) can0 294#00009CFFFA000000
(1430319787.867412) can0 270#E113000000000000
(1430319787.932915) can0 477#0600417C61001400
(1430319787.966475) can0 475#BC131C4945000000
(1430319787.966825) can0 306#1F00000000000000
(1430319787.967115) can0 294#00009CFFFA000000
(1430319787.967391) can0 270#E113000000000000
(1430319788.029758) can0 477#0700417C61001400
(1430319788.066471) can0 475#C9131C4945000000
(1430319788.066837) can0 306#1F00000000000000
(1430319788.067111) can0 294#00009CFFFA000000
(1430319788.067384) can0 270#E113000000000000
(1430319788.126723) can0 477#0700417C61001400
(1430319788.166418) can0 475#C7131C4945000000
(1430319788.166746) can0 306#1F00000000000000
(1430319788.167023) can0 294#00009CFFFA000000
(1430319788.167294) can0 270#E113000000000000
(1430319788.223706) can0 477#0700427C61001400
(1430319788.266261) can0 475#C3131C4945000000
(1430319788.266702) can0 306#1F00000000000000
(1430319788.266971) can0 294#00009CFFFA000000
(1430319788.267234) can0 270#E113000000000000
(1430319788.320691) can0 477#0700417C61001400
(1430319788.366240) can0 475#C3131C4945000000
(1430319788.366675) can0 306#1F00000000000000
(1430319788.366929) can0 294#00009CFFFA000000
(1430319788.367181) can0 270#E113000000000000
(1430319788.417571) can0 477#0700417C61001400
(1430319788.466381) can0 475#C3131C4945000000
(1430319788.466691) can0 306#1E00000000000000
(1430319788.466948) can0 294#00009CFFFA000000
(1430319788.467200) can0 270#E113000000000000
(1430319788.514575) can0 477#0700417C61001400
(1430319788.566135) can0 475#C5131C4945000000
(1430319788.566585) can0 306#1E00000000000000
(1430319788.566857) can0 294#00009CFFFA000000
(1430319788.567109) can0 270#E113000000000000
(1430319788.611567) can0 477#0700427C61001400
(1430319788.666312) can0 475#CB131C4945000000
(1430319788.666624) can0 306#1E00000000000000
(1430319788.666879) can0 294#00009CFFFA000000
(1430319788.667131) can0 270#E113000000000000
(1430319788.708564) can0 477#0600427C61001400
(1430319788.766284) can0 475#C7131C4945000000
(1430319788.766630) can0 306#2000000000000000
(1430319788.766886) can0 294#00009CFFFA000000
(1430319788.767133) can0 270#E113000000000000
(1430319788.805499) can0 477#0700417C61001400
(1430319788.866308) can0 475#C9131C4945000000
(1430319788.866620) can0 306#2000000000000000
(1430319788.866873) can0 294#00009CFFFA000000
(1430319788.867126) can0 270#E113000000000000
(1430319788.902427) can0 477#0700417C61001400
(1430319788.966178) can0 475#C3131C4945000000
(1430319788.966509) can0 306#2000000000000000
(1430319788.966769) can0 294#00009CFFFA000000
(1430319788.967036) can0 270#E113000000000000
(1430319788.999385) can0 477#0700417C61001400
(1430319789.067013) can0 294#00009CFFFA000000
(1430319789.067544) can0 270#E113000000000000
(1430319789.096397) can0 477#0700427C61001400
(1430319789.166387) can0 475#CB131C4945000000
(1430319789.166720) can0 306#1F00000000000000
(1430319789.166967) can0 294#00009CFFFA000000
(1430319789.167221) can0 270#E113000000000000
(1430319789.193339) can0 477#0700417C61001400
(1430319789.266417) can0 475#C1131C4945000000
(1430319789.266719) can0 306#1F00000000000000
(1430319789.266974) can0 294#00009CFFFA000000
(1430319789.267223) can0 270#E113000000000000
(1430319789.290318) can0 477#0700407C61001400
(1430319789.366366) can0 475#C7131C4945000000
(1430319789.366675) can0 306#1E00000000000000
(1430319789.366946) can0 294#00009CFFFA000000
(1430319789.367213) can0 270#E113000000000000
(1430319789.387298) can0 477#0700417C61001400
(1430319789.466422) can0 475#C5131C4945000000
(1430319789.466759) can0 306#1F00000000000000
(1430319789.467015) can0 294#00009CFFFA000000
(1430319789.467265) can0 270#E113000000000000
(1430319789.484245) can0 477#0700417C61001400
(1430319789.566300) can0 475#CB131C4945000000
(1430319789.566607) can0 306#1F00000000000000
(1430319789.566880) can0 294#00009CFFFA000000
(1430319789.567162) can0 270#E113000000000000
(1430319789.581243) can0 477#0600437C61001400
(1430319789.666250) can0 475#CF131C4945000000
(1430319789.666568) can0 306#1F00000000000000
(1430319789.666836) can0 294#00009CFFFA000000
(1430319789.667089) can0 270#E113000000000000
(1430319789.679462) can0 477#0700427C61001400
(1430319789.766409) can0 475#C9131C4945000000
(1430319789.766765) can0 306#2000000000000000
(1430319789.767043) can0 294#00009CFFFA000000
(1430319789.767313) can0 270#E113000000000000
(1430319789.775514) can0 477#0700417C61001400
(1430319789.866421) can0 475#BF131C4945000000
(1430319789.866794) can0 306#2000000000000000
(1430319789.867057) can0 294#00009CFFFA000000
(1430319789.867893) can0 270#E113000000000000
(1430319789.872805) can0 477#0700427C61001400
(1430319789.966614) can0 475#CD131C4945000000
(1430319789.966977) can0 306#2000000000000000
(1430319789.967232) can0 294#00009CFFFA000000
(1430319789.967484) can0 270#E113000000000000
(1430319789.969103) can0 477#0700427C61001400
(1430319790.066590) can0 475#CB131C4945000000
(1430319790.066929) can0 306#2000000000000000
(1430319790.067185) can0 294#00009CFFFA000000
(1430319790.067437) can0 270#E113000000000000
(1430319790.068512) can0 477#0700427C61001400
(1430319790.163822) can0 477#0700417C61001400
(1430319790.166536) can0 475#C7131C4945000000
(1430319790.166858) can0 306#2000000000000000
(1430319790.167112) can0 294#00009CFFFA000000
(1430319790.167364) can0 270#E113000000000000
(1430319790.260001) can0 477#0700427C61001400
(1430319790.266514) can0 475#D1131C4945000000
(1430319790.266832) can0 306#1F00000000000000
(1430319790.267084) can0 294#00009CFFFA000000
(1430319790.267334) can0 270#E113000000000000
(1430319790.356983) can0 477#0600427C61001400
(1430319790.366485) can0 475#C1131C4945000000
(1430319790.366818) can0 306#1F00000000000000
(1430319790.367075) can0 294#00009CFFFA000000
(1430319790.367327) can0 270#E113000000000000
(1430319790.453985) can0 477#0700427C61001400
(1430319790.466256) can0 475#CF131C4945000000
(1430319790.466595) can0 306#1F00000000000000
(1430319790.466863) can0 294#00009CFFFA000000
(1430319790.467146) can0 270#E113000000000000
(1430319790.550903) can0 477#0700437C61001400
(1430319790.566495) can0 475#C5131C4945000000
(1430319790.566805) can0 306#1F00000000000000
(1430319790.567081) can0 294#00009CFFFA000000
(1430319790.567368) can0 270#E113000000000000
(1430319790.647852) can0 477#0700427C61001400
(1430319790.666476) can0 475#C7131C4945000000
(1430319790.666926) can0 306#1F00000000000000
(1430319790.667180) can0 294#00009CFFFA000000
(1430319790.667430) can0 270#E113000000000000
(1430319790.744849) can0 477#0700427C61001400
(1430319790.766771) can0 306#1F00000000000000
(1430319790.767047) can0 475#C3131C4945000000
(1430319790.767433) can0 294#00009CFFFA000000
(1430319790.767639) can0 270#E113000000000000
(1430319790.841890) can0 477#0700427C61001400
(1430319790.866449) can0 475#C5131C4945000000
(1430319790.866896) can0 306#1E00000000000000
(1430319790.867152) can0 294#00009CFFFA000000
(1430319790.867404) can0 270#E113000000000000
(1430319790.938858) can0 477#0600427C61001400
(1430319790.966594) can0 475#C9131C4945000000
(1430319790.966928) can0 306#1E00000000000000
(1430319790.967199) can0 294#00009CFFFA000000
(1430319790.967466) can0 270#E113000000000000
(1430319791.035758) can0 477#0700427C61001400
(1430319791.066389) can0 475#C1131C4945000000
(1430319791.066678) can0 306#1D00000000000000
(1430319791.067251) can0 294#00009CFFFA000000
(1430319791.067537) can0 270#E113000000000000
(1430319791.132805) can0 477#0700427C61001400
(1430319791.166468) can0 475#C3131C4945000000
(1430319791.166797) can0 306#1D00000000000000
(1430319791.167056) can0 294#00009CFFFA000000
(1430319791.167306) can0 270#E113000000000000
(1430319791.229665) can0 477#0700427C61001400
(1430319791.266581) can0 475#BF131C4945000000
(1430319791.266867) can0 306#1D00000000000000
(1430319791.267122) can0 294#00009CFFFA000000
(1430319791.267373) can0 270#E113000000000000
(1430319791.326699) can0 477#0700417C61001400
(1430319791.366414) can0 475#C7131C4945000000
(1430319791.366723) can0 306#1D00000000000000
(1430319791.367008) can0 294#00009CFFFA000000
(1430319791.367264) can0 270#E113000000000000
(1430319791.423657) can0 477#0700427C61001400
(1430319791.466495) can0 475#C5131C4945000000
(1430319791.466780) can0 306#1D00000000000000
(1430319791.467034) can0 294#00009CFFFA000000
(1430319791.467281) can0 270#E113000000000000
(1430319791.520605) can0 477#0700427C61001400
(1430319791.566401) can0 475#D4131C4945000000
(1430319791.566717) can0 306#1D00000000000000
(1430319791.566989) can0 294#00009CFFFA000000
(1430319791.567256) can0 270#E113000000000000
(1430319791.617598) can0 477#0700437C61001400
(1430319791.666414) can0 475#C5131C4945000000
(1430319791.666726) can0 306#1D00000000000000
(1430319791.667086) can0 294#00009CFFFA000000
(1430319791.667369) can0 270#E113000000000000
(1430319791.714559) can0 477#0700437C61001400
(1430319791.766147) can0 475#BD131C4945000000
(1430319791.766441) can0 306#1D00000000000000
(1430319791.766800) can0 294#00009CFFFA000000
(1430319791.767076) can0 270#E113000000000000
(1430319791.812154) can0 477#0700437C61001400
(1430319791.866370) can0 475#BF131C4945000000
(1430319791.866738) can0 306#1D00000000000000
(1430319791.867011) can0 294#00009CFFFA000000
(1430319791.867280) can0 270#E113000000000000
(1430319791.908515) can0 477#0600427C61001400
(1430319791.966243) can0 475#CB131C4945000000
(1430319791.966554) can0 306#1D00000000000000
(1430319791.966815) can0 294#00009CFFFA000000
(1430319791.967085) can0 270#E113000000000000
(1430319792.005444) can0 477#0700437C61001400
(1430319792.066099) can0 475#C9131C4945000000
(1430319792.066411) can0 306#1C00000000000000
(1430319792.066773) can0 294#00009CFFFA000000
(1430319792.067024) can0 270#E113000000000000
(1430319792.102440) can0 477#0600437C61001400
(1430319792.166244) can0 475#C1131C4945000000
(1430319792.166563) can0 306#1C00000000000000
(1430319792.166832) can0 294#00009CFFFA000000
(1430319792.167093) can0 270#E113000000000000
(1430319792.199396) can0 477#0700427C61001400
(1430319792.266474) can0 475#C3131C4945000000
(1430319792.266828) can0 306#1D00000000000000
(1430319792.267145) can0 294#00009CFFFA000000
(1430319792.267419) can0 270#E113000000000000
(1430319792.296369) can0 477#0700437C61001400
(1430319792.366385) can0 475#BF131C4945000000
(1430319792.367545) can0 306#1D00000000000000
(1430319792.367846) can0 294#00009CFFFA000000
(1430319792.393332) can0 477#0700437C61001400
(1430319792.466337) can0 475#BD131C4945000000
(1430319792.466704) can0 306#1D00000000000000
(1430319792.466964) can0 294#00009CFFFA000000
(1430319792.467250) can0 270#E113000000000000
(1430319792.490296) can0 477#0600437C61001400
(1430319792.566397) can0 475#C3131C4945000000
(1430319792.566804) can0 306#1D00000000000000
(1430319792.567094) can0 294#00009CFFFA000000
(1430319792.567357) can0 270#E113000000000000
(1430319792.587270) can0 477#0700437C61001400
(1430319792.666292) can0 475#C5131C4945000000
(1430319792.666582) can0 306#1E00000000000000
(1430319792.666849) can0 294#00009CFFFA000000
(1430319792.667113) can0 270#E113000000000000
(1430319792.684287) can0 477#0600437C61001400
(1430319792.766262) can0 475#C5131C4945000000
(1430319792.766586) can0 306#1F00000000000000
(1430319792.766853) can0 294#00009CFFFA000000
(1430319792.767112) can0 270#E113000000000000
(1430319792.781209) can0 477#0700437C61001400
(1430319792.866243) can0 475#C1131C4945000000
(1430319792.866577) can0 306#1F00000000000000
(1430319792.866840) can0 294#00009CFFFA000000
(1430319792.867088) can0 270#E113000000000000
(1430319792.878177) can0 477#0700447C61001400
(1430319792.966717) can0 475#C3131C4945000000
(1430319792.967069) can0 306#1F00000000000000
(1430319792.967354) can0 294#00009CFFFA000000
(1430319792.967608) can0 270#E113000000000000
(1430319792.975156) can0 477#0700447C61001400
(1430319793.066741) can0 475#C7131C4945000000
(1430319793.067074) can0 306#1E00000000000000
(1430319793.067336) can0 294#00009CFFFA000000
(1430319793.067586) can0 270#E113000000000000
(1430319793.072533) can0 477#0700437C61001400
(1430319793.166656) can0 475#C9131C4945000000
(1430319793.167011) can0 306#1F00000000000000
(1430319793.167270) can0 294#00009CFFFA000000
(1430319793.167521) can0 270#E113000000000000
(1430319793.169626) can0 477#0700437C61001400
(1430319793.266037) can0 477#0700447C61001400
(1430319793.266785) can0 475#C9131C4945000000
(1430319793.267054) can0 306#1F00000000000000
(1430319793.267261) can0 294#00009CFFFA000000
(1430319793.267508) can0 270#E113000000000000
(1430319793.363019) can0 477#0700447C61001400
(1430319793.366597) can0 475#C5131C4945000000
(1430319793.366894) can0 306#1F00000000000000
(1430319793.367186) can0 294#00009CFFFA000000
(1430319793.367449) can0 270#E113000000000000
(1430319793.460233) can0 477#0700447C61001400
(1430319793.466604) can0 475#C7131C4945000000
(1430319793.466899) can0 306#1F00000000000000
(1430319793.467164) can0 294#00009CFFFA000000
(1430319793.467450) can0 270#E113000000000000
(1430319793.557011) can0 477#0700437C61001400
(1430319793.566758) can0 475#BC131C4945000000
(1430319793.567088) can0 306#1F00000000000000
(1430319793.567351) can0 294#00009CFFFA000000
(1430319793.567609) can0 270#E113000000000000
(1430319793.653918) can0 477#0700447C61001400
(1430319793.666721) can0 475#C7131C4945000000
(1430319793.667031) can0 306#1F00000000000000
(1430319793.667284) can0 294#00009CFFFA000000
(1430319793.667536) can0 270#E113000000000000
(1430319793.751055) can0 477#0600447C61001400
(1430319793.766700) can0 475#C9131C4945000000
(1430319793.767023) can0 306#1F00000000000000
(1430319793.767270) can0 294#00009CFFFA000000
(1430319793.767526) can0 270#E113000000000000
(1430319793.848512) can0 477#0700447C61001400
(1430319793.866726) can0 475#C3131C4945000000
(1430319793.867079) can0 306#1F00000000000000
(1430319793.867333) can0 294#00009CFFFA000000
(1430319793.868747) can0 270#E113000000000000
(1430319793.944877) can0 477#0600447C61001400
(1430319793.966649) can0 475#CB131C4945000000
(1430319793.966997) can0 306#1F00000000000000
(1430319793.967254) can0 294#00009CFFFA000000
(1430319793.967509) can0 270#E113000000000000
(1430319794.041814) can0 477#0700437C61001400
(1430319794.066632) can0 475#C3131C4945000000
(1430319794.066941) can0 306#1E00000000000000
(1430319794.067207) can0 294#00009CFFFA000000
(1430319794.067462) can0 270#E113000000000000
(1430319794.138938) can0 477#0700447C61001400
(1430319794.166582) can0 475#C7131C4945000000
(1430319794.166903) can0 306#1E00000000000000
(1430319794.167177) can0 294#00009CFFFA000000
(1430319794.167434) can0 270#E113000000000000
(1430319794.235744) can0 477#0600457C61001400
(1430319794.266580) can0 475#C7131C4945000000
(1430319794.266875) can0 306#1E00000000000000
(1430319794.267132) can0 294#00009CFFFA000000
(1430319794.267379) can0 270#E113000000000000
(1430319794.332711) can0 477#0700447C61001400
(1430319794.366502) can0 475#C5131C4945000000
(1430319794.366823) can0 306#1E00000000000000
(1430319794.367108) can0 294#00009CFFFA000000
(1430319794.367359) can0 270#E113000000000000
(1430319794.429669) can0 477#0700447C61001400
(1430319794.466561) can0 475#BF131C4945000000
(1430319794.466848) can0 306#1E00000000000000
(1430319794.467102) can0 294#00009CFFFA000000
(1430319794.467352) can0 270#E113000000000000
(1430319794.526633) can0 477#0600447C61001400
(1430319794.566489) can0 475#C7131C4945000000
(1430319794.566801) can0 306#1E00000000000000
(1430319794.567081) can0 294#00009CFFFA000000
(1430319794.567359) can0 270#E113000000000000
(1430319794.623614) can0 477#0700457C61001400
(1430319794.666389) can0 475#C7131C4945000000
(1430319794.666713) can0 306#1E00000000000000
(1430319794.666972) can0 294#00009CFFFA000000
(1430319794.667223) can0 270#E213000000000000
(1430319794.720630) can0 477#0600447C61001400
(1430319794.767129) can0 475#C5131C4945000000
(1430319794.767409) can0 270#E213000000000000
(1430319794.817555) can0 477#0700447C61001400
(1430319794.866388) can0 475#C9131C4945000000
(1430319794.866692) can0 306#1E00000000000000
(1430319794.866942) can0 294#00009CFFFA000000
(1430319794.867193) can0 270#E113000000000000
(1430319794.914507) can0 477#0600457C61001400
(1430319794.966603) can0 475#C7131C4945000000
(1430319794.966975) can0 306#1E00000000000000
(1430319794.967256) can0 270#E213000000000000
(1430319794.967480) can0 294#00009CFFFA000000
(1430319795.011498) can0 477#0700447C61001400
(1430319795.066368) can0 475#CF131C4945000000
(1430319795.066682) can0 306#1F00000000000000
(1430319795.066938) can0 294#00009CFFFA000000
(1430319795.067191) can0 270#E213000000000000
(1430319795.108492) can0 477#0700447C61001400
(1430319795.166258) can0 475#C3131D4945000000
(1430319795.166577) can0 306#1F00000000000000
(1430319795.166839) can0 294#00009CFFFA000000
(1430319795.167095) can0 270#E113000000000000
(1430319795.205458) can0 477#0700447C61001400
(1430319795.266322) can0 475#C3131C4945000000
(1430319795.266643) can0 306#1F00000000000000
(1430319795.266906) can0 294#00009CFFFA000000
(1430319795.267155) can0 270#E113000000000000
(1430319795.302403) can0 477#0700447C61001400
(1430319795.366227) can0 475#C1131C4945000000
(1430319795.366534) can0 306#1E00000000000000
(1430319795.366789) can0 294#00009CFFFA000000
(1430319795.367039) can0 270#E113000000000000
(1430319795.399353) can0 477#0600457C61001400
(1430319795.466432) can0 475#C5131D4945000000
(1430319795.466742) can0 306#1E00000000000000
(1430319795.466996) can0 294#00009CFFFA000000
(1430319795.467248) can0 270#E213000000000000
(1430319795.496340) can0 477#0600457C61001400
(1430319795.566432) can0 475#C3131D4945000000
(1430319795.566749) can0 306#1F00000000000000
(1430319795.567014) can0 294#00009CFFFA000000
(1430319795.567275) can0 270#E113000000000000
(1430319795.593305) can0 477#0600447C61001400
(1430319795.666187) can0 475#C1131C4945000000
(1430319795.666637) can0 306#1E00000000000000
(1430319795.666906) can0 294#00009CFFFA000000
(1430319795.667165) can0 270#E113000000000000
(1430319795.690440) can0 477#0700447C61001400
(1430319795.766325) can0 475#C7131C4945000000
(1430319795.766626) can0 306#1E00000000000000
(1430319795.766876) can0 294#00009CFFFA000000
(1430319795.767124) can0 270#E113000000000000
(1430319795.787267) can0 477#0700447C61001400
(1430319795.866334) can0 475#C3131C4945000000
(1430319795.866898) can0 306#1E00000000000000
(1430319795.867131) can0 294#00009CFFFA000000
(1430319795.884229) can0 477#0700447C61001400
(1430319795.966266) can0 475#D2131C4945000000
(1430319795.966604) can0 306#1E00000000000000
(1430319795.966863) can0 294#00009CFFFA000000
(1430319795.967109) can0 270#E113000000000000
(1430319795.981236) can0 477#0700447C61001400
(1430319796.066486) can0 475#CB131C4945000000
(1430319796.066828) can0 306#1E00000000000000
(1430319796.067099) can0 294#00009CFFFA000000
(1430319796.067351) can0 270#E113000000000000
(1430319796.078153) can0 477#0700457C61001400
(1430319796.166248) can0 475#C9131C4945000000
(1430319796.166716) can0 306#1E00000000000000
(1430319796.166973) can0 294#00009CFFFA000000
(1430319796.167239) can0 270#E213000000000000
(1430319796.175137) can0 477#0700447C61001400
(1430319796.266732) can0 475#CB131C4945000000
(1430319796.267036) can0 306#1E00000000000000
(1430319796.267303) can0 294#00009CFFFA000000
(1430319796.267573) can0 270#E213000000000000
(1430319796.272173) can0 477#0700447C61001400
(1430319796.366597) can0 475#C7131C4945000000
(1430319796.366926) can0 306#1D00000000000000
(1430319796.367184) can0 294#00009CFFFA000000
(1430319796.367439) can0 270#E113000000000000
(1430319796.370365) can0 477#0700447C61001400
(1430319796.466034) can0 477#0700447C61001400
(1430319796.466662) can0 475#C5131C4945000000
(1430319796.466963) can0 306#1D00000000000000
(1430319796.467227) can0 294#00009CFFFA000000
(1430319796.467491) can0 270#E113000000000000
(1430319796.564259) can0 477#0700457C61001400
(1430319796.566556) can0 475#BF131C4945000000
(1430319796.566863) can0 306#1D00000000000000
(1430319796.567126) can0 294#00009CFFFA000000
(1430319796.567376) can0 270#E113000000000000
(1430319796.659971) can0 477#0700447C61001400
(1430319796.666571) can0 475#C5131C4945000000
(1430319796.666996) can0 306#1D00000000000000
(1430319796.667262) can0 294#00009CFFFA000000
(1430319796.667537) can0 270#E113000000000000
(1430319796.756905) can0 477#0700447C61001400
(1430319796.766507) can0 475#CD131C4945000000
(1430319796.766823) can0 306#1D00000000000000
(1430319796.767073) can0 294#00009CFFFA000000
(1430319796.767322) can0 270#E113000000000000
(1430319796.853944) can0 477#0700457C61001400
(1430319796.866533) can0 475#CF131C4945000000
(1430319796.866841) can0 306#1D00000000000000
(1430319796.867108) can0 294#00009CFFFA000000
(1430319796.867384) can0 270#E113000000000000
(1430319796.950886) can0 477#0700457C61001400
(1430319796.966499) can0 475#BF131C4945000000
(1430319796.966946) can0 306#1D00000000000000
(1430319796.967203) can0 294#00009CFFFA000000
(1430319796.967450) can0 270#E213000000000000
(1430319797.047889) can0 477#0700457C61001400
(1430319797.066655) can0 475#CD131C4945000000
(1430319797.067014) can0 306#1E00000000000000
(1430319797.067271) can0 294#00009CFFFA000000
(1430319797.067524) can0 270#E113000000000000
(1430319797.144833) can0 477#0700457C61001400
(1430319797.166708) can0 475#BD131D4945000000
(1430319797.167023) can0 306#1E00000000000000
(1430319797.167300) can0 294#00009CFFFA000000
(1430319797.167552) can0 270#E113000000000000
(1430319797.241815) can0 477#0700457C61001400
(1430319797.266632) can0 475#C3131C4945000000
(1430319797.266928) can0 306#1E00000000000000
(1430319797.267181) can0 294#00009CFFFA000000
(1430319797.267432) can0 270#E113000000000000
(1430319797.338846) can0 477#0700457C61001400
(1430319797.366559) can0 475#C5131D4945000000
(1430319797.366872) can0 306#1F00000000000000
(1430319797.367126) can0 294#00009CFFFA000000
(1430319797.367376) can0 270#E213000000000000
(1430319797.435767) can0 477#0700447C61001400
(1430319797.466640) can0 475#C5131C4945000000
(1430319797.466957) can0 306#1F00000000000000
(1430319797.467214) can0 294#00009CFFFA000000
(1430319797.467742) can0 270#E213000000000000
(1430319797.532695) can0 477#0600457C61001400
(1430319797.566503) can0 475#C5131C4945000000
(1430319797.566829) can0 306#1F00000000000000
(1430319797.567091) can0 294#00009CFFFA000000
(1430319797.567367) can0 270#E113000000000000
(1430319797.629831) can0 477#0700457C61001400
(1430319797.666450) can0 475#CD131C4945000000
(1430319797.666761) can0 306#1F00000000000000
(1430319797.667028) can0 294#00009CFFFA000000
(1430319797.667278) can0 270#E213000000000000
(1430319797.726649) can0 477#0600457C61001400
(1430319797.766467) can0 475#C7131C4945000000
(1430319797.766773) can0 306#1F00000000000000
(1430319797.767034) can0 294#00009CFFFA000000
(1430319797.767285) can0 270#E213000000000000
(1430319797.823571) can0 477#0700467C61001400
(1430319797.866485) can0 475#C7131D4945000000
(1430319797.866796) can0 306#1F00000000000000
(1430319797.867078) can0 294#00009CFFFA000000
(1430319797.867330) can0 270#E113000000000000
(1430319797.920564) can0 477#0700457C61001400
(1430319797.966431) can0 475#C1131C4945000000
(1430319797.966762) can0 306#1F00000000000000
(1430319797.967045) can0 294#00009CFFFA000000
(1430319797.967297) can0 270#E213000000000000
(1430319798.017535) can0 477#0600457C61001400
(1430319798.114533) can0 477#0600457C61001400
(1430319798.166366) can0 475#BD131C4945000000
(1430319798.166687) can0 306#1F00000000000000
(1430319798.166959) can0 294#00009CFFFA000000
(1430319798.167233) can0 270#E213000000000000
(1430319798.211494) can0 477#0700457C61001400
(1430319798.266382) can0 475#C9131D4945000000
(1430319798.266669) can0 306#1F00000000000000
(1430319798.266954) can0 294#00009CFFFA000000
(1430319798.267207) can0 270#E213000000000000
(1430319798.308440) can0 477#0700457C61001400
(1430319798.366303) can0 475#C1131C4945000000
(1430319798.366616) can0 306#1F00000000000000
(1430319798.366884) can0 294#00009CFFFA000000
(1430319798.367148) can0 270#E213000000000000
(1430319798.405500) can0 477#0600457C61001400
(1430319798.466303) can0 475#C5131C4945000000
(1430319798.466608) can0 306#1F00000000000000
(1430319798.466884) can0 294#00009CFFFA000000
(1430319798.467140) can0 270#E213000000000000
(1430319798.502361) can0 477#0600457C61001400
(1430319798.566441) can0 475#CD131C4945000000
(1430319798.566768) can0 306#1E00000000000000
(1430319798.567019) can0 294#00009CFFFA000000
(1430319798.567275) can0 270#E113000000000000
(1430319798.599365) can0 477#0700447C61001400
(1430319798.666422) can0 475#C9131C4945000000
(1430319798.666744) can0 306#1E00000000000000
(1430319798.666996) can0 294#00009CFFFA000000
(1430319798.667245) can0 270#E113000000000000
(1430319798.696317) can0 477#0600447C61001400
(1430319798.766433) can0 475#C3131C4945000000
(1430319798.766750) can0 306#1E00000000000000
(1430319798.767022) can0 294#00009CFFFA000000
(1430319798.767289) can0 270#E113000000000000
(1430319798.793385) can0 477#0600457C61001400
(1430319798.866389) can0 475#CD131D4945000000
(1430319798.866679) can0 306#1E00000000000000
(1430319798.866931) can0 294#00009CFFFA000000
(1430319798.867183) can0 270#E213000000000000
(1430319798.890280) can0 477#0700447C61001400
(1430319798.966370) can0 475#C5131C4945000000
(1430319798.966699) can0 306#1E00000000000000
(1430319798.966978) can0 294#00009CFFFA000000
(1430319798.967234) can0 270#E213000000000000
(1430319798.987239) can0 477#0600447C61001400
(1430319799.066382) can0 475#CB131C4945000000
(1430319799.066686) can0 306#1D00000000000000
(1430319799.066939) can0 294#00009CFFFA000000
(1430319799.067146) can0 270#E213000000000000
(1430319799.084207) can0 477#0600467C61001400
(1430319799.166333) can0 475#D1131C4945000000
(1430319799.166767) can0 306#1D00000000000000
(1430319799.167020) can0 294#00009CFFFA000000
(1430319799.167274) can0 270#E213000000000000
(1430319799.181155) can0 477#0600457C61001400
(1430319799.266314) can0 475#C3131C4945000000
(1430319799.266613) can0 306#1D00000000000000
(1430319799.266887) can0 294#00009CFFFA000000
(1430319799.267131) can0 270#E213000000000000
(1430319799.278115) can0 477#0600447C61001400
(1430319799.366680) can0 475#CB131C4945000000
(1430319799.367260) can0 306#1E00000000000000
(1430319799.367492) can0 294#00009CFFFA000000
(1430319799.375084) can0 477#0700457C61001400
(1430319799.466691) can0 475#D4131C4945000000
(1430319799.467013) can0 306#1E00000000000000
(1430319799.467263) can0 294#00009CFFFA000000
(1430319799.467521) can0 270#E213000000000000
(1430319799.472091) can0 477#0600447C61001400
(1430319799.566666) can0 475#D2131C4945000000
(1430319799.566980) can0 306#1D00000000000000
(1430319799.567248) can0 294#00009CFFFA000000
(1430319799.567510) can0 270#E213000000000000
(1430319799.569286) can0 477#0700457C61001400
(1430319799.666575) can0 475#CD131C4945000000
(1430319799.666887) can0 306#1D00000000000000
(1430319799.667144) can0 294#00009CFFFA000000
(1430319799.667393) can0 477#0700457C61001400
(1430319799.667642) can0 270#E213000000000000
(1430319799.762952) can0 477#0700467C61001400
(1430319799.766642) can0 475#C9131C4945000000
(1430319799.766959) can0 306#1D00000000000000
(1430319799.767228) can0 294#00009CFFFA000000
(1430319799.767486) can0 270#E213000000000000
(1430319799.859948) can0 477#0700457C61001400
(1430319799.866583) can0 475#C9131C4945000000
(1430319799.866914) can0 306#1D00000000000000
(1430319799.867200) can0 294#00009CFFFA000000
(1430319799.867486) can0 270#E213000000000000
(1430319799.956914) can0 477#0700457C61001400
(1430319799.966517) can0 475#BA131C4945000000
(1430319799.966858) can0 306#1D00000000000000
(1430319799.967109) can0 294#00009CFFFA000000
(1430319799.967357) can0 270#E213000000000000
(1430319800.053915) can0 477#0600457C61001400
(1430319800.066435) can0 475#C1131C4945000000
(1430319800.066754) can0 306#1D00000000000000
(1430319800.067032) can0 294#00009CFFFA000000
(1430319800.067285) can0 270#E213000000000000
(1430319800.150870) can0 477#0700467C61001400
(1430319800.166880) can0 475#BF131C4945000000
(1430319800.167225) can0 306#1D00000000000000
(1430319800.167519) can0 294#00009CFFFA000000
(1430319800.167782) can0 270#E213000000000000
(1430319800.247886) can0 477#0700457C61001400
(1430319800.266768) can0 475#B8131C4945000000
(1430319800.267081) can0 306#1C00000000000000
(1430319800.267334) can0 294#00009CFFFA000000
(1430319800.267583) can0 270#E213000000000000
(1430319800.344770) can0 477#0700457C61001400
(1430319800.366648) can0 475#D1131C4945000000
(1430319800.367000) can0 306#1D00000000000000
(1430319800.367250) can0 294#00009CFFFA000000
(1430319800.367497) can0 270#E213000000000000
(1430319800.441801) can0 477#0700457C61001400
(1430319800.466670) can0 475#D2131C4945000000
(1430319800.467130) can0 306#1E00000000000000
(1430319800.467403) can0 294#00009CFFFA000000
(1430319800.467658) can0 270#E213000000000000
(1430319800.538807) can0 477#0700457C61001400
(1430319800.566623) can0 475#C1131D4945000000
(1430319800.566938) can0 306#1F00000000000000
(1430319800.567203) can0 294#00009CFFFA000000
(1430319800.567465) can0 270#E213000000000000
(1430319800.635734) can0 477#0700467C61001400
(1430319800.666553) can0 475#CB131D4945000000
(1430319800.666865) can0 306#1F00000000000000
(1430319800.667138) can0 294#00009CFFFA000000
(1430319800.667389) can0 270#E213000000000000
(1430319800.732681) can0 477#0700457C61001400
(1430319800.766476) can0 475#C3131D4945000000
(1430319800.766778) can0 306#1F00000000000000
(1430319800.767042) can0 294#00009CFFFA000000
(1430319800.767302) can0 270#E213000000000000
(1430319800.829748) can0 477#0600467C61001400
(1430319800.866334) can0 475#C3131C4945000000
(1430319800.866721) can0 306#1E00000000000000
(1430319800.866987) can0 294#00009CFFFA000000
(1430319800.867256) can0 270#E213000000000000
(1430319800.926627) can0 477#0700457C61001400
(1430319800.966483) can0 475#C3131D4945000000
(1430319800.966813) can0 306#1D00000000000000
(1430319800.967073) can0 294#00009CFFFA000000
(1430319800.967337) can0 270#E213000000000000
(1430319801.023589) can0 477#0700467C61001400
(1430319801.066456) can0 475#C1131D4945000000
(1430319801.066937) can0 306#1C00000000000000
(1430319801.067200) can0 294#00009CFFFA000000
(1430319801.067452) can0 270#E213000000000000
(1430319801.120553) can0 477#0600467C61001400
(1430319801.166387) can0 475#CF131D4945000000
(1430319801.166732) can0 306#1D00000000000000
(1430319801.166989) can0 294#00009CFFFA000000
(1430319801.167235) can0 270#E213000000000000
(1430319801.217472) can0 477#0700457C61001400
(1430319801.266450) can0 475#C7131D4945000000
(1430319801.266775) can0 306#1D00000000000000
(1430319801.267030) can0 294#00009CFFFA000000
(1430319801.267277) can0 270#E213000000000000
(1430319801.314485) can0 477#0700467C61001400
(1430319801.366358) can0 475#CD131C4945000000
(1430319801.366833) can0 306#1D00000000000000
(1430319801.367089) can0 294#00009CFFFA000000
(1430319801.367338) can0 270#E213000000000000
(1430319801.411456) can0 477#0700457C61001400
(1430319801.466366) can0 475#CD131C4945000000
(1430319801.466669) can0 306#1D00000000000000
(1430319801.466934) can0 294#00009CFFFA000000
(1430319801.467188) can0 270#E213000000000000
(1430319801.508618) can0 477#0700457C61001400
(1430319801.566508) can0 475#CB131D4945000000
(1430319801.566829) can0 306#1D00000000000000
(1430319801.567086) can0 294#00009CFFFA000000
(1430319801.567337) can0 270#E213000000000000
(1430319801.605500) can0 477#0700467C61001400
(1430319801.666499) can0 475#C9131D4945000000
(1430319801.666814) can0 306#1D00000000000000
(1430319801.667085) can0 294#00009CFFFA000000
(1430319801.667356) can0 270#E213000000000000
(1430319801.702392) can0 477#0700457C61001400
(1430319801.766505) can0 475#CB131D4945000000
(1430319801.766822) can0 306#1C00000000000000
(1430319801.767113) can0 294#00009CFFFA000000
(1430319801.767363) can0 270#E213000000000000
(1430319801.799368) can0 477#0600467C61001400
(1430319801.866484) can0 475#CB131D4945000000
(1430319801.866784) can0 306#1D00000000000000
(1430319801.867049) can0 294#00009CFFFA000000
(1430319801.867320) can0 270#E213000000000000
(1430319801.896302) can0 477#0700457C61001400
(1430319801.966413) can0 475#D1131C4945000000
(1430319801.966741) can0 306#1D00000000000000
(1430319801.967018) can0 294#00009CFFFA000000
(1430319801.967290) can0 270#E213000000000000
(1430319801.993284) can0 477#0700457C61001400
(1430319802.066465) can0 475#C3131C4945000000
(1430319802.066811) can0 306#1E00000000000000
(1430319802.067071) can0 294#00009CFFFA000000
(1430319802.067317) can0 270#E213000000000000
(1430319802.090236) can0 477#0700467C61001400
(1430319802.166368) can0 475#C9131C4945000000
(1430319802.166812) can0 306#1E00000000000000
(1430319802.167070) can0 294#00009CFFFA000000
(1430319802.167318) can0 270#E213000000000000
(1430319802.187190) can0 477#0700467C61001400
(1430319802.266360) can0 475#C7131D4945000000
(1430319802.266736) can0 306#1D00000000000000
(1430319802.266992) can0 294#00009CFFFA000000
(1430319802.267238) can0 270#E213000000000000
(1430319802.284160) can0 477#0700467C61001400
(1430319802.366304) can0 475#C3131D4945000000
(1430319802.366647) can0 306#1D00000000000000
(1430319802.366920) can0 294#00009CFFFA000000
(1430319802.367171) can0 270#E213000000000000
(1430319802.381507) can0 477#0700457C61001400
(1430319802.466785) can0 475#CD131D4945000000
(1430319802.467091) can0 306#1D00000000000000
(1430319802.467364) can0 294#00009CFFFA000000
(1430319802.467622) can0 270#E213000000000000
(1430319802.478089) can0 477#0600467C61001400
(1430319802.566768) can0 475#CB131C4945000000
(1430319802.567106) can0 306#1E00000000000000
(1430319802.567365) can0 294#00009CFFFA000000
(1430319802.567613) can0 270#E213000000000000
(1430319802.575085) can0 477#0700467C61001400
(1430319802.666708) can0 475#C3131D4945000000
(1430319802.667028) can0 306#1E00000000000000
(1430319802.667298) can0 294#00009CFFFA000000
(1430319802.667559) can0 270#E213000000000000
(1430319802.672276) can0 477#0700467C61001400
(1430319802.766652) can0 475#BA131D4945000000
(1430319802.766973) can0 306#1E00000000000000
(1430319802.767241) can0 294#00009CFFFA000000
(1430319802.767518) can0 270#E213000000000000
(1430319802.769032) can0 477#0700467C61001400
(1430319802.866683) can0 475#C3131D4945000000
(1430319802.867014) can0 306#1E00000000000000
(1430319802.867273) can0 294#00009CFFFA000000
(1430319802.867531) can0 477#0600477C61001400
(1430319802.868195) can0 270#E213000000000000
(1430319802.963369) can0 477#0700467C61001400
(1430319802.966604) can0 475#CB131D4945000000
(1430319802.966902) can0 306#1F00000000000000
(1430319802.967191) can0 294#00009CFFFA000000
(1430319802.967456) can0 270#E213000000000000
(1430319803.059921) can0 477#0700467C61001400
(1430319803.066640) can0 475#C5131C4945000000
(1430319803.066934) can0 306#1F00000000000000
(1430319803.067203) can0 294#00009CFFFA000000
(1430319803.067451) can0 270#E213000000000000
(1430319803.156903) can0 477#0700467C61001400
(1430319803.166555) can0 475#C1131C4945000000
(1430319803.166993) can0 306#1F00000000000000
(1430319803.167265) can0 294#00009CFFFA000000
(1430319803.167517) can0 270#E213000000000000
(1430319803.254057) can0 477#0600467C61001400
(1430319803.266648) can0 475#C9131C4945000000
(1430319803.266985) can0 306#1F00000000000000
(1430319803.267381) can0 294#00009CFFFA000000
(1430319803.267592) can0 270#E213000000000000
(1430319803.350847) can0 477#0600467C61001400
(1430319803.366705) can0 475#BD131C4945000000
(1430319803.367040) can0 306#1F00000000000000
(1430319803.367298) can0 294#00009CFFFA000000
(1430319803.367545) can0 270#E213000000000000
(1430319803.448009) can0 477#0700477C61001400
(1430319803.466739) can0 475#D1131D4945000000
(1430319803.467038) can0 306#1E00000000000000
(1430319803.467299) can0 294#00009CFFFA000000
(1430319803.467646) can0 270#E213000000000000
(1430319803.544792) can0 477#0700467C61001400
(1430319803.566640) can0 475#C7131C4945000000
(1430319803.566963) can0 306#1E00000000000000
(1430319803.567220) can0 294#00009CFFFA000000
(1430319803.567470) can0 270#E213000000000000
(1430319803.641754) can0 477#0700467C61001400
(1430319803.666603) can0 475#C5131C4945000000
(1430319803.666929) can0 306#1E00000000000000
(1430319803.667186) can0 294#00009CFFFA000000
(1430319803.667433) can0 270#E213000000000000
(1430319803.738799) can0 477#0600467C61001400
(1430319803.766584) can0 475#C9131C4945000000
(1430319803.766913) can0 306#1F00000000000000
(1430319803.767167) can0 294#00009CFFFA000000
(1430319803.767415) can0 270#E213000000000000
(1430319803.835706) can0 477#0600457C61001400
(1430319803.866606) can0 475#C9131C4945000000
(1430319803.866912) can0 306#1E00000000000000
(1430319803.867198) can0 294#00009CFFFA000000
(1430319803.867452) can0 270#E213000000000000
(1430319803.932670) can0 477#0600477C61001400
(1430319803.966551) can0 475#C1131D4945000000
(1430319803.966873) can0 306#1E00000000000000
(1430319803.967151) can0 294#00009CFFFA000000
(1430319803.967424) can0 270#E213000000000000
(1430319804.029633) can0 477#0700467C61001400
(1430319804.066513) can0 475#C1131D4945000000
(1430319804.066819) can0 306#1E00000000000000
(1430319804.067074) can0 294#00009CFFFA000000
(1430319804.067326) can0 270#E213000000000000
(1430319804.126577) can0 477#0700457C61001400
(1430319804.166514) can0 475#BD131D4945000000
(1430319804.166963) can0 306#1F00000000000000
(1430319804.167220) can0 294#00009CFFFA000000
(1430319804.167469) can0 270#E213000000000000
(1430319804.223611) can0 477#0600467C61001400
(1430319804.266424) can0 475#C1131C4945000000
(1430319804.266736) can0 306#1E00000000000000
(1430319804.266996) can0 294#00009CFFFA000000
(1430319804.267249) can0 270#E213000000000000
(1430319804.320522) can0 477#0700477C61001400
(1430319804.366407) can0 475#C5131C4945000000
(1430319804.366734) can0 306#1E00000000000000
(1430319804.366991) can0 294#00009CFFFA000000
(1430319804.367244) can0 270#E213000000000000
(1430319804.417494) can0 477#0700477C61001400
(1430319804.466406) can0 475#C1131D4945000000
(1430319804.466705) can0 306#1E00000000000000
(1430319804.466995) can0 294#00009CFFFA000000
(1430319804.467257) can0 270#E213000000000000
(1430319804.514442) can0 477#0700467C61001400
(1430319804.566309) can0 475#C5131D4945000000
(1430319804.566642) can0 306#1E00000000000000
(1430319804.566902) can0 294#00009CFFFA000000
(1430319804.567149) can0 270#E213000000000000
(1430319804.611436) can0 477#0700467C61001400
(1430319804.666327) can0 475#C7131D4945000000
(1430319804.666765) can0 306#1E00000000000000
(1430319804.667310) can0 294#00009CFFFA000000
(1430319804.667543) can0 270#E213000000000000
(1430319804.708382) can0 477#0700477C61001400
(1430319804.766513) can0 475#C3131D4945000000
(1430319804.766833) can0 306#1E00000000000000
(1430319804.767097) can0 294#00009CFFFA000000
(1430319804.767347) can0 270#E213000000000000
(1430319804.805403) can0 477#0600477C61001400
(1430319804.866551) can0 475#CB131C4945000000
(1430319804.866850) can0 306#1E00000000000000
(1430319804.867104) can0 294#00009CFFFA000000
(1430319804.867357) can0 270#E213000000000000
(1430319804.902377) can0 477#0600467C61001400
(1430319804.966451) can0 475#C7131D4945000000
(1430319804.966799) can0 306#1E00000000000000
(1430319804.967058) can0 294#00009CFFFA000000
(1430319804.967307) can0 270#E213000000000000
(1430319804.999323) can0 477#0700477C61001400
(1430319805.066483) can0 475#C7131D4945000000
(1430319805.066805) can0 306#1E00000000000000
(1430319805.067066) can0 294#00009CFFFA000000
(1430319805.067269) can0 270#E213000000000000
(1430319805.096238) can0 477#0700477C61001400
(1430319805.166387) can0 475#C9131D4945000000
(1430319805.166723) can0 306#1F00000000000000
(1430319805.166975) can0 294#00009CFFFA000000
(1430319805.167222) can0 270#E213000000000000
(1430319805.193262) can0 477#0600477C61001400
(1430319805.266398) can0 475#C7131D4945000000
(1430319805.266723) can0 306#1F00000000000000
(1430319805.266982) can0 294#00009CFFFA000000
(1430319805.267237) can0 270#E213000000000000
(1430319805.290345) can0 477#0700477C61001400
(1430319805.366349) can0 475#C5131C4945000000
(1430319805.366693) can0 306#1E00000000000000
(1430319805.366954) can0 294#00009CFFFA000000
(1430319805.367211) can0 270#E213000000000000
(1430319805.387345) can0 477#0700477C61001400
(1430319805.466388) can0 475#C5131C4945000000
(1430319805.466704) can0 306#1E00000000000000
(1430319805.466969) can0 294#00009CFFFA000000
(1430319805.467223) can0 270#E213000000000000
(1430319805.484154) can0 477#0700477C61001400
(1430319805.566327) can0 475#C1131D4945000000
(1430319805.566733) can0 306#1E00000000000000
(1430319805.567015) can0 294#00009CFFFA000000
(1430319805.567274) can0 270#E213000000000000
(1430319805.582191) can0 477#0700477C61001400
(1430319805.666704) can0 475#C5131D4945000000
(1430319805.667061) can0 306#1E00000000000000
(1430319805.667314) can0 294#00009CFFFA000000
(1430319805.667569) can0 270#E213000000000000
(1430319805.678126) can0 477#0700477C61001400
(1430319805.766668) can0 475#C7131D4945000000
(1430319805.766998) can0 306#1E00000000000000
(1430319805.767253) can0 294#00009CFFFA000000
(1430319805.767514) can0 270#E213000000000000
(1430319805.775087) can0 477#0600477C61001400
(1430319805.866453) can0 475#C9131C4945000000
(1430319805.866751) can0 306#1E00000000000000
(1430319805.867029) can0 294#00009CFFFA000000
(1430319805.867284) can0 270#E213000000000000
(1430319805.872025) can0 477#0700477C61001400
(1430319805.966442) can0 475#C7131C4945000000
(1430319805.966766) can0 306#1D00000000000000
(1430319805.967027) can0 294#00009CFFFA000000
(1430319805.967277) can0 270#E213000000000000
(1430319805.969815) can0 477#0700477C61001400
(1430319806.066001) can0 477#0600477C61001400
(1430319806.066736) can0 475#BD131D4945000000
(1430319806.066998) can0 306#1D00000000000000
(1430319806.067204) can0 294#00009CFFFA000000
(1430319806.067452) can0 270#E213000000000000
(1430319806.163896) can0 477#0700487C61001400
(1430319806.166554) can0 475#CF131C4945000000
(1430319806.166870) can0 306#1D00000000000000
(1430319806.167125) can0 294#00009CFFFA000000
(1430319806.167371) can0 270#E213000000000000
(1430319806.259951) can0 477#0600467C61001400
(1430319806.266783) can0 475#CF131D4945000000
(1430319806.267081) can0 306#1D00000000000000
(1430319806.267329) can0 294#00009CFFFA000000
(1430319806.267582) can0 270#E213000000000000
(1430319806.356935) can0 477#0700477C61001400
(1430319806.366772) can0 475#CD131D4945000000
(1430319806.367139) can0 306#1E00000000000000
(1430319806.367420) can0 294#00009CFFFA000000
(1430319806.367686) can0 270#E213000000000000
(1430319806.453839) can0 477#0600477C61001400
(1430319806.466750) can0 475#C9131D4945000000
(1430319806.467090) can0 306#1E00000000000000
(1430319806.467342) can0 294#00009CFFFA000000
(1430319806.467593) can0 270#E213000000000000
(1430319806.550846) can0 477#0700477C61001400
(1430319806.566665) can0 475#C5131D4945000000
(1430319806.566986) can0 306#1E00000000000000
(1430319806.567247) can0 294#00009CFFFA000000
(1430319806.567501) can0 270#E213000000000000
(1430319806.647834) can0 477#0700477C61001400
(1430319806.666615) can0 475#C5131D4945000000
(1430319806.667165) can0 306#1E00000000000000
(1430319806.667401) can0 294#00009CFFFA000000
(1430319806.667660) can0 270#E213000000000000
(1430319806.744782) can0 477#0700477C61001400
(1430319806.766590) can0 475#C5131C4945000000
(1430319806.766939) can0 306#1E00000000000000
(1430319806.767199) can0 294#00009CFFFA000000
(1430319806.767443) can0 270#E213000000000000
(1430319806.841738) can0 477#0700477C61001400
(1430319806.866683) can0 475#CF131D4945000000
(1430319806.866971) can0 306#1D00000000000000
(1430319806.867224) can0 294#00009CFFFA000000
(1430319806.867472) can0 270#E213000000000000
(1430319806.938777) can0 477#0600477C61001400
(1430319806.966400) can0 475#BC131D4945000000
(1430319806.966853) can0 306#1E00000000000000
(1430319806.967111) can0 294#00009CFFFA000000
(1430319806.967359) can0 270#E213000000000000
(1430319807.035630) can0 477#0600487C61001400
(1430319807.066394) can0 475#BD131D4945000000
(1430319807.066803) can0 306#1D00000000000000
(1430319807.067057) can0 294#00009CFFFA000000
(1430319807.067307) can0 270#E213000000000000
(1430319807.132639) can0 477#0700467C61001400
(1430319807.166481) can0 475#C3131D4945000000
(1430319807.166776) can0 306#1D00000000000000
(1430319807.167036) can0 294#00009CFFFA000000
(1430319807.167286) can0 270#E213000000000000
(1430319807.229575) can0 477#0700487C61001400
(1430319807.266500) can0 475#BF131C4945000000
(1430319807.266794) can0 306#1D00000000000000
(1430319807.267058) can0 294#00009CFFFA000000
(1430319807.267309) can0 270#E213000000000000
(1430319807.326729) can0 477#0700467C61001400
(1430319807.366330) can0 475#B8131D4945000000
(1430319807.366745) can0 306#1D00000000000000
(1430319807.367002) can0 294#00009CFFFA000000
(1430319807.367249) can0 270#E213000000000000
(1430319807.423540) can0 477#0700477C61001400
(1430319807.466470) can0 475#C3131D4945000000
(1430319807.466762) can0 306#1D00000000000000
(1430319807.467011) can0 294#00009CFFFA000000
(1430319807.467265) can0 270#E213000000000000
(1430319807.520502) can0 477#0700477C61001400
(1430319807.566278) can0 475#BF131D4945000000
(1430319807.566689) can0 306#1D00000000000000
(1430319807.566940) can0 294#00009CFFFA000000
(1430319807.567187) can0 270#E213000000000000
(1430319807.617458) can0 477#0600477C61001400
(1430319807.666388) can0 475#C3131C4945000000
(1430319807.666699) can0 306#1D00000000000000
(1430319807.666952) can0 294#00009CFFFA000000
(1430319807.667202) can0 270#E213000000000000
(1430319807.714443) can0 477#0600477C61001400
(1430319807.766425) can0 475#BF131C4945000000
(1430319807.766701) can0 306#1D00000000000000
(1430319807.766954) can0 294#00009CFFFA000000
(1430319807.767213) can0 270#E213000000000000
(1430319807.811428) can0 477#0700477C61001400
(1430319807.866387) can0 475#BF131D4945000000
(1430319807.866770) can0 306#1D00000000000000
(1430319807.867044) can0 294#00009CFFFA000000
(1430319807.867297) can0 270#E213000000000000
(1430319807.908382) can0 477#0600477C61001400
(1430319807.966562) can0 475#C5131D4945000000
(1430319807.966865) can0 306#1C00000000000000
(1430319807.967129) can0 294#00009CFFFA000000
(1430319807.967392) can0 270#E213000000000000
(1430319808.005404) can0 477#0600477C61001400
(1430319808.066556) can0 475#C9131D4945000000
(1430319808.066903) can0 306#1D00000000000000
(1430319808.067161) can0 294#00009CFFFA000000
(1430319808.067409) can0 270#E213000000000000
(1430319808.102363) can0 477#0700477C61001400
(1430319808.166415) can0 475#C5131D4945000000
(1430319808.166836) can0 306#1D00000000000000
(1430319808.167094) can0 294#00009CFFFA000000
(1430319808.167352) can0 270#E213000000000000
(1430319808.199277) can0 477#0700477C61001400
(1430319808.266478) can0 475#C5131D4945000000
(1430319808.266804) can0 306#1E00000000000000
(1430319808.267057) can0 294#00009CFFFA000000
(1430319808.267310) can0 270#E213000000000000
(1430319808.296236) can0 477#0700477C61001400
(1430319808.366494) can0 475#C1131C4945000000
(1430319808.366809) can0 306#1E00000000000000
(1430319808.367070) can0 294#00009CFFFA000000
(1430319808.367327) can0 270#E213000000000000
(1430319808.393209) can0 477#0700487C61001400
(1430319808.466375) can0 475#BA131D4945000000
(1430319808.466733) can0 306#1E00000000000000
(1430319808.466989) can0 294#00009CFFFA000000
(1430319808.467239) can0 270#E213000000000000
(1430319808.490186) can0 477#0700487C61001400
(1430319808.566843) can0 475#C3131C4945000000
(1430319808.567175) can0 306#1E00000000000000
(1430319808.567432) can0 294#00009CFFFA000000
(1430319808.567691) can0 270#E213000000000000
(1430319808.588438) can0 477#0700477C61001400
(1430319808.666893) can0 475#BF131D4945000000
(1430319808.667213) can0 306#1E00000000000000
(1430319808.667463) can0 294#00009CFFFA000000
(1430319808.667708) can0 270#E213000000000000
(1430319808.684099) can0 477#0700487C61001400
(1430319808.766781) can0 475#C9131D4945000000
(1430319808.767177) can0 306#1E00000000000000
(1430319808.767447) can0 294#00009CFFFA000000
(1430319808.767695) can0 270#E213000000000000
(1430319808.781130) can0 477#0700487C61001400
(1430319808.866785) can0 475#C5131D4945000000
(1430319808.867113) can0 306#1E00000000000000
(1430319808.867385) can0 294#00009CFFFA000000
(1430319808.867642) can0 270#E213000000000000
(1430319808.878043) can0 477#0700477C61001400
(1430319808.966717) can0 475#C7131D4945000000
(1430319808.967052) can0 306#1E00000000000000
(1430319808.967307) can0 294#00009CFFFA000000
(1430319808.967558) can0 270#E213000000000000
(1430319808.975001) can0 477#0700477C61001400
(1430319809.066724) can0 475#C5131D4945000000
(1430319809.067075) can0 306#1E00000000000000
(1430319809.067329) can0 294#00009CFFFA000000
(1430319809.067585) can0 270#E213000000000000
(1430319809.072767) can0 477#0700487C61001400
(1430319809.166657) can0 475#C9131C4945000000
(1430319809.166996) can0 306#1E00000000000000
(1430319809.167256) can0 294#00009CFFFA000000
(1430319809.167508) can0 270#E213000000000000
(1430319809.169167) can0 477#0600487C61001400
(1430319809.266065) can0 477#0700487C61001400
(1430319809.266691) can0 475#CF131D4945000000
(1430319809.267137) can0 306#1E00000000000000
(1430319809.267393) can0 294#00009CFFFA000000
(1430319809.267642) can0 270#E213000000000000
(1430319809.363067) can0 477#0700477C61001400
(1430319809.366646) can0 475#BF131D4945000000
(1430319809.366930) can0 306#1E00000000000000
(1430319809.367201) can0 294#00009CFFFA000000
(1430319809.367487) can0 270#E213000000000000
(1430319809.459907) can0 477#0700477C61001400
(1430319809.466773) can0 475#C9131C4945000000
(1430319809.467124) can0 306#1E00000000000000
(1430319809.467394) can0 270#E213000000000000
(1430319809.467612) can0 294#00009CFFFA000000
(1430319809.556869) can0 477#0700477C61001400
(1430319809.566782) can0 475#CD131D4945000000
(1430319809.567224) can0 306#1E00000000000000
(1430319809.567491) can0 294#00009CFFFA000000
(1430319809.567764) can0 270#E213000000000000
(1430319809.653874) can0 477#0600487C61001400
(1430319809.666775) can0 475#CB131D4945000000
(1430319809.667068) can0 306#1E00000000000000
(1430319809.667321) can0 294#00009CFFFA000000
(1430319809.667607) can0 270#E213000000000000
(1430319809.750798) can0 477#0700487C61001400
(1430319809.766724) can0 475#D8131C4945000000
(1430319809.767019) can0 306#1E00000000000000
(1430319809.767266) can0 294#00009CFFFA000000
(1430319809.767519) can0 270#E213000000000000
(1430319809.847740) can0 477#0700477C61001400
(1430319809.866750) can0 475#CB131D4945000000
(1430319809.867042) can0 306#1D00000000000000
(1430319809.867320) can0 294#00009CFFFA000000
(1430319809.867588) can0 270#E213000000000000
(1430319809.944719) can0 477#0700477C61001400
(1430319809.966561) can0 475#C7131D4945000000
(1430319809.966970) can0 306#1E00000000000000
(1430319809.967497) can0 270#E213000000000000
(1430319809.967733) can0 294#00009CFFFA000000
(1430319810.041709) can0 477#0700477C61001400
(1430319810.066693) can0 475#C3131D4945000000
(1430319810.067002) can0 306#1E00000000000000
(1430319810.067289) can0 294#00009CFFFA000000
(1430319810.067504) can0 270#E213000000000000
(1430319810.138823) can0 477#0600487C61001400
(1430319810.166654) can0 475#C5131C4945000000
(1430319810.167029) can0 306#1E00000000000000
(1430319810.167322) can0 294#00009CFFFA000000
(1430319810.167580) can0 270#E213000000000000
(1430319810.235626) can0 477#0700487C61001400
(1430319810.266607) can0 475#C5131C4945000000
(1430319810.266886) can0 306#1D00000000000000
(1430319810.267140) can0 294#00009CFFFA000000
(1430319810.267425) can0 270#E213000000000000
(1430319810.332616) can0 477#0700487C61001400
(1430319810.366595) can0 475#CD131D4945000000
(1430319810.366865) can0 306#1D00000000000000
(1430319810.367114) can0 294#00009CFFFA000000
(1430319810.367360) can0 270#E213000000000000
(1430319810.429570) can0 477#0600487C61001400
(1430319810.466562) can0 475#C7131D4945000000
(1430319810.466870) can0 306#1E00000000000000
(1430319810.467134) can0 294#00009CFFFA000000
(1430319810.467419) can0 270#E213000000000000
(1430319810.526594) can0 477#0600487C61001400
(1430319810.566537) can0 475#C1131D4945000000
(1430319810.566826) can0 306#1E00000000000000
(1430319810.567082) can0 294#00009CFFFA000000
(1430319810.567335) can0 270#E213000000000000
(1430319810.623535) can0 477#0700487C61001400
(1430319810.666508) can0 475#BA131D4945000000
(1430319810.666795) can0 306#1D00000000000000
(1430319810.667052) can0 294#00009CFFFA000000
(1430319810.667307) can0 270#E213000000000000
(1430319810.720488) can0 477#0700487C61001400
(1430319810.766471) can0 475#CD131D4945000000
(1430319810.766769) can0 306#1D00000000000000
(1430319810.767051) can0 294#00009CFFFA000000
(1430319810.767300) can0 270#E213000000000000
(1430319810.817458) can0 477#0600487C61001400
(1430319810.866388) can0 475#CB131D4945000000
(1430319810.866699) can0 306#1D00000000000000
(1430319810.866988) can0 294#00009CFFFA000000
(1430319810.867241) can0 270#E213000000000000
(1430319810.914444) can0 477#0700487C61001400
(1430319810.966425) can0 475#C9131D4945000000
(1430319810.966903) can0 306#1D00000000000000
(1430319810.967169) can0 294#00009CFFFA000000
(1430319810.967378) can0 270#E213000000000000
(1430319811.011442) can0 477#0700487C61001400
(1430319811.066575) can0 475#C3131D4945000000
(1430319811.066911) can0 306#1E00000000000000
(1430319811.067169) can0 294#00009CFFFA000000
(1430319811.067422) can0 270#E213000000000000
(1430319811.108360) can0 477#0700487C61001400
(1430319811.166593) can0 475#C9131D4945000000
(1430319811.166898) can0 306#1E00000000000000
(1430319811.167160) can0 294#00009CFFFA000000
(1430319811.167412) can0 270#E213000000000000
(1430319811.205458) can0 477#0700487C61001400
(1430319811.266575) can0 475#CD131D4945000000
(1430319811.266923) can0 306#1E00000000000000
(1430319811.267212) can0 294#00009CFFFA000000
(1430319811.267471) can0 270#E213000000000000
(1430319811.302317) can0 477#0700487C61001400
(1430319811.366537) can0 475#C3131D4945000000
(1430319811.366825) can0 306#1E00000000000000
(1430319811.367084) can0 294#00009CFFFA000000
(1430319811.367340) can0 270#E213000000000000
(1430319811.399279) can0 477#0700497C61001400
(1430319811.466492) can0 475#C5131D4945000000
(1430319811.466794) can0 306#1E00000000000000
(1430319811.467052) can0 294#00009CFFFA000000
(1430319811.467334) can0 270#E213000000000000
(1430319811.497252) can0 477#0700487C61001400
(1430319811.566418) can0 475#C7131D4945000000
(1430319811.566806) can0 306#1E00000000000000
(1430319811.567016) can0 294#00009CFFFA000000
(1430319811.567274) can0 270#E213000000000000
(1430319811.593232) can0 477#0700487C61001400
(1430319811.666425) can0 475#C3131D4945000000
(1430319811.666752) can0 306#1E00000000000000
(1430319811.667011) can0 294#00009CFFFA000000
(1430319811.667258) can0 270#E213000000000000
(1430319811.690157) can0 477#0700487C61001400
(1430319811.766646) can0 475#CD131D4945000000
(1430319811.767209) can0 306#1E00000000000000
(1430319811.767441) can0 294#00009CFFFA000000
(1430319811.787118) can0 477#0700487C61001400
(1430319811.866779) can0 475#C3131D4945000000
(1430319811.867089) can0 306#1E00000000000000
(1430319811.867342) can0 294#00009CFFFA000000
(1430319811.867592) can0 270#E213000000000000
(1430319811.884098) can0 477#0700487C61001400
(1430319811.966760) can0 475#C5131D4945000000
(1430319811.967076) can0 306#1E00000000000000
(1430319811.967336) can0 294#00009CFFFA000000
(1430319811.967587) can0 270#E213000000000000
(1430319811.982325) can0 477#0700477C61001400
(1430319812.066746) can0 475#C3131D4945000000
(1430319812.067088) can0 306#1E00000000000000
(1430319812.067343) can0 294#00009CFFFA000000
(1430319812.067592) can0 270#E213000000000000
(1430319812.078049) can0 477#0700487C61001400
(1430319812.166829) can0 475#C9131D4945000000
(1430319812.167170) can0 306#1E00000000000000
(1430319812.167432) can0 294#00009CFFFA000000
(1430319812.167683) can0 270#E213000000000000
(1430319812.175007) can0 477#0700487C61001400
(1430319812.266688) can0 475#C9131D4945000000
(1430319812.267004) can0 306#1D00000000000000
(1430319812.267260) can0 294#00009CFFFA000000
(1430319812.267509) can0 270#E213000000000000
(1430319812.271985) can0 477#0700487C61001400
(1430319812.366695) can0 475#C9131D4945000000
(1430319812.366984) can0 306#1E00000000000000
(1430319812.367243) can0 294#00009CFFFA000000
(1430319812.367493) can0 270#E213000000000000
(1430319812.369290) can0 477#0700487C61001400
(1430319812.466806) can0 475#CD131D4945000000
(1430319812.467120) can0 306#1E00000000000000
(1430319812.467495) can0 294#00009CFFFA000000
(1430319812.467916) can0 477#0700487C61001400
(1430319812.468174) can0 270#E213000000000000
(1430319812.562932) can0 477#0700487C61001400
(1430319812.566819) can0 475#CB131D4945000000
(1430319812.567296) can0 306#1E00000000000000
(1430319812.567517) can0 294#00009CFFFA000000
(1430319812.567783) can0 270#E213000000000000
(1430319812.659895) can0 477#0700477C61001400
(1430319812.666869) can0 475#C5131D4945000000
(1430319812.667184) can0 306#1E00000000000000
(1430319812.667454) can0 294#00009CFFFA000000
(1430319812.667711) can0 270#E213000000000000
(1430319812.756884) can0 477#0700487C61001400
(1430319812.766860) can0 475#C3131D4945000000
(1430319812.767138) can0 306#1E00000000000000
(1430319812.767388) can0 294#00009CFFFA000000
(1430319812.767639) can0 270#E213000000000000
(1430319812.853822) can0 477#0700487C61001400
(1430319812.866817) can0 475#C7131D4945000000
(1430319812.867143) can0 306#1E00000000000000
(1430319812.867395) can0 294#00009CFFFA000000
(1430319812.867640) can0 270#E213000000000000
(1430319812.950825) can0 477#0700487C61001400
(1430319812.966803) can0 475#C3131D4945000000
(1430319812.967131) can0 306#1E00000000000000
(1430319812.967382) can0 294#00009CFFFA000000
(1430319812.967625) can0 270#E213000000000000
(1430319813.047751) can0 477#0700487C61001400
(1430319813.066769) can0 475#CF131D4945000000
(1430319813.067092) can0 306#1E00000000000000
(1430319813.067347) can0 294#00009CFFFA000000
(1430319813.067628) can0 270#E213000000000000
(1430319813.144915) can0 477#0700497C61001400
(1430319813.166715) can0 475#C7131C4945000000
(1430319813.167000) can0 306#1F00000000000000
(1430319813.167249) can0 294#00009CFFFA000000
(1430319813.167503) can0 270#E213000000000000
(1430319813.241704) can0 477#0700487C61001400
(1430319813.266657) can0 475#CF131D4945000000
(1430319813.266940) can0 306#1F00000000000000
(1430319813.267194) can0 294#00009CFFFA000000
(1430319813.267447) can0 270#E213000000000000
(1430319813.338669) can0 477#0700487C61001400
(1430319813.366596) can0 475#C9131D4945000000
(1430319813.366925) can0 306#1F00000000000000
(1430319813.367180) can0 294#00009CFFFA000000
(1430319813.367429) can0 270#E213000000000000
(1430319813.435608) can0 477#0700487C61001400
(1430319813.466637) can0 475#C5131D4945000000
(1430319813.466938) can0 306#1E00000000000000
(1430319813.467203) can0 294#00009CFFFA000000
(1430319813.467451) can0 270#E213000000000000
(1430319813.532582) can0 477#0700487C61001400
(1430319813.566512) can0 475#C7131D4945000000
(1430319813.566943) can0 306#1E00000000000000
(1430319813.567163) can0 294#00009CFFFA000000
(1430319813.567416) can0 270#E213000000000000
(1430319813.629557) can0 477#0700497C61001400
(1430319813.666576) can0 475#C1131C4945000000
(1430319813.666886) can0 306#1E00000000000000
(1430319813.667169) can0 294#00009CFFFA000000
(1430319813.667428) can0 270#E213000000000000
(1430319813.726515) can0 477#0700477C61001400
(1430319813.766485) can0 475#CD131C4945000000
(1430319813.766871) can0 306#1E00000000000000
(1430319813.767134) can0 294#00009CFFFA000000
(1430319813.767381) can0 270#E213000000000000
(1430319813.823502) can0 477#0700487C61001400
(1430319813.866485) can0 475#C5131D4945000000
(1430319813.866781) can0 306#1E00000000000000
(1430319813.867050) can0 294#00009CFFFA000000
(1430319813.867331) can0 270#E213000000000000
(1430319813.920485) can0 477#0700487C61001400
(1430319813.966448) can0 475#C1131D4945000000
(1430319813.966848) can0 306#1E00000000000000
(1430319813.967116) can0 294#00009CFFFA000000
(1430319813.967372) can0 270#E213000000000000
(1430319814.017439) can0 477#0700487C61001400
(1430319814.066425) can0 475#BF131D4945000000
(1430319814.066755) can0 306#1E00000000000000
(1430319814.067108) can0 294#00009CFFFA000000
(1430319814.067369) can0 270#E213000000000000
(1430319814.114401) can0 477#0700497C61001400
(1430319814.166631) can0 475#C5131D4945000000
(1430319814.166986) can0 306#1E00000000000000
(1430319814.167245) can0 270#E213000000000000
(1430319814.167444) can0 294#00009CFFFA000000
(1430319814.211389) can0 477#0700487C61001400
(1430319814.266581) can0 475#CB131D4945000000
(1430319814.266927) can0 306#1E00000000000000
(1430319814.267201) can0 294#00009CFFFA000000
(1430319814.267455) can0 270#E213000000000000
(1430319814.308349) can0 477#0700487C61001400
(1430319814.366580) can0 475#C5131D4945000000
(1430319814.366962) can0 306#1E00000000000000
(1430319814.367220) can0 294#00009CFFFA000000
(1430319814.367471) can0 270#E213000000000000
(1430319814.405291) can0 477#0700487C61001400
(1430319814.466574) can0 475#C1131D4945000000
(1430319814.466909) can0 306#1E00000000000000
(1430319814.467160) can0 294#00009CFFFA000000
(1430319814.467409) can0 270#E213000000000000
(1430319814.502312) can0 477#0700487C61001400
(1430319814.566504) can0 475#C1131D4945000000
(1430319814.566887) can0 306#1E00000000000000
(1430319814.567161) can0 294#00009CFFFA000000
(1430319814.567412) can0 270#E213000000000000
(1430319814.599297) can0 477#0700477C61001400
(1430319814.666471) can0 475#C9131D4945000000
(1430319814.666911) can0 306#1E00000000000000
(1430319814.667178) can0 270#E213000000000000
(1430319814.667384) can0 294#00009CFFFA000000
(1430319814.696196) can0 477#0700487C61001400
(1430319814.766437) can0 475#C9131D4945000000
(1430319814.766967) can0 306#1E00000000000000
(1430319814.767224) can0 270#E213000000000000
(1430319814.767438) can0 294#00009CFFFA000000
(1430319814.793174) can0 477#0700497C61001400
(1430319814.866632) can0 475#CB131D4945000000
(1430319814.866944) can0 306#1E00000000000000
(1430319814.867210) can0 294#00009CFFFA000000
(1430319814.867501) can0 270#E213000000000000
(1430319814.890125) can0 477#0700487C61001400
(1430319814.966888) can0 475#BF131D4945000000
(1430319814.967208) can0 306#1E00000000000000
(1430319814.967459) can0 294#00009CFFFA000000
(1430319814.967704) can0 270#E213000000000000
(1430319814.987295) can0 477#0700497C61001400
(1430319815.066775) can0 475#CB131D4945000000
(1430319815.067155) can0 306#1E00000000000000
(1430319815.067425) can0 294#00009CFFFA000000
(1430319815.067684) can0 270#E213000000000000
(1430319815.084267) can0 477#0700487C61001400
(1430319815.166853) can0 475#C3131D4945000000
(1430319815.167166) can0 306#1E00000000000000
(1430319815.167425) can0 294#00009CFFFA000000
(1430319815.167685) can0 270#E213000000000000
(1430319815.181047) can0 477#0700487C61001400
(1430319815.266783) can0 475#C5131D4945000000
(1430319815.267082) can0 306#1E00000000000000
(1430319815.267349) can0 294#00009CFFFA000000
(1430319815.267613) can0 270#E213000000000000
(1430319815.278051) can0 477#0700487C61001400
(1430319815.366768) can0 475#C3131D4945000000
(1430319815.367110) can0 306#1E00000000000000
(1430319815.367366) can0 294#00009CFFFA000000
(1430319815.367619) can0 270#E213000000000000
(1430319815.376096) can0 477#0700487C61001400
(1430319815.466725) can0 475#D4131D4945000000
(1430319815.467040) can0 306#1E00000000000000
(1430319815.467293) can0 294#00009CFFFA000000
(1430319815.467541) can0 270#E213000000000000
(1430319815.472752) can0 477#0700497C61001400
(1430319815.566681) can0 475#C1131D4945000000
(1430319815.567062) can0 306#1D00000000000000
(1430319815.567438) can0 294#00009CFFFA000000
(1430319815.567685) can0 270#E213000000000000
(1430319815.569617) can0 477#0700497C61001400
(1430319815.656693) can0 475#D2131D4945000000
(1430319815.657063) can0 306#1D00000000000000
(1430319815.657332) can0 294#00009CFFFA000000
(1430319815.657599) can0 270#E213000000000000
(1430319815.666342) can0 477#0700487C61001400
(1430319815.756646) can0 475#C9131D4945000000
(1430319815.756986) can0 306#1E00000000000000
(1430319815.757245) can0 294#00009CFFFA000000
(1430319815.757508) can0 270#E213000000000000
(1430319815.762852) can0 477#0700497C61001400
(1430319815.856790) can0 475#C5131D4945000000
(1430319815.857094) can0 306#1E00000000000000
(1430319815.857351) can0 294#00009CFFFA000000
(1430319815.857601) can0 270#E213000000000000
(1430319815.859829) can0 477#0700487C61001400
(1430319815.956600) can0 475#C3131D4945000000
(1430319815.956903) can0 477#0700497C61001400
(1430319815.957272) can0 306#1D00000000000000
(1430319815.957524) can0 294#00009CFFFA000000
(1430319815.957782) can0 270#E213000000000000
(1430319816.053798) can0 477#0700497C61001400
(1430319816.056789) can0 475#C3131D4945000000
(1430319816.057070) can0 306#1D00000000000000
(1430319816.057320) can0 294#00009CFFFA000000
(1430319816.057568) can0 270#E213000000000000
(1430319816.150854) can0 477#0700487C61001400
(1430319816.156752) can0 475#CB131D4945000000
(1430319816.157024) can0 306#1D00000000000000
(1430319816.157275) can0 294#00009CFFFA000000
(1430319816.157528) can0 270#E213000000000000
(1430319816.247725) can0 477#0700487C61001400
(1430319816.256699) can0 475#D4131D4945000000
(1430319816.257016) can0 306#1E00000000000000
(1430319816.257270) can0 294#00009CFFFA000000
(1430319816.257519) can0 270#E213000000000000
(1430319816.344726) can0 477#0700497C61001400
(1430319816.356704) can0 475#CD131D4945000000
(1430319816.356983) can0 306#1E00000000000000
(1430319816.357239) can0 294#00009CFFFA000000
(1430319816.357492) can0 270#E213000000000000
(1430319816.441664) can0 477#0700487C61001400
(1430319816.456402) can0 475#C3131D4945000000
(1430319816.456838) can0 306#1F00000000000000
(1430319816.457107) can0 294#00009CFFFA000000
(1430319816.457358) can0 270#E213000000000000
(1430319816.538605) can0 477#0700487C61001400
(1430319816.556440) can0 475#BF131D4945000000
(1430319816.556871) can0 306#1F00000000000000
(1430319816.557134) can0 294#00009CFFFA000000
(1430319816.557383) can0 270#E213000000000000
(1430319816.635560) can0 477#0700487C61001400
(1430319816.656361) can0 475#C7131D4945000000
(1430319816.656794) can0 306#1F00000000000000
(1430319816.657074) can0 294#00009CFFFA000000
(1430319816.657334) can0 270#E213000000000000
(1430319816.732528) can0 477#0700487C61001400
(1430319816.756387) can0 475#C9131D4945000000
(1430319816.756771) can0 306#1F00000000000000
(1430319816.757047) can0 294#00009CFFFA000000
(1430319816.757318) can0 270#E213000000000000
(1430319816.829553) can0 477#0700487C61001400
(1430319816.856547) can0 475#C7131D4945000000
(1430319816.856820) can0 306#1F00000000000000
(1430319816.857079) can0 294#00009CFFFA000000
(1430319816.857334) can0 270#E213000000000000
(1430319816.926532) can0 477#0700497C61001400
(1430319816.956276) can0 475#CF131D4945000000
(1430319816.956708) can0 306#1F00000000000000
(1430319816.956985) can0 294#00009CFFFA000000
(1430319816.957239) can0 270#E213000000000000
(1430319817.023634) can0 477#0700497C61001400
(1430319817.056451) can0 475#BC131D4945000000
(1430319817.056777) can0 306#1F00000000000000
(1430319817.057309) can0 270#E213000000000000
(1430319817.057543) can0 294#00009CFFFA000000
(1430319817.120429) can0 477#0700487C61001400
(1430319817.156454) can0 475#CB131D4945000000
(1430319817.156780) can0 306#1F00000000000000
(1430319817.157054) can0 294#00009CFFFA000000
(1430319817.157340) can0 270#E213000000000000
(1430319817.217393) can0 477#0700497C61001400
(1430319817.256463) can0 475#C7131D4945000000
(1430319817.256901) can0 306#1F00000000000000
(1430319817.257162) can0 294#00009CFFFA000000
(1430319817.257408) can0 270#E213000000000000
(1430319817.314560) can0 477#0700497C61001400
(1430319817.356640) can0 475#C9131D4945000000
(1430319817.356926) can0 306#1F00000000000000
(1430319817.357177) can0 294#00009CFFFA000000
(1430319817.357420) can0 270#E213000000000000
(1430319817.411387) can0 477#0700487C61001400
(1430319817.456574) can0 475#C7131D4945000000
(1430319817.456894) can0 306#1F00000000000000
(1430319817.457161) can0 294#00009CFFFA000000
(1430319817.457414) can0 270#E213000000000000
(1430319817.508325) can0 477#0700497C61001400
(1430319817.556624) can0 475#CB131D4945000000
(1430319817.556908) can0 306#1F00000000000000
(1430319817.557160) can0 294#00009CFFFA000000
(1430319817.557411) can0 270#E213000000000000
(1430319817.605282) can0 477#0700497C61001400
(1430319817.656549) can0 475#C7131D4945000000
(1430319817.656844) can0 306#1F00000000000000
(1430319817.657097) can0 294#00009CFFFA000000
(1430319817.657345) can0 270#E213000000000000
(1430319817.702519) can0 477#0700497C61001400
(1430319817.756470) can0 475#C9131D4945000000
(1430319817.756828) can0 306#1E00000000000000
(1430319817.757099) can0 294#00009CFFFA000000
(1430319817.757354) can0 270#E213000000000000
(1430319817.799267) can0 477#0700497C61001400
(1430319817.856516) can0 475#BD131D4945000000
(1430319817.856824) can0 306#1E00000000000000
(1430319817.857081) can0 294#00009CFFFA000000
(1430319817.857283) can0 270#E213000000000000
(1430319817.896203) can0 477#0700487C61001400
(1430319817.956467) can0 475#C7131D4945000000
(1430319817.956817) can0 306#1E00000000000000
(1430319817.957075) can0 294#00009CFFFA000000
(1430319817.957337) can0 270#E213000000000000
(1430319817.993244) can0 477#0700497C61001400
(1430319818.056447) can0 475#C5131D4945000000
(1430319818.056749) can0 306#1E00000000000000
(1430319818.057120) can0 294#00009CFFFA000000
(1430319818.057375) can0 270#E213000000000000
(1430319818.090118) can0 477#0700497C61001400
(1430319818.156823) can0 475#C3131D4945000000
(1430319818.157146) can0 306#1D00000000000000
(1430319818.157399) can0 294#00009CFFFA000000
(1430319818.157644) can0 270#E213000000000000
(1430319818.187088) can0 477#0700497C61001400
(1430319818.256799) can0 475#C9131D4945000000
(1430319818.257105) can0 306#1D00000000000000
(1430319818.257357) can0 294#00009CFFFA000000
(1430319818.257610) can0 270#E213000000000000
(1430319818.284967) can0 477#0700487C61001400
(1430319818.356754) can0 475#CD131D4945000000
(1430319818.357106) can0 306#1D00000000000000
(1430319818.357361) can0 294#00009CFFFA000000
(1430319818.357612) can0 270#E213000000000000
(1430319818.381063) can0 477#0700497C61001400
(1430319818.456702) can0 475#C1131D4945000000
(1430319818.457036) can0 306#1D00000000000000
(1430319818.457290) can0 294#00009CFFFA000000
(1430319818.457529) can0 270#E213000000000000
(1430319818.478017) can0 477#0700497C61001400
(1430319818.556697) can0 475#C3131D4945000000
(1430319818.557020) can0 306#1D00000000000000
(1430319818.557276) can0 294#00009CFFFA000000
(1430319818.557524) can0 270#E213000000000000
(1430319818.576084) can0 477#0700487C61001400
(1430319818.656775) can0 475#C1131D4945000000
(1430319818.657067) can0 306#1D00000000000000
(1430319818.657320) can0 294#00009CFFFA000000
(1430319818.657576) can0 270#E213000000000000
(1430319818.672742) can0 477#0700497C61001400
(1430319818.756594) can0 475#C9131D4945000000
(1430319818.756946) can0 306#1D00000000000000
(1430319818.757214) can0 294#00009CFFFA000000
(1430319818.757481) can0 270#E213000000000000
(1430319818.769163) can0 477#07004A7C61001400
(1430319818.856700) can0 475#CB131D4945000000
(1430319818.857299) can0 306#1D00000000000000
(1430319818.857798) can0 270#E213000000000000
(1430319818.865882) can0 477#0700487C61001400
(1430319818.956825) can0 475#C7131D4945000000
(1430319818.957167) can0 306#1E00000000000000
(1430319818.957427) can0 294#00009CFFFA000000
(1430319818.957678) can0 270#E213000000000000
(1430319818.964026) can0 477#0700497C61001400
(1430319819.056870) can0 475#D1131D4945000000
(1430319819.057189) can0 306#1E00000000000000
(1430319819.057442) can0 294#00009CFFFA000000
(1430319819.057691) can0 270#E213000000000000
(1430319819.059832) can0 477#0700497C61001400
(1430319819.156826) can0 475#BC131D4945000000
(1430319819.157135) can0 306#1E00000000000000
(1430319819.157394) can0 294#00009CFFFA000000
(1430319819.157642) can0 270#E213000000000000
(1430319819.157992) can0 477#07004A7C61001400
(1430319819.253764) can0 477#0700497C61001400
(1430319819.256823) can0 475#CD131D4945000000
(1430319819.257112) can0 306#1E00000000000000
(1430319819.257373) can0 294#00009CFFFA000000
(1430319819.257641) can0 270#E213000000000000
(1430319819.350736) can0 477#0700497C61001400
(1430319819.356733) can0 475#C1131D4945000000
(1430319819.357065) can0 306#1E00000000000000
(1430319819.357328) can0 294#00009CFFFA000000
(1430319819.357614) can0 270#E213000000000000
(1430319819.447716) can0 477#0700497C61001400
(1430319819.456675) can0 475#BF131D4945000000
(1430319819.456993) can0 306#1E00000000000000
(1430319819.457247) can0 294#00009CFFFA000000
(1430319819.457494) can0 270#E213000000000000
(1430319819.544694) can0 477#0700497C61001400
(1430319819.556498) can0 475#CB131D4945000000
(1430319819.556909) can0 306#1E00000000000000
(1430319819.557170) can0 294#00009CFFFA000000
(1430319819.557422) can0 270#E213000000000000
(1430319819.641623) can0 477#0700497C61001400
(1430319819.656442) can0 475#CD131D4945000000
(1430319819.656728) can0 306#1E00000000000000
(1430319819.657119) can0 294#00009CFFFA000000
(1430319819.657390) can0 270#E213000000000000
(1430319819.738581) can0 477#0700487C61001400
(1430319819.756631) can0 475#BF131D4945000000
(1430319819.756923) can0 306#1E00000000000000
(1430319819.757169) can0 294#00009CFFFA000000
(1430319819.757424) can0 270#E213000000000000
(1430319819.835555) can0 477#07004A7C61001400
(1430319819.856609) can0 475#C5131D4945000000
(1430319819.856910) can0 306#1E00000000000000
(1430319819.857162) can0 294#00009CFFFA000000
(1430319819.857409) can0 270#E213000000000000
(1430319819.932578) can0 477#0700497C61001400
(1430319819.956511) can0 475#C5131D4945000000
(1430319819.956823) can0 306#1E00000000000000
(1430319819.957076) can0 294#00009CFFFA000000
(1430319819.957326) can0 270#E213000000000000
(1430319820.029513) can0 477#0700497C61001400
(1430319820.056567) can0 475#BD131D4945000000
(1430319820.056860) can0 306#1E00000000000000
(1430319820.057116) can0 294#00009CFFFA000000
(1430319820.057364) can0 270#E213000000000000
(1430319820.126496) can0 477#0700497C61001400
(1430319820.157235) can0 306#1E00000000000000
(1430319820.157814) can0 270#E213000000000000
(1430319820.223470) can0 477#0700487C61001400
(1430319820.256502) can0 475#C9131D4945000000
(1430319820.256797) can0 306#1E00000000000000
(1430319820.257047) can0 294#00009CFFFA000000
(1430319820.257295) can0 270#E213000000000000
(1430319820.320393) can0 477#0700497C61001400
(1430319820.356482) can0 475#C1131D4945000000
(1430319820.356898) can0 306#1E00000000000000
(1430319820.357191) can0 294#00009CFFFA000000
(1430319820.357447) can0 270#E213000000000000
(1430319820.417373) can0 477#0700497C61001400
(1430319820.456641) can0 475#CB131D4945000000
(1430319820.456976) can0 306#1E00000000000000
(1430319820.457265) can0 294#00009CFFFA000000
(1430319820.457521) can0 270#E213000000000000
(1430319820.514405) can0 477#0700497C61001400
(1430319820.556652) can0 475#CD131D4945000000
(1430319820.556984) can0 306#1E00000000000000
(1430319820.557238) can0 294#00009CFFFA000000
(1430319820.557485) can0 270#E213000000000000
(1430319820.611335) can0 477#0700497C61001400
(1430319820.656612) can0 475#C5131D4945000000
(1430319820.656915) can0 306#1F00000000000000
(1430319820.657987) can0 270#E213000000000000
(1430319820.658257) can0 294#00009CFFFA000000
(1430319820.708323) can0 477#0700487C61001400
(1430319820.756588) can0 475#BD131D4945000000
(1430319820.756890) can0 306#1F00000000000000
(1430319820.757283) can0 294#00009CFFFA000000
(1430319820.757542) can0 270#E213000000000000
(1430319820.805235) can0 477#0700497C61001400
(1430319820.856535) can0 475#C7131D4945000000
(1430319820.856889) can0 306#1F00000000000000
(1430319820.857152) can0 270#E213000000000000
(1430319820.857356) can0 294#00009CFFFA000000
(1430319820.902364) can0 477#07004A7C61001400
(1430319820.956493) can0 475#CB131D4945000000
(1430319820.956834) can0 306#1F00000000000000
(1430319820.957093) can0 294#00009CFFFA000000
(1430319820.957341) can0 270#E213000000000000
(1430319820.999295) can0 477#0700497C61001400
(1430319821.056885) can0 475#C5131D4945000000
(1430319821.057255) can0 306#1F00000000000000
(1430319821.057527) can0 294#00009CFFFA000000
(1430319821.057781) can0 270#E213000000000000
(1430319821.096185) can0 477#0700497C61001400
(1430319821.156457) can0 475#CF131D4945000000
(1430319821.156923) can0 306#1F00000000000000
(1430319821.157185) can0 294#00009CFFFA000000
(1430319821.157441) can0 270#E213000000000000
(1430319821.193132) can0 477#0700497C61001400
(1430319821.256869) can0 475#BF131D4945000000
(1430319821.257177) can0 306#1F00000000000000
(1430319821.257437) can0 294#00009CFFFA000000
(1430319821.257693) can0 270#E213000000000000
(1430319821.290901) can0 477#0700497C61001400
(1430319821.356909) can0 475#C7131D4945000000
(1430319821.357204) can0 306#1F00000000000000
(1430319821.357483) can0 294#00009CFFFA000000
(1430319821.357735) can0 270#E213000000000000
(1430319821.387158) can0 477#0700497C61001400
(1430319821.456773) can0 475#C7131D4945000000
(1430319821.457118) can0 306#1F00000000000000
(1430319821.457379) can0 294#00009CFFFA000000
(1430319821.457630) can0 270#E213000000000000
(1430319821.484066) can0 477#0700497C61001400
(1430319821.556774) can0 475#C7131D4945000000
(1430319821.557105) can0 306#1F00000000000000
(1430319821.557389) can0 294#00009CFFFA000000
(1430319821.557674) can0 270#E213000000000000
(1430319821.581476) can0 477#0700497C61001400
(1430319821.656812) can0 475#CD131D4945000000
(1430319821.657129) can0 306#1F00000000000000
(1430319821.657398) can0 294#00009CFFFA000000
(1430319821.657654) can0 270#E213000000000000
(1430319821.678889) can0 477#0700497C61001400
(1430319821.756694) can0 475#C9131D4945000000
(1430319821.757033) can0 306#1F00000000000000
(1430319821.757320) can0 294#00009CFFFA000000
(1430319821.757580) can0 270#E213000000000000
(1430319821.775780) can0 477#07004A7C61001400
(1430319821.856846) can0 475#CB131D4945000000
(1430319821.857181) can0 306#1E00000000000000
(1430319821.857570) can0 270#E213000000000000
(1430319821.857790) can0 294#00009CFFFA000000
(1430319821.871955) can0 477#0700497C61001400
(1430319821.956890) can0 475#CD131D4945000000
(1430319821.957262) can0 306#1E00000000000000
(1430319821.957527) can0 294#00009CFFFA000000
(1430319821.957786) can0 270#E213000000000000
(1430319821.968975) can0 477#07004A7C61001400
(1430319822.056886) can0 475#CB131D4945000000
(1430319822.057209) can0 306#1E00000000000000
(1430319822.057460) can0 294#00009CFFFA000000
(1430319822.057726) can0 270#E213000000000000
(1430319822.067199) can0 477#07004A7C61001400
(1430319822.156884) can0 475#CF131D4945000000
(1430319822.157232) can0 306#1E00000000000000
(1430319822.157485) can0 270#E213000000000000
(1430319822.157687) can0 294#00009CFFFA000000
(1430319822.162891) can0 477#07004A7C61001400
(1430319822.256869) can0 475#D1131D4945000000
(1430319822.257163) can0 306#1E00000000000000
(1430319822.257422) can0 294#00009CFFFA000000
(1430319822.257677) can0 270#E213000000000000
(1430319822.259793) can0 477#0700497C61001400
(1430319822.356852) can0 475#CB131D4945000000
(1430319822.357134) can0 306#1E00000000000000
(1430319822.357380) can0 294#00009CFFFA000000
(1430319822.357626) can0 270#E213000000000000
(1430319822.358058) can0 477#07004A7C61001400
(1430319822.453751) can0 477#07004B7C61001400
(1430319822.456725) can0 475#C5131D4945000000
(1430319822.457285) can0 306#1F00000000000000
(1430319822.457518) can0 294#00009CFFFA000000
(1430319822.457774) can0 270#E213000000000000
(1430319822.550739) can0 477#07004A7C61001400
(1430319822.556690) can0 475#C9131D4945000000
(1430319822.556988) can0 306#1F00000000000000
(1430319822.557272) can0 294#00009CFFFA000000
(1430319822.557556) can0 270#E213000000000000
(1430319822.647743) can0 477#07004A7C61001400
(1430319822.656684) can0 475#CD131D4945000000
(1430319822.656982) can0 306#1E00000000000000
(1430319822.657237) can0 294#00009CFFFA000000
(1430319822.657521) can0 270#E213000000000000
(1430319822.744668) can0 477#0700497C61001400
(1430319822.756662) can0 475#C5131D4945000000
(1430319822.756950) can0 306#1E00000000000000
(1430319822.757206) can0 294#00009CFFFA000000
(1430319822.757488) can0 270#E213000000000000
(1430319822.841762) can0 477#07004B7C61001400
(1430319822.856641) can0 475#C5131D4945000000
(1430319822.856927) can0 306#1F00000000000000
(1430319822.857180) can0 294#00009CFFFA000000
(1430319822.857431) can0 270#E313000000000000
(1430319822.938589) can0 477#07004A7C61001400
(1430319822.956565) can0 475#BF131D4945000000
(1430319822.956911) can0 306#1F00000000000000
(1430319822.957175) can0 294#00009CFFFA000000
(1430319822.957423) can0 270#E313000000000000
(1430319823.035616) can0 477#07004A7C61001400
(1430319823.056601) can0 475#CB131D4945000000
(1430319823.056909) can0 306#1F00000000000000
(1430319823.057159) can0 294#00009CFFFA000000
(1430319823.057406) can0 270#E213000000000000
(1430319823.132528) can0 477#07004A7C61001400
(1430319823.156520) can0 475#CF131D4945000000
(1430319823.156832) can0 306#1E00000000000000
(1430319823.157081) can0 294#00009CFFFA000000
(1430319823.157324) can0 270#E213000000000000
(1430319823.229525) can0 477#07004A7C61001400
(1430319823.256520) can0 475#CD131D4945000000
(1430319823.256811) can0 306#1E00000000000000
(1430319823.257088) can0 294#00009CFFFA000000
(1430319823.257337) can0 270#E213000000000000
(1430319823.326505) can0 477#07004A7C61001400
(1430319823.356512) can0 475#C7131D4945000000
(1430319823.356811) can0 306#1E00000000000000
(1430319823.357065) can0 294#00009CFFFA000000
(1430319823.357347) can0 270#E213000000000000
(1430319823.423476) can0 477#07004A7C61001400
(1430319823.456486) can0 475#CB131D4945000000
(1430319823.456815) can0 306#1E00000000000000
(1430319823.457076) can0 294#00009CFFFA000000
(1430319823.457332) can0 270#E213000000000000
(1430319823.520378) can0 477#07004A7C61001400
(1430319823.556713) can0 475#C7131D4945000000
(1430319823.557001) can0 306#1E00000000000000
(1430319823.557253) can0 294#00009CFFFA000000
(1430319823.558212) can0 270#E213000000000000
(1430319823.617380) can0 477#07004A7C61001400
(1430319823.656748) can0 475#C5131D4945000000
(1430319823.657038) can0 306#1D00000000000000
(1430319823.657344) can0 294#00009CFFFA000000
(1430319823.657622) can0 270#E213000000000000
(1430319823.714351) can0 477#07004A7C61001400
(1430319823.756596) can0 475#C5131D4945000000
(1430319823.756922) can0 306#1D00000000000000
(1430319823.757172) can0 294#00009CFFFA000000
(1430319823.757424) can0 270#E213000000000000
(1430319823.811310) can0 477#07004A7C61001400
(1430319823.856628) can0 475#CB131D4945000000
(1430319823.856929) can0 306#1D00000000000000
(1430319823.857178) can0 294#00009CFFFA000000
(1430319823.857422) can0 270#E213000000000000
(1430319823.908272) can0 477#07004A7C61001400
(1430319823.956510) can0 475#BF131D4945000000
(1430319823.956855) can0 306#1E00000000000000
(1430319823.957116) can0 294#00009CFFFA000000
(1430319823.957368) can0 270#E213000000000000
(1430319824.005275) can0 477#07004A7C61001400
(1430319824.056531) can0 475#C9131D4945000000
(1430319824.056874) can0 306#1F00000000000000
(1430319824.057133) can0 294#00009CFFFA000000
(1430319824.057382) can0 270#E213000000000000
(1430319824.102212) can0 477#07004A7C61001400
(1430319824.156524) can0 475#CD131D4945000000
(1430319824.156959) can0 306#1F00000000000000
(1430319824.157264) can0 294#00009CFFFA000000
(1430319824.157522) can0 270#E213000000000000
(1430319824.199160) can0 477#07004A7C61001400
(1430319824.256919) can0 475#CB131D4945000000
(1430319824.257233) can0 306#1F00000000000000
(1430319824.257484) can0 294#00009CFFFA000000
(1430319824.257733) can0 270#E213000000000000
(1430319824.296149) can0 477#0700497C61001400
(1430319824.356964) can0 475#C7131D4945000000
(1430319824.357258) can0 306#1F00000000000000
(1430319824.357522) can0 294#00009CFFFA000000
(1430319824.357779) can0 270#E313000000000000
(1430319824.393104) can0 477#07004B7C61001400
(1430319824.456932) can0 475#CB131D4945000000
(1430319824.457337) can0 306#2000000000000000
(1430319824.457608) can0 294#00009CFFFA000000
(1430319824.457857) can0 270#E313000000000000
(1430319824.490687) can0 477#07004B7C61001400
(1430319824.556925) can0 475#CB131D4945000000
(1430319824.557221) can0 306#1F00000000000000
(1430319824.557497) can0 294#00009CFFFA000000
(1430319824.557746) can0 270#E313000000000000
(1430319824.587094) can0 477#07004B7C61001400
(1430319824.656844) can0 475#C3131D4945000000
(1430319824.657141) can0 306#1F00000000000000
(1430319824.657400) can0 294#00009CFFFA000000
(1430319824.657656) can0 270#E313000000000000
(1430319824.684030) can0 477#07004A7C61001400
(1430319824.756832) can0 475#C9131D4945000000
(1430319824.757193) can0 306#1F00000000000000
(1430319824.757458) can0 294#00009CFFFA000000
(1430319824.757706) can0 270#E313000000000000
(1430319824.781151) can0 477#07004A7C61001400
(1430319824.856776) can0 475#CF131D4945000000
(1430319824.857089) can0 306#1F00000000000000
(1430319824.857337) can0 294#00009CFFFA000000
(1430319824.857586) can0 270#E213000000000000
(1430319824.877932) can0 477#07004A7C61001400
