(1430401381.921943) can0 475#0201134945000000
(1430401381.922271) can0 306#1900000000000000
(1430401381.922493) can0 294#00009CFFFA000100
(1430401381.922801) can0 270#0000000000000000
(1430401382.022034) can0 475#0201134945000000
(1430401382.022294) can0 306#1900000000000000
(1430401382.022524) can0 294#00009CFFFA000100
(1430401382.022736) can0 270#0000000000000000
(1430401382.121673) can0 475#0201134945000000
(1430401382.121913) can0 306#1900000000000000
(1430401382.122139) can0 294#00009CFFFA000100
(1430401382.122448) can0 270#0000000000000000
(1430401382.221815) can0 475#0201134945000000
(1430401382.222003) can0 306#1900000000000000
(1430401382.222210) can0 294#00009CFFFA000100
(1430401382.222502) can0 270#0000000000000000
(1430401382.321837) can0 475#0401134945000000
(1430401382.322127) can0 306#1900000000000000
(1430401382.322378) can0 294#00009CFFFA000100
(1430401382.322623) can0 270#0000000000000000
(1430401382.421796) can0 475#FB00134945000000
(1430401382.422119) can0 306#1900000000000000
(1430401382.422381) can0 294#00009CFFFA000100
(1430401382.422625) can0 270#0000000000000000
(1430401382.521747) can0 475#FF00134945000000
(1430401382.522115) can0 306#1900000000000000
(1430401382.522372) can0 294#00009CFFFA000100
(1430401382.522615) can0 270#0000000000000000
(1430401382.621927) can0 475#FD00134945000000
(1430401382.622250) can0 306#1900000000000000
(1430401382.622524) can0 294#00009CFFFA000100
(1430401382.622777) can0 270#0000000000000000
(1430401382.721734) can0 475#0401134945000000
(1430401382.722168) can0 306#1A00000000000000
(1430401382.722433) can0 294#00009CFFFA000100
(1430401382.722686) can0 270#0000000000000000
(1430401382.821717) can0 475#0001134945000000
(1430401382.822138) can0 306#1A00000000000000
(1430401382.822389) can0 294#00009CFFFA000100
(1430401382.822640) can0 270#0000000000000000
(1430401382.921774) can0 475#0401134945000000
(1430401382.922111) can0 306#1A00000000000000
(1430401382.922377) can0 294#00009CFFFA000100
(1430401382.922634) can0 270#0000000000000000
(1430401383.021809) can0 475#0201134945000000
(1430401383.022129) can0 306#1A00000000000000
(1430401383.022386) can0 294#00009CFFFA000100
(1430401383.022636) can0 270#0000000000000000
(1430401383.121746) can0 475#0001134945000000
(1430401383.122068) can0 306#1A00000000000000
(1430401383.122328) can0 294#00009CFFFA000100
(1430401383.122580) can0 270#0000000000000000
(1430401383.221800) can0 475#0401134945000000
(1430401383.222106) can0 306#1A00000000000000
(1430401383.222371) can0 294#00009CFFFA000100
(1430401383.222629) can0 270#0000000000000000
(1430401383.321769) can0 475#FB00134945000000
(1430401383.322079) can0 306#1A00000000000000
(1430401383.322460) can0 294#00009CFFFA000100
(1430401383.322705) can0 270#0000000000000000
(1430401383.421709) can0 475#0801134945000000
(1430401383.422188) can0 306#1A00000000000000
(1430401383.422453) can0 294#00009CFFFA000100
(1430401383.422707) can0 270#0000000000000000
(1430401383.521461) can0 475#FD00134945000000
(1430401383.521890) can0 306#1A00000000000000
(1430401383.522157) can0 294#00009CFFFA000100
(1430401383.522439) can0 270#0000000000000000
(1430401383.621691) can0 475#F900134945000000
(1430401383.622350) can0 306#1A00000000000000
(1430401383.622772) can0 270#0000000000000000
(1430401383.722107) can0 475#F900134945000000
(1430401383.722542) can0 294#00009CFFFA000100
(1430401383.722753) can0 270#0000000000000000
(1430401383.821557) can0 475#F900134945000000
(1430401383.821881) can0 306#1900000000000000
(1430401383.822134) can0 294#00009CFFFA000100
(1430401383.822388) can0 270#0000000000000000
(1430401383.921544) can0 475#FF00134945000000
(1430401383.921862) can0 306#1800000000000000
(1430401383.922272) can0 294#00009CFFFA000100
(1430401383.922540) can0 270#0000000000000000
(1430401384.021969) can0 475#0601134945000000
(1430401384.022295) can0 306#1800000000000000
(1430401384.022558) can0 294#00009CFFFA000100
(1430401384.022811) can0 270#0000000000000000
(1430401384.122024) can0 475#FF00134945000000
(1430401384.122466) can0 306#1800000000000000
(1430401384.122733) can0 294#00009CFFFA000100
(1430401384.122990) can0 270#0000000000000000
(1430401384.221995) can0 475#FF00134945000000
(1430401384.222425) can0 306#1800000000000000
(1430401384.222683) can0 294#00009CFFFA000100
(1430401384.222941) can0 270#0000000000000000
(1430401384.321966) can0 475#FF00134945000000
(1430401384.322308) can0 306#1800000000000000
(1430401384.322587) can0 294#00009CFFFA000100
(1430401384.322848) can0 270#0000000000000000
(1430401384.421408) can0 475#FF00134945000000
(1430401384.421815) can0 306#1700000000000000
(1430401384.422086) can0 294#00009CFFFA000100
(1430401384.422352) can0 270#0000000000000000
(1430401384.521815) can0 475#F500134945000000
(1430401384.522149) can0 306#1700000000000000
(1430401384.522406) can0 294#00009CFFFA000100
(1430401384.522658) can0 270#0000000000000000
(1430401384.622069) can0 475#FB00134945000000
(1430401384.622387) can0 306#1700000000000000
(1430401384.622644) can0 294#00009CFFFA000100
(1430401384.622904) can0 270#0000000000000000
(1430401384.722017) can0 475#FB00134945000000
(1430401384.722357) can0 306#1700000000000000
(1430401384.722614) can0 294#00009CFFFA000100
(1430401384.722863) can0 270#0000000000000000
(1430401384.822076) can0 475#0601134945000000
(1430401384.822531) can0 306#1700000000000000
(1430401384.822793) can0 294#00009CFFFA000100
(1430401384.823052) can0 270#0000000000000000
(1430401384.921779) can0 475#F900134945000000
(1430401384.922208) can0 306#1700000000000000
(1430401384.922464) can0 294#00009CFFFA000100
(1430401384.922717) can0 270#0000000000000000
(1430401385.021743) can0 475#F700134945000000
(1430401385.022191) can0 306#1700000000000000
(1430401385.022452) can0 294#00009CFFFA000100
(1430401385.022707) can0 270#0000000000000000
(1430401385.121913) can0 475#FD00134945000000
(1430401385.122224) can0 306#1700000000000000
(1430401385.122623) can0 294#00009CFFFA000100
(1430401385.122885) can0 270#0000000000000000
(1430401385.221935) can0 475#FB00134945000000
(1430401385.222362) can0 306#1700000000000000
(1430401385.222614) can0 294#00009CFFFA000100
(1430401385.222867) can0 270#0000000000000000
(1430401385.321645) can0 475#F500134945000000
(1430401385.321970) can0 306#1700000000000000
(1430401385.322243) can0 294#00009CFFFA000100
(1430401385.322509) can0 270#0000000000000000
(1430401385.421866) can0 475#FF00134945000000
(1430401385.422251) can0 306#1700000000000000
(1430401385.422520) can0 294#00009CFFFA000100
(1430401385.422788) can0 270#0000000000000000
(1430401385.521555) can0 475#F700134945000000
(1430401385.521972) can0 306#1800000000000000
(1430401385.522244) can0 294#00009CFFFA000100
(1430401385.522510) can0 270#0000000000000000
(1430401385.621919) can0 475#F500134945000000
(1430401385.622269) can0 306#1700000000000000
(1430401385.622524) can0 294#00009CFFFA000100
(1430401385.622775) can0 270#0000000000000000
(1430401385.721748) can0 475#0601134945000000
(1430401385.722041) can0 306#1700000000000000
(1430401385.722438) can0 294#00009CFFFA000100
(1430401385.722697) can0 270#0000000000000000
(1430401385.821725) can0 475#0001134945000000
(1430401385.822028) can0 306#1700000000000000
(1430401385.822395) can0 294#00009CFFFA000100
(1430401385.822667) can0 270#0000000000000000
(1430401385.921726) can0 475#FF00134945000000
(1430401385.922044) can0 306#1800000000000000
(1430401385.922449) can0 294#00009CFFFA000100
(1430401385.922708) can0 270#0000000000000000
(1430401386.021703) can0 475#F700134945000000
(1430401386.022129) can0 306#1800000000000000
(1430401386.022390) can0 294#00009CFFFA000100
(1430401386.022647) can0 270#0000000000000000
(1430401386.121645) can0 475#F900134945000000
(1430401386.122036) can0 306#1800000000000000
(1430401386.122307) can0 294#00009CFFFA000100
(1430401386.122573) can0 270#0000000000000000
(1430401386.221587) can0 475#F500134945000000
(1430401386.221987) can0 306#1800000000000000
(1430401386.222265) can0 294#00009CFFFA000100
(1430401386.222533) can0 270#0000000000000000
(1430401386.321801) can0 475#F100134945000000
(1430401386.322133) can0 306#1700000000000000
(1430401386.322392) can0 294#00009CFFFA000100
(1430401386.322679) can0 270#0000000000000000
(1430401386.421983) can0 475#F700134945000000
(1430401386.422586) can0 306#1700000000000000
(1430401386.422817) can0 294#00009CFFFA000100
(1430401386.521770) can0 475#0201134945000000
(1430401386.522077) can0 306#1700000000000000
(1430401386.522335) can0 294#00009CFFFA000100
(1430401386.522593) can0 270#0000000000000000
(1430401386.621669) can0 475#FD00134945000000
(1430401386.621974) can0 306#1800000000000000
(1430401386.622232) can0 294#00009CFFFA000100
(1430401386.622482) can0 270#0000000000000000
(1430401386.721675) can0 475#FF00134945000000
(1430401386.721987) can0 306#1800000000000000
(1430401386.722242) can0 294#00009CFFFA000100
(1430401386.722493) can0 270#0000000000000000
(1430401386.821845) can0 475#F900134945000000
(1430401386.822215) can0 306#1800000000000000
(1430401386.822486) can0 294#00009CFFFA000100
(1430401386.822746) can0 270#0000000000000000
(1430401386.921789) can0 475#ED00134945000000
(1430401386.922166) can0 306#1800000000000000
(1430401386.922434) can0 294#00009CFFFA000100
(1430401386.922695) can0 270#0000000000000000
(1430401387.021595) can0 475#F700134945000000
(1430401387.021970) can0 306#1800000000000000
(1430401387.022241) can0 294#00009CFFFA000100
(1430401387.022505) can0 270#0000000000000000
(1430401387.121943) can0 475#F700134945000000
(1430401387.122961) can0 306#1700000000000000
(1430401387.123199) can0 294#00009CFFFA000100
(1430401387.222005) can0 475#F900134945000000
(1430401387.222376) can0 306#1700000000000000
(1430401387.222644) can0 294#00009CFFFA000100
(1430401387.222903) can0 270#0000000000000000
(1430401387.321687) can0 475#F900134945000000
(1430401387.322042) can0 306#1700000000000000
(1430401387.322313) can0 294#00009CFFFA000100
(1430401387.322572) can0 270#0000000000000000
(1430401387.421985) can0 475#E800134945000000
(1430401387.422417) can0 306#1700000000000000
(1430401387.422677) can0 294#00009CFFFA000100
(1430401387.422938) can0 270#0000000000000000
(1430401387.521622) can0 475#F300134945000000
(1430401387.521976) can0 306#1700000000000000
(1430401387.522243) can0 294#00009CFFFA000100
(1430401387.522503) can0 270#0000000000000000
(1430401387.621886) can0 475#F900134945000000
(1430401387.622256) can0 306#1700000000000000
(1430401387.622525) can0 294#00009CFFFA000100
(1430401387.622789) can0 270#0000000000000000
(1430401387.721885) can0 475#F500134945000000
(1430401387.722319) can0 306#1700000000000000
(1430401387.722580) can0 294#00009CFFFA000000
(1430401387.722830) can0 270#0000000000000000
(1430401387.821785) can0 475#F300134945000000
(1430401387.822153) can0 306#1700000000000000
(1430401387.822420) can0 294#00009CFFFA000000
(1430401387.822686) can0 270#0000000000000000
(1430401387.921972) can0 475#ED00134945000000
(1430401387.922342) can0 306#1700000000000000
(1430401387.922611) can0 294#00009CFFFA000100
(1430401387.922871) can0 270#0000000000000000
(1430401388.022044) can0 475#FD00134945000000
(1430401388.022487) can0 306#1600000000000000
(1430401388.022751) can0 294#00009CFFFA000000
(1430401388.023012) can0 270#0000000000000000
(1430401388.121984) can0 475#0001134945000000
(1430401388.122354) can0 306#1700000000000000
(1430401388.122623) can0 294#00009CFFFA000000
(1430401388.122885) can0 270#0000000000000000
(1430401388.221723) can0 475#F100134945000000
(1430401388.222157) can0 306#1700000000000000
(1430401388.222423) can0 294#00009CFFFA000100
(1430401388.222684) can0 270#0000000000000000
(1430401388.321938) can0 475#F900134945000000
(1430401388.322306) can0 306#1700000000000000
(1430401388.322572) can0 294#00009CFFFA000100
(1430401388.322832) can0 270#0000000000000000
(1430401388.421929) can0 475#0201134945000000
(1430401388.422357) can0 306#1800000000000000
(1430401388.422608) can0 294#00009CFFFA000100
(1430401388.422862) can0 270#0000000000000000
(1430401388.521852) can0 475#F100134945000000
(1430401388.522196) can0 306#1800000000000000
(1430401388.522455) can0 294#00009CFFFA000100
(1430401388.522743) can0 270#0000000000000000
(1430401388.621802) can0 475#F900134945000000
(1430401388.622116) can0 306#1900000000000000
(1430401388.622372) can0 294#00009CFFFA000100
(1430401388.622625) can0 270#0000000000000000
(1430401388.721805) can0 475#0001134945000000
(1430401388.722123) can0 306#1800000000000000
(1430401388.722377) can0 294#00009CFFFA000100
(1430401388.722643) can0 270#0000000000000000
(1430401388.821748) can0 475#F900134945000000
(1430401388.822196) can0 306#1900000000000000
(1430401388.822475) can0 294#00009CFFFA000100
(1430401388.822728) can0 270#0000000000000000
(1430401388.921720) can0 475#F100134945000000
(1430401388.922075) can0 306#1900000000000000
(1430401388.922337) can0 294#00009CFFFA000100
(1430401388.922588) can0 270#0000000000000000
(1430401389.021724) can0 475#FF00134945000000
(1430401389.022050) can0 306#1900000000000000
(1430401389.022449) can0 294#00009CFFFA000100
(1430401389.022709) can0 270#0000000000000000
(1430401389.121656) can0 475#F700134945000000
(1430401389.121953) can0 306#1900000000000000
(1430401389.122323) can0 294#00009CFFFA000100
(1430401389.122596) can0 270#0000000000000000
(1430401389.221646) can0 475#F100134945000000
(1430401389.222034) can0 306#1900000000000000
(1430401389.222304) can0 294#00009CFFFA000100
(1430401389.222569) can0 270#0000000000000000
(1430401389.321612) can0 475#F500134945000000
(1430401389.321919) can0 306#1A00000000000000
(1430401389.322201) can0 294#00009CFFFA000100
(1430401389.322456) can0 270#0000000000000000
(1430401389.421562) can0 475#FD00134945000000
(1430401389.422014) can0 306#1A00000000000000
(1430401389.422294) can0 294#00009CFFFA000100
(1430401389.422545) can0 270#0000000000000000
(1430401389.521968) can0 475#F100134945000000
(1430401389.522300) can0 294#00009CFFFA000100
(1430401389.522515) can0 306#1A00000000000000
(1430401389.522767) can0 270#0000000000000000
(1430401389.621780) can0 475#F700134945000000
(1430401389.622131) can0 306#1A00000000000000
(1430401389.622383) can0 294#00009CFFFA000100
(1430401389.622634) can0 270#0000000000000000
(1430401389.721654) can0 475#F100134945000000
(1430401389.721990) can0 306#1A00000000000000
(1430401389.722240) can0 294#00009CFFFA000100
(1430401389.722493) can0 270#0000000000000000
(1430401389.821696) can0 475#F700134945000000
(1430401389.822015) can0 306#1900000000000000
(1430401389.822272) can0 294#00009CFFFA000100
(1430401389.822532) can0 270#0000000000000000
(1430401389.921611) can0 475#F500134945000000
(1430401389.921944) can0 306#1900000000000000
(1430401389.922202) can0 294#00009CFFFA000100
(1430401389.922515) can0 270#0000000000000000
(1430401390.021605) can0 475#EF00134945000000
(1430401390.021935) can0 306#1A00000000000000
(1430401390.022190) can0 294#00009CFFFA000100
(1430401390.022441) can0 270#0000000000000000
(1430401390.121615) can0 475#F900134945000000
(1430401390.121920) can0 306#1900000000000000
(1430401390.122172) can0 294#00009CFFFA000100
(1430401390.122427) can0 270#0000000000000000
(1430401390.221575) can0 475#EB00134945000000
(1430401390.221885) can0 306#1900000000000000
(1430401390.222167) can0 294#00009CFFFA000100
(1430401390.222423) can0 270#0000000000000000
(1430401390.322069) can0 475#EF00134945000000
(1430401390.322397) can0 306#1900000000000000
(1430401390.322652) can0 294#00009CFFFA000100
(1430401390.322900) can0 270#0000000000000000
(1430401390.422050) can0 475#F300134945000000
(1430401390.422378) can0 306#1900000000000000
(1430401390.422636) can0 294#00009CFFFA000100
(1430401390.422891) can0 270#0000000000000000
(1430401390.522005) can0 475#EA00134945000000
(1430401390.522346) can0 306#1900000000000000
(1430401390.522608) can0 294#00009CFFFA000100
(1430401390.522861) can0 270#0000000000000000
(1430401390.621974) can0 475#ED00134945000000
(1430401390.622299) can0 306#1900000000000000
(1430401390.622555) can0 294#00009CFFFA000100
(1430401390.622808) can0 270#0000000000000000
(1430401390.721922) can0 475#EF00134945000000
(1430401390.722232) can0 306#1800000000000000
(1430401390.722511) can0 294#00009CFFFA000100
(1430401390.722771) can0 270#0000000000000000
(1430401390.823029) can0 475#F100134945000000
(1430401390.921998) can0 475#ED00134945000000
(1430401390.922343) can0 306#1900000000000000
(1430401390.922596) can0 294#00009CFFFA000100
(1430401390.922848) can0 270#0000000000000000
(1430401391.021820) can0 475#EA00134945000000
(1430401391.022135) can0 306#1800000000000000
(1430401391.022389) can0 294#00009CFFFA000100
(1430401391.022637) can0 270#0000000000000000
(1430401391.122078) can0 475#E800134945000000
(1430401391.122405) can0 306#1800000000000000
(1430401391.122654) can0 294#00009CFFFA000100
(1430401391.122902) can0 270#0000000000000000
(1430401391.221779) can0 475#EA00134945000000
(1430401391.222100) can0 306#1800000000000000
(1430401391.222362) can0 294#00009CFFFA000100
(1430401391.222611) can0 270#0000000000000000
(1430401391.322018) can0 475#E800134945000000
(1430401391.322357) can0 306#1700000000000000
(1430401391.322616) can0 294#00009CFFFA000100
(1430401391.322865) can0 270#0000000000000000
(1430401391.421985) can0 475#FB00134945000000
(1430401391.422307) can0 306#1700000000000000
(1430401391.422580) can0 294#00009CFFFA000100
(1430401391.422842) can0 270#0000000000000000
(1430401391.521938) can0 475#ED00134945000000
(1430401391.522292) can0 306#1700000000000000
(1430401391.522561) can0 294#00009CFFFA000100
(1430401391.522815) can0 270#0000000000000000
(1430401391.621680) can0 475#EA00134945000000
(1430401391.621995) can0 306#1700000000000000
(1430401391.622259) can0 294#00009CFFFA000100
(1430401391.622512) can0 270#0000000000000000
(1430401391.721578) can0 475#E400134945000000
(1430401391.721876) can0 306#1700000000000000
(1430401391.722228) can0 294#00009CFFFA000100
(1430401391.722494) can0 270#0000000000000000
(1430401391.821723) can0 475#F100134945000000
(1430401391.822068) can0 306#1600000000000000
(1430401391.822354) can0 294#00009CFFFA000100
(1430401391.822613) can0 270#0000000000000000
(1430401391.921837) can0 475#EF00134945000000
(1430401391.922197) can0 306#1700000000000000
(1430401391.922451) can0 294#00009CFFFA000100
(1430401391.922707) can0 270#0000000000000000
(1430401392.021763) can0 475#F700134945000000
(1430401392.022068) can0 306#1700000000000000
(1430401392.022355) can0 294#00009CFFFA000100
(1430401392.022616) can0 270#0000000000000000
(1430401392.121663) can0 475#FD00134945000000
(1430401392.121997) can0 306#1700000000000000
(1430401392.122256) can0 294#00009CFFFA000100
(1430401392.122506) can0 270#0000000000000000
(1430401392.221718) can0 475#F700134945000000
(1430401392.222058) can0 306#1700000000000000
(1430401392.222312) can0 294#00009CFFFA000100
(1430401392.222556) can0 270#0000000000000000
(1430401392.321713) can0 475#EA00134945000000
(1430401392.322030) can0 306#1700000000000000
(1430401392.322312) can0 294#00009CFFFA000100
(1430401392.322563) can0 270#0000000000000000
(1430401392.421656) can0 475#F300134945000000
(1430401392.422018) can0 306#1800000000000000
(1430401392.422278) can0 294#00009CFFFA000100
(1430401392.422530) can0 270#0000000000000000
(1430401392.521665) can0 475#F100134945000000
(1430401392.522115) can0 306#1900000000000000
(1430401392.522372) can0 294#00009CFFFA000100
(1430401392.522657) can0 270#0000000000000000
(1430401392.621825) can0 475#F100134945000000
(1430401392.622126) can0 306#1900000000000000
(1430401392.622402) can0 294#00009CFFFA000100
(1430401392.622654) can0 270#0000000000000000
(1430401392.721798) can0 475#F100134945000000
(1430401392.722126) can0 306#1900000000000000
(1430401392.722381) can0 294#00009CFFFA000100
(1430401392.722630) can0 270#0000000000000000
(1430401392.822199) can0 475#EF00134945000000
(1430401392.823170) can0 294#00009CFFFA000100
(1430401392.823623) can0 270#0000000000000000
(1430401392.921739) can0 475#F500134945000000
(1430401392.922104) can0 306#1900000000000000
(1430401392.922370) can0 294#00009CFFFA000100
(1430401392.922624) can0 270#0000000000000000
(1430401393.021731) can0 475#F700134945000000
(1430401393.022070) can0 306#1900000000000000
(1430401393.022341) can0 294#00009CFFFA000100
(1430401393.022595) can0 270#0000000000000000
(1430401393.121651) can0 475#E800134945000000
(1430401393.121973) can0 306#1900000000000000
(1430401393.122253) can0 294#00009CFFFA000100
(1430401393.122502) can0 270#0000000000000000
(1430401393.221629) can0 475#E600134945000000
(1430401393.221961) can0 306#1A00000000000000
(1430401393.222502) can0 294#00009CFFFA000100
(1430401393.222732) can0 270#0000000000000000
(1430401393.321558) can0 475#ED00134945000000
(1430401393.322047) can0 306#1A00000000000000
(1430401393.322311) can0 294#00009CFFFA000100
(1430401393.322561) can0 270#0000000000000000
(1430401393.421993) can0 475#E800134945000000
(1430401393.422326) can0 306#1A00000000000000
(1430401393.422578) can0 294#00009CFFFA000100
(1430401393.422830) can0 270#0000000000000000
(1430401393.521733) can0 475#EA00134945000000
(1430401393.522076) can0 306#1A00000000000000
(1430401393.522338) can0 294#00009CFFFA000100
(1430401393.522592) can0 270#0000000000000000
(1430401393.622215) can0 475#EB00134945000000
(1430401393.622522) can0 306#1A00000000000000
(1430401393.622803) can0 294#00009CFFFA000100
(1430401393.623061) can0 270#0000000000000000
(1430401393.721925) can0 475#EB00134945000000
(1430401393.722266) can0 306#1A00000000000000
(1430401393.722522) can0 294#00009CFFFA000100
(1430401393.722770) can0 270#0000000000000000
(1430401393.821954) can0 475#EB00134945000000
(1430401393.822251) can0 306#1A00000000000000
(1430401393.822650) can0 294#00009CFFFA000100
(1430401393.822912) can0 270#0000000000000000
(1430401393.921939) can0 475#E800134945000000
(1430401393.922247) can0 306#1A00000000000000
(1430401393.922642) can0 294#00009CFFFA000100
(1430401393.922898) can0 270#0000000000000000
(1430401394.021908) can0 475#E200134945000000
(1430401394.022349) can0 306#1A00000000000000
(1430401394.022611) can0 294#00009CFFFA000100
(1430401394.022862) can0 270#0000000000000000
(1430401394.122040) can0 475#F300134945000000
(1430401394.122339) can0 306#1A00000000000000
(1430401394.122590) can0 294#00009CFFFA000100
(1430401394.122839) can0 270#0000000000000000
(1430401394.212033) can0 475#EB00134945000000
(1430401394.212319) can0 306#1A00000000000000
(1430401394.212574) can0 294#00009CFFFA000100
(1430401394.212823) can0 270#0000000000000000
(1430401394.311762) can0 475#EB00134945000000
(1430401394.312203) can0 306#1A00000000000000
(1430401394.312469) can0 294#00009CFFFA000100
(1430401394.312809) can0 270#0000000000000000
(1430401394.411756) can0 475#ED00134945000000
(1430401394.412193) can0 306#1A00000000000000
(1430401394.412441) can0 294#00009CFFFA000100
(1430401394.412688) can0 270#0000000000000000
(1430401394.511942) can0 475#EF00134945000000
(1430401394.512256) can0 306#1A00000000000000
(1430401394.512509) can0 294#00009CFFFA000000
(1430401394.512836) can0 270#0000000000000000
(1430401394.611872) can0 475#F100134945000000
(1430401394.612180) can0 306#1B00000000000000
(1430401394.612431) can0 294#00009CFFFA000100
(1430401394.612683) can0 270#0000000000000000
(1430401394.711686) can0 475#EA00134945000000
(1430401394.712088) can0 306#1B00000000000000
(1430401394.712354) can0 294#00009CFFFA000100
(1430401394.712618) can0 270#0000000000000000
(1430401394.812649) can0 475#ED00134945000000
(1430401394.813115) can0 270#0000000000000000
(1430401394.911618) can0 475#F500134945000000
(1430401394.911978) can0 306#1B00000000000000
(1430401394.912239) can0 294#00009CFFFA000100
(1430401394.912490) can0 270#0000000000000000
(1430401395.011802) can0 475#EB00134945000000
(1430401395.012132) can0 294#00009CFFFA000100
(1430401395.012348) can0 306#1B00000000000000
(1430401395.012599) can0 270#0000000000000000
(1430401395.111758) can0 475#E400134945000000
(1430401395.112056) can0 306#1B00000000000000
(1430401395.112305) can0 294#00009CFFFA000100
(1430401395.112554) can0 270#0000000000000000
(1430401395.211749) can0 475#F500134945000000
(1430401395.212054) can0 306#1B00000000000000
(1430401395.212310) can0 294#00009CFFFA000100
(1430401395.212559) can0 270#0000000000000000
(1430401395.311696) can0 475#EF00134945000000
(1430401395.311999) can0 306#1B00000000000000
(1430401395.312253) can0 294#00009CFFFA000100
(1430401395.312535) can0 270#0000000000000000
(1430401395.411915) can0 475#F700134945000000
(1430401395.412209) can0 306#1B00000000000000
(1430401395.412464) can0 294#00009CFFFA000100
(1430401395.412714) can0 270#0000000000000000
(1430401395.511672) can0 475#F100134945000000
(1430401395.512252) can0 294#00009CFFFA000100
(1430401395.512484) can0 306#1B00000000000000
(1430401395.611608) can0 475#E800134945000000
(1430401395.611937) can0 306#1B00000000000000
(1430401395.612299) can0 294#00009CFFFA000100
(1430401395.612550) can0 270#0000000000000000
(1430401395.711572) can0 475#EB00134945000000
(1430401395.712054) can0 306#1B00000000000000
(1430401395.712328) can0 294#00009CFFFA000100
(1430401395.712587) can0 270#0000000000000000
(1430401395.811755) can0 475#E600134945000000
(1430401395.812106) can0 306#1A00000000000000
(1430401395.812364) can0 294#00009CFFFA000100
(1430401395.812614) can0 270#0000000000000000
(1430401395.911570) can0 475#F100134945000000
(1430401395.911890) can0 306#1A00000000000000
(1430401395.912289) can0 294#00009CFFFA000100
(1430401395.912550) can0 270#0000000000000000
(1430401396.011711) can0 475#F100134945000000
(1430401396.012027) can0 306#1A00000000000000
(1430401396.012287) can0 294#00009CFFFA000100
(1430401396.012541) can0 270#0000000000000000
(1430401396.111467) can0 475#ED00134945000000
(1430401396.111991) can0 306#1B00000000000000
(1430401396.112263) can0 294#00009CFFFA000100
(1430401396.112550) can0 270#0000000000000000
(1430401396.211667) can0 475#E800134945000000
(1430401396.212001) can0 306#1A00000000000000
(1430401396.212253) can0 294#00009CFFFA000100
(1430401396.212507) can0 270#0000000000000000
(1430401396.311624) can0 475#EA00134945000000
(1430401396.311935) can0 306#1B00000000000000
(1430401396.312192) can0 294#00009CFFFA000100
(1430401396.312442) can0 270#0000000000000000
(1430401396.411624) can0 475#EB00134945000000
(1430401396.412057) can0 306#1B00000000000000
(1430401396.412312) can0 294#00009CFFFA000100
(1430401396.412561) can0 270#0000000000000000
(1430401396.511588) can0 475#ED00134945000000
(1430401396.511903) can0 306#1B00000000000000
(1430401396.512278) can0 294#00009CFFFA000100
(1430401396.512534) can0 270#0000000000000000
(1430401396.611767) can0 475#E400134945000000
(1430401396.612127) can0 306#1A00000000000000
(1430401396.612383) can0 294#00009CFFFA000100
(1430401396.612624) can0 270#0000000000000000
(1430401396.711782) can0 475#E800134945000000
(1430401396.712096) can0 306#1A00000000000000
(1430401396.712351) can0 294#00009CFFFA000100
(1430401396.712612) can0 270#0000000000000000
(1430401396.811691) can0 475#E600134945000000
(1430401396.812268) can0 306#1A00000000000000
(1430401396.812564) can0 270#0000000000000000
(1430401396.812776) can0 294#00009CFFFA000100
(1430401396.911661) can0 475#E400134945000000
(1430401396.912017) can0 306#1A00000000000000
(1430401396.912272) can0 294#00009CFFFA000100
(1430401396.912523) can0 270#0000000000000000
(1430401397.011667) can0 475#ED00134945000000
(1430401397.011991) can0 306#1A00000000000000
(1430401397.012246) can0 294#00009CFFFA000100
(1430401397.012501) can0 270#0000000000000000
(1430401397.111621) can0 475#ED00134945000000
(1430401397.111958) can0 306#1A00000000000000
(1430401397.112214) can0 294#00009CFFFA000100
(1430401397.112476) can0 270#0000000000000000
(1430401397.211857) can0 475#E600134945000000
(1430401397.212181) can0 306#1A00000000000000
(1430401397.212437) can0 294#00009CFFFA000100
(1430401397.212688) can0 270#0000000000000000
(1430401397.311873) can0 475#E200134945000000
(1430401397.312219) can0 306#1B00000000000000
(1430401397.312485) can0 294#00009CFFFA000100
(1430401397.312735) can0 270#0000000000000000
(1430401397.412050) can0 475#F100134945000000
(1430401397.412350) can0 306#1B00000000000000
(1430401397.412614) can0 294#00009CFFFA000100
(1430401397.412868) can0 270#0000000000000000
(1430401397.512060) can0 475#E600134945000000
(1430401397.512376) can0 306#1A00000000000000
(1430401397.512639) can0 294#00009CFFFA000100
(1430401397.512889) can0 270#0000000000000000
(1430401397.611978) can0 475#E000134945000000
(1430401397.612282) can0 306#1A00000000000000
(1430401397.612528) can0 294#00009CFFFA000100
(1430401397.612779) can0 270#0000000000000000
(1430401397.711897) can0 475#E200134945000000
(1430401397.712204) can0 306#1A00000000000000
(1430401397.712472) can0 294#00009CFFFA000100
(1430401397.713110) can0 270#0000000000000000
(1430401397.811924) can0 475#ED00134945000000
(1430401397.812224) can0 306#1A00000000000000
(1430401397.812509) can0 294#00009CFFFA000100
(1430401397.812870) can0 270#0000000000000000
(1430401397.911897) can0 475#E000134945000000
(1430401397.912206) can0 306#1A00000000000000
(1430401397.912465) can0 294#00009CFFFA000100
(1430401397.912716) can0 270#0000000000000000
(1430401398.011765) can0 475#EA00134945000000
(1430401398.012089) can0 306#1900000000000000
(1430401398.012381) can0 294#00009CFFFA000100
(1430401398.012640) can0 270#0000000000000000
(1430401398.111848) can0 475#E200134945000000
(1430401398.112154) can0 306#1900000000000000
(1430401398.112435) can0 294#00009CFFFA000100
(1430401398.112697) can0 270#0000000000000000
(1430401398.211816) can0 475#E200134945000000
(1430401398.212118) can0 306#1900000000000000
(1430401398.212396) can0 294#00009CFFFA000100
(1430401398.212648) can0 270#0000000000000000
(1430401398.311800) can0 475#E000134945000000
(1430401398.312143) can0 306#1900000000000000
(1430401398.312398) can0 294#00009CFFFA000100
(1430401398.312684) can0 270#0000000000000000
(1430401398.411778) can0 475#DE00134945000000
(1430401398.412094) can0 306#1800000000000000
(1430401398.412356) can0 294#00009CFFFA000100
(1430401398.412609) can0 270#0000000000000000
(1430401398.511750) can0 475#E400134945000000
(1430401398.512067) can0 306#1800000000000000
(1430401398.512321) can0 294#00009CFFFA000100
(1430401398.512568) can0 270#0000000000000000
(1430401398.611690) can0 475#ED00134945000000
(1430401398.611988) can0 306#1800000000000000
(1430401398.612255) can0 294#00009CFFFA000100
(1430401398.612519) can0 270#0000000000000000
(1430401398.711626) can0 475#EA00134945000000
(1430401398.711932) can0 306#1900000000000000
(1430401398.712186) can0 294#00009CFFFA000100
(1430401398.712437) can0 270#0000000000000000
(1430401398.811636) can0 475#ED00134945000000
(1430401398.812050) can0 306#1900000000000000
(1430401398.812307) can0 294#00009CFFFA000100
(1430401398.812562) can0 270#0000000000000000
(1430401398.911607) can0 475#E600134945000000
(1430401398.911920) can0 306#1900000000000000
(1430401398.913703) can0 294#00009CFFFA000100
(1430401399.011606) can0 475#EA00134945000000
(1430401399.012016) can0 306#1900000000000000
(1430401399.012302) can0 294#00009CFFFA000100
(1430401399.012562) can0 270#0000000000000000
(1430401399.111550) can0 475#EF00134945000000
(1430401399.111843) can0 306#1900000000000000
(1430401399.112240) can0 294#00009CFFFA000100
(1430401399.112496) can0 270#0000000000000000
(1430401399.211546) can0 475#E000134945000000
(1430401399.211931) can0 306#1800000000000000
(1430401399.212212) can0 294#00009CFFFA000100
(1430401399.212466) can0 270#0000000000000000
(1430401399.311693) can0 475#E600134945000000
(1430401399.312015) can0 306#1800000000000000
(1430401399.312270) can0 294#00009CFFFA000100
(1430401399.312521) can0 270#0000000000000000
(1430401399.411637) can0 475#E000134945000000
(1430401399.411933) can0 306#1800000000000000
(1430401399.412183) can0 294#00009CFFFA000100
(1430401399.412432) can0 270#0000000000000000
(1430401399.511653) can0 475#EF00134945000000
(1430401399.511988) can0 306#1900000000000000
(1430401399.512394) can0 294#00009CFFFA000100
(1430401399.512654) can0 270#0000000000000000
(1430401399.611639) can0 475#DE00134945000000
(1430401399.611959) can0 306#1900000000000000
(1430401399.612324) can0 294#00009CFFFA000100
(1430401399.612565) can0 270#0000000000000000
(1430401399.711844) can0 475#DA00134945000000
(1430401399.712171) can0 306#1900000000000000
(1430401399.712426) can0 294#00009CFFFA000100
(1430401399.712686) can0 270#0000000000000000
(1430401399.811990) can0 475#E400134945000000
(1430401399.812303) can0 306#1900000000000000
(1430401399.812572) can0 294#00009CFFFA000100
(1430401399.812822) can0 270#0000000000000000
(1430401399.911916) can0 475#E400134945000000
(1430401399.912266) can0 306#1900000000000000
(1430401399.912532) can0 294#00009CFFFA000100
(1430401399.912785) can0 270#0000000000000000
(1430401400.011935) can0 475#E000134945000000
(1430401400.012554) can0 306#1A00000000000000
(1430401400.012794) can0 294#00009CFFFA000100
(1430401400.111706) can0 475#E200134945000000
(1430401400.112025) can0 306#1A00000000000000
(1430401400.112299) can0 294#00009CFFFA000100
(1430401400.112553) can0 270#0000000000000000
(1430401400.211877) can0 475#E000134945000000
(1430401400.212186) can0 306#1A00000000000000
(1430401400.212446) can0 294#00009CFFFA000100
(1430401400.212700) can0 270#0000000000000000
(1430401400.311917) can0 475#D800134945000000
(1430401400.312267) can0 306#1900000000000000
(1430401400.312567) can0 294#00009CFFFA000100
(1430401400.312825) can0 270#0000000000000000
(1430401400.411839) can0 475#D400134945000000
(1430401400.412134) can0 306#1900000000000000
(1430401400.412398) can0 294#00009CFFFA000100
(1430401400.412646) can0 270#0000000000000000
(1430401400.512051) can0 475#DA00134945000000
(1430401400.512356) can0 306#1800000000000000
(1430401400.512608) can0 294#00009CFFFA000100
(1430401400.512861) can0 270#0000000000000000
(1430401400.612030) can0 475#DA00134945000000
(1430401400.612325) can0 306#1800000000000000
(1430401400.612583) can0 294#00009CFFFA000100
(1430401400.612831) can0 270#0000000000000000
(1430401400.711994) can0 475#DE00134945000000
(1430401400.712319) can0 306#1800000000000000
(1430401400.712579) can0 294#00009CFFFA000100
(1430401400.712837) can0 270#0000000000000000
(1430401400.811994) can0 475#E600134945000000
(1430401400.812329) can0 306#1800000000000000
(1430401400.812586) can0 294#00009CFFFA000100
(1430401400.812836) can0 270#0000000000000000
(1430401400.911748) can0 475#E200134945000000
(1430401400.912172) can0 306#1800000000000000
(1430401400.912455) can0 294#00009CFFFA000100
(1430401400.912722) can0 270#0000000000000000
(1430401401.011712) can0 475#DE00134945000000
(1430401401.012129) can0 306#1800000000000000
(1430401401.012389) can0 294#00009CFFFA000100
(1430401401.012640) can0 270#0000000000000000
(1430401401.111662) can0 475#E800134945000000
(1430401401.111948) can0 306#1800000000000000
(1430401401.112335) can0 294#00009CFFFA000100
(1430401401.112637) can0 270#0000000000000000
(1430401401.211618) can0 475#E000134945000000
(1430401401.212120) can0 306#1800000000000000
(1430401401.212375) can0 294#00009CFFFA000100
(1430401401.212628) can0 270#0000000000000000
(1430401401.311823) can0 475#E600134945000000
(1430401401.312124) can0 306#1900000000000000
(1430401401.312375) can0 294#00009CFFFA000100
(1430401401.312622) can0 270#0000000000000000
(1430401401.411784) can0 475#E400134945000000
(1430401401.412086) can0 306#1900000000000000
(1430401401.412337) can0 294#00009CFFFA000100
(1430401401.412590) can0 270#0000000000000000
(1430401401.511781) can0 475#E800134945000000
(1430401401.512081) can0 306#1900000000000000
(1430401401.512327) can0 294#00009CFFFA000100
(1430401401.512569) can0 270#0000000000000000
(1430401401.611709) can0 475#DE00134945000000
(1430401401.612005) can0 306#1900000000000000
(1430401401.612265) can0 294#00009CFFFA000100
(1430401401.612517) can0 270#0000000000000000
(1430401401.711666) can0 475#E400134945000000
(1430401401.711989) can0 306#1900000000000000
(1430401401.712243) can0 294#00009CFFFA000100
(1430401401.712495) can0 270#0000000000000000
(1430401401.811648) can0 475#E600134945000000
(1430401401.811953) can0 306#1900000000000000
(1430401401.812206) can0 294#00009CFFFA000100
(1430401401.812454) can0 270#0000000000000000
(1430401401.911660) can0 475#E800134945000000
(1430401401.912007) can0 306#1900000000000000
(1430401401.912263) can0 294#00009CFFFA000100
(1430401401.912509) can0 270#0000000000000000
(1430401402.011796) can0 475#DE00134945000000
(1430401402.012140) can0 306#1900000000000000
(1430401402.012388) can0 294#00009CFFFA000100
(1430401402.012633) can0 270#0000000000000000
(1430401402.111822) can0 475#DE00134945000000
(1430401402.112125) can0 306#1A00000000000000
(1430401402.112379) can0 294#00009CFFFA000100
(1430401402.112627) can0 270#0000000000000000
(1430401402.211782) can0 475#E200134945000000
(1430401402.212060) can0 306#1A00000000000000
(1430401402.212307) can0 294#00009CFFFA000100
(1430401402.212931) can0 270#0000000000000000
(1430401402.311785) can0 475#D400134945000000
(1430401402.312096) can0 294#00009CFFFA000100
(1430401402.312303) can0 306#1A00000000000000
(1430401402.312550) can0 270#0000000000000000
(1430401402.411715) can0 475#E000134945000000
(1430401402.412039) can0 306#1A00000000000000
(1430401402.412294) can0 294#00009CFFFA000100
(1430401402.412539) can0 270#0000000000000000
(1430401402.511662) can0 475#E600134945000000
(1430401402.511971) can0 306#1A00000000000000
(1430401402.512221) can0 294#00009CFFFA000100
(1430401402.512543) can0 270#0000000000000000
(1430401402.611641) can0 475#DC00134945000000
(1430401402.611968) can0 306#1A00000000000000
(1430401402.612332) can0 294#00009CFFFA000100
(1430401402.612592) can0 270#0000000000000000
(1430401402.711687) can0 475#CF00134945000000
(1430401402.712097) can0 306#1A00000000000000
(1430401402.712348) can0 294#00009CFFFA000100
(1430401402.712598) can0 270#0000000000000000
(1430401402.811803) can0 475#DA00134945000000
(1430401402.812153) can0 306#1A00000000000000
(1430401402.812403) can0 294#00009CFFFA000100
(1430401402.812650) can0 270#0000000000000000
(1430401402.912019) can0 475#E800134945000000
(1430401402.912353) can0 306#1A00000000000000
(1430401402.912605) can0 294#00009CFFFA000100
(1430401402.912852) can0 270#0000000000000000
(1430401403.011836) can0 475#E000134945000000
(1430401403.012164) can0 306#1A00000000000000
(1430401403.012415) can0 294#00009CFFFA000100
(1430401403.012661) can0 270#0000000000000000
(1430401403.111940) can0 475#E600134945000000
(1430401403.112268) can0 306#1B00000000000000
(1430401403.112530) can0 294#00009CFFFA000100
(1430401403.112784) can0 270#0000000000000000
(1430401403.211486) can0 475#E200134945000000
(1430401403.211951) can0 306#1B00000000000000
(1430401403.212216) can0 294#00009CFFFA000100
(1430401403.212469) can0 270#0000000000000000
(1430401403.311470) can0 475#D800134945000000
(1430401403.311865) can0 306#1B00000000000000
(1430401403.312130) can0 294#00009CFFFA000100
(1430401403.312408) can0 270#0000000000000000
(1430401403.411825) can0 475#DE00134945000000
(1430401403.412188) can0 306#1B00000000000000
(1430401403.412454) can0 294#00009CFFFA000100
(1430401403.412717) can0 270#0000000000000000
(1430401403.511865) can0 475#EB00134945000000
(1430401403.512416) can0 306#1C00000000000000
(1430401403.512718) can0 270#0000000000000000
(1430401403.512932) can0 294#00009CFFFA000100
(1430401403.611902) can0 475#E000134945000000
(1430401403.612228) can0 306#1B00000000000000
(1430401403.612620) can0 294#00009CFFFA000100
(1430401403.612878) can0 270#0000000000000000
(1430401403.711842) can0 475#DA00134945000000
(1430401403.712139) can0 306#1B00000000000000
(1430401403.712530) can0 294#00009CFFFA000100
(1430401403.712787) can0 270#0000000000000000
(1430401403.811788) can0 475#DA00134945000000
(1430401403.812207) can0 306#1B00000000000000
(1430401403.812471) can0 294#00009CFFFA000100
(1430401403.812752) can0 270#0000000000000000
(1430401403.912451) can0 475#DE00134945000000
(1430401403.912746) can0 306#1B00000000000000
(1430401403.913137) can0 270#0000000000000000
(1430401404.011981) can0 475#E000134945000000
(1430401404.012311) can0 306#1B00000000000000
(1430401404.012561) can0 294#00009CFFFA000100
(1430401404.012819) can0 270#0000000000000000
(1430401404.111973) can0 475#E400134945000000
(1430401404.112299) can0 294#00009CFFFA000100
(1430401404.112505) can0 306#1A00000000000000
(1430401404.112755) can0 270#0000000000000000
(1430401404.211840) can0 475#DC00134945000000
(1430401404.212180) can0 306#1A00000000000000
(1430401404.212434) can0 294#00009CFFFA000100
(1430401404.212685) can0 270#0000000000000000
(1430401404.311665) can0 475#E400134945000000
(1430401404.312094) can0 306#1A00000000000000
(1430401404.312353) can0 294#00009CFFFA000100
(1430401404.312613) can0 270#0000000000000000
(1430401404.411788) can0 475#DA00134945000000
(1430401404.412142) can0 306#1A00000000000000
(1430401404.412402) can0 294#00009CFFFA000100
(1430401404.412655) can0 270#0000000000000000
(1430401404.511764) can0 475#D400134945000000
(1430401404.512388) can0 306#1A00000000000000
(1430401404.512621) can0 294#00009CFFFA000100
(1430401404.612000) can0 475#E000134945000000
(1430401404.612545) can0 306#1900000000000000
(1430401404.612860) can0 294#00009CFFFA000100
(1430401404.711716) can0 475#E000134945000000
(1430401404.712059) can0 306#1A00000000000000
(1430401404.712313) can0 294#00009CFFFA000100
(1430401404.712560) can0 270#0000000000000000
(1430401404.811734) can0 475#DC00134945000000
(1430401404.812024) can0 306#1A00000000000000
(1430401404.812269) can0 294#00009CFFFA000100
(1430401404.812515) can0 270#0000000000000000
(1430401404.911628) can0 475#E200134945000000
(1430401404.911968) can0 306#1A00000000000000
(1430401404.912234) can0 294#00009CFFFA000100
(1430401404.912484) can0 270#0000000000000000
(1430401405.011685) can0 475#DA00134945000000
(1430401405.012045) can0 306#1A00000000000000
(1430401405.012301) can0 294#00009CFFFA000100
(1430401405.012549) can0 270#0000000000000000
(1430401405.111827) can0 475#D400134945000000
(1430401405.112196) can0 306#1A00000000000000
(1430401405.112454) can0 294#00009CFFFA000100
(1430401405.112703) can0 270#0000000000000000
(1430401405.211727) can0 475#DE00134945000000
(1430401405.212163) can0 306#1900000000000000
(1430401405.212414) can0 294#00009CFFFA000100
(1430401405.212657) can0 270#0000000000000000
(1430401405.311808) can0 475#E400134945000000
(1430401405.312119) can0 306#1900000000000000
(1430401405.312372) can0 294#00009CFFFA000100
(1430401405.312620) can0 270#0000000000000000
(1430401405.411716) can0 475#E200134945000000
(1430401405.412031) can0 306#1900000000000000
(1430401405.412283) can0 294#00009CFFFA000100
(1430401405.412529) can0 270#0000000000000000
(1430401405.511722) can0 475#DC00134945000000
(1430401405.512041) can0 306#1900000000000000
(1430401405.512297) can0 294#00009CFFFA000100
(1430401405.512548) can0 270#0000000000000000
(1430401405.611674) can0 475#DC00134945000000
(1430401405.611999) can0 306#1900000000000000
(1430401405.612263) can0 294#00009CFFFA000100
(1430401405.612519) can0 270#0000000000000000
(1430401405.711706) can0 475#D800134945000000
(1430401405.712007) can0 306#1A00000000000000
(1430401405.712266) can0 294#00009CFFFA000100
(1430401405.712528) can0 270#0000000000000000
(1430401405.811662) can0 475#E000134945000000
(1430401405.812005) can0 306#1A00000000000000
(1430401405.812257) can0 294#00009CFFFA000100
(1430401405.812512) can0 270#0000000000000000
(1430401405.911861) can0 475#D100134945000000
(1430401405.912200) can0 306#1900000000000000
(1430401405.912459) can0 294#00009CFFFA000100
(1430401405.912706) can0 270#0000000000000000
(1430401406.011798) can0 475#E200134945000000
(1430401406.012138) can0 306#1900000000000000
(1430401406.012401) can0 294#00009CFFFA000100
(1430401406.012687) can0 270#0000000000000000
(1430401406.111964) can0 475#D400134945000000
(1430401406.112291) can0 306#1900000000000000
(1430401406.112545) can0 294#00009CFFFA000100
(1430401406.112793) can0 270#0000000000000000
(1430401406.211753) can0 475#E000134945000000
(1430401406.212079) can0 306#1900000000000000
(1430401406.212337) can0 294#00009CFFFA000100
(1430401406.212592) can0 270#0000000000000000
(1430401406.311563) can0 475#DC00134945000000
(1430401406.311991) can0 306#1900000000000000
(1430401406.312247) can0 294#00009CFFFA000100
(1430401406.312499) can0 270#0000000000000000
(1430401406.411901) can0 475#D400134945000000
(1430401406.412201) can0 306#1900000000000000
(1430401406.412456) can0 294#00009CFFFA000100
(1430401406.412710) can0 270#0000000000000000
(1430401406.511844) can0 475#DE00134945000000
(1430401406.512182) can0 306#1900000000000000
(1430401406.512437) can0 294#00009CFFFA000100
(1430401406.512697) can0 270#0000000000000000
(1430401406.611830) can0 475#DA00134945000000
(1430401406.612141) can0 306#1900000000000000
(1430401406.612394) can0 294#00009CFFFA000100
(1430401406.612647) can0 270#0000000000000000
(1430401406.712063) can0 475#CF00134945000000
(1430401406.712379) can0 306#1A00000000000000
(1430401406.712632) can0 294#00009CFFFA000100
(1430401406.712881) can0 270#0000000000000000
(1430401406.812056) can0 475#DC00134945000000
(1430401406.812397) can0 306#1900000000000000
(1430401406.812651) can0 294#00009CFFFA000100
(1430401406.812909) can0 270#0000000000000000
(1430401406.912040) can0 475#D600134945000000
(1430401406.912365) can0 306#1900000000000000
(1430401406.912618) can0 294#00009CFFFA000100
(1430401406.912868) can0 270#0000000000000000
(1430401407.011966) can0 475#D800134945000000
(1430401407.012305) can0 306#1900000000000000
(1430401407.012566) can0 294#00009CFFFA000100
(1430401407.012822) can0 270#0000000000000000
(1430401407.112007) can0 475#D800134945000000
(1430401407.112305) can0 306#1A00000000000000
(1430401407.112558) can0 294#00009CFFFA000100
(1430401407.112810) can0 270#0000000000000000
(1430401407.211949) can0 475#D400134945000000
(1430401407.212274) can0 306#1A00000000000000
(1430401407.212532) can0 294#00009CFFFA000100
(1430401407.212785) can0 270#0000000000000000
(1430401407.311722) can0 475#DE00134945000000
(1430401407.312133) can0 306#1A00000000000000
(1430401407.312404) can0 294#00009CFFFA000100
(1430401407.312659) can0 270#0000000000000000
(1430401407.411672) can0 475#D300134945000000
(1430401407.412102) can0 306#1A00000000000000
(1430401407.412356) can0 294#00009CFFFA000100
(1430401407.412612) can0 270#0000000000000000
(1430401407.511813) can0 475#DC00134945000000
(1430401407.512125) can0 306#1A00000000000000
(1430401407.512382) can0 294#00009CFFFA000100
(1430401407.512631) can0 270#0000000000000000
(1430401407.611837) can0 475#E000134945000000
(1430401407.612132) can0 306#1A00000000000000
(1430401407.612392) can0 294#00009CFFFA000100
(1430401407.612645) can0 270#0000000000000000
(1430401407.711759) can0 475#DA00134945000000
(1430401407.712085) can0 306#1A00000000000000
(1430401407.712354) can0 294#00009CFFFA000100
(1430401407.712637) can0 270#0000000000000000
(1430401407.811579) can0 475#D300134945000000
(1430401407.811996) can0 306#1B00000000000000
(1430401407.812250) can0 294#00009CFFFA000100
(1430401407.812500) can0 270#0000000000000000
(1430401407.911717) can0 475#DC00134945000000
(1430401407.912043) can0 306#1B00000000000000
(1430401407.912299) can0 294#00009CFFFA000100
(1430401407.912552) can0 270#0000000000000000
(1430401408.011509) can0 475#D600134945000000
(1430401408.011822) can0 306#1B00000000000000
(1430401408.012216) can0 294#00009CFFFA000100
(1430401408.012477) can0 270#0000000000000000
(1430401408.111668) can0 475#E000134945000000
(1430401408.112154) can0 306#1B00000000000000
(1430401408.112417) can0 294#00009CFFFA000100
(1430401408.112670) can0 270#0000000000000000
(1430401408.211936) can0 475#D600134945000000
(1430401408.212266) can0 294#00009CFFFA000100
(1430401408.212484) can0 306#1B00000000000000
(1430401408.212736) can0 270#0000000000000000
(1430401408.311871) can0 475#CD00134945000000
(1430401408.312185) can0 306#1B00000000000000
(1430401408.312465) can0 294#00009CFFFA000100
(1430401408.312723) can0 270#0000000000000000
(1430401408.411868) can0 475#D400134945000000
(1430401408.412169) can0 306#1B00000000000000
(1430401408.412424) can0 294#00009CFFFA000100
(1430401408.412807) can0 270#0000000000000000
(1430401408.511839) can0 475#D600134945000000
(1430401408.512171) can0 306#1B00000000000000
(1430401408.512428) can0 294#00009CFFFA000100
(1430401408.512680) can0 270#0000000000000000
(1430401408.611761) can0 475#D400134945000000
(1430401408.612060) can0 306#1B00000000000000
(1430401408.612320) can0 294#00009CFFFA000100
(1430401408.612571) can0 270#0000000000000000
(1430401408.711739) can0 475#D300134945000000
(1430401408.712045) can0 306#1A00000000000000
(1430401408.712308) can0 294#00009CFFFA000100
(1430401408.712559) can0 270#0000000000000000
(1430401408.811721) can0 475#D600134945000000
(1430401408.812044) can0 306#1A00000000000000
(1430401408.812302) can0 294#00009CFFFA000100
(1430401408.812556) can0 270#0000000000000000
(1430401408.911701) can0 475#D800134945000000
(1430401408.912035) can0 306#1A00000000000000
(1430401408.912290) can0 294#00009CFFFA000100
(1430401408.912541) can0 270#0000000000000000
(1430401409.011673) can0 475#CD00134945000000
(1430401409.012253) can0 306#1A00000000000000
(1430401409.012801) can0 270#0000000000000000
(1430401409.111673) can0 475#D800134945000000
(1430401409.112064) can0 306#1A00000000000000
(1430401409.112343) can0 294#00009CFFFA000100
(1430401409.112591) can0 270#0000000000000000
(1430401409.211812) can0 475#DA00134945000000
(1430401409.212157) can0 306#1A00000000000000
(1430401409.212415) can0 294#00009CFFFA000100
(1430401409.212664) can0 270#0000000000000000
(1430401409.311790) can0 475#D800134945000000
(1430401409.312125) can0 306#1A00000000000000
(1430401409.312375) can0 294#00009CFFFA000100
(1430401409.312627) can0 270#0000000000000000
(1430401409.411531) can0 475#D600134945000000
(1430401409.412014) can0 306#1A00000000000000
(1430401409.412273) can0 294#00009CFFFA000100
(1430401409.412553) can0 270#0000000000000000
(1430401409.511532) can0 475#D300134945000000
(1430401409.511834) can0 306#1A00000000000000
(1430401409.512220) can0 294#00009CFFFA000100
(1430401409.512482) can0 270#0000000000000000
(1430401409.611898) can0 475#CF00134945000000
(1430401409.612199) can0 306#1A00000000000000
(1430401409.612452) can0 294#00009CFFFA000100
(1430401409.612702) can0 270#0000000000000000
(1430401409.711916) can0 475#D100134945000000
(1430401409.712232) can0 306#1A00000000000000
(1430401409.712488) can0 294#00009CFFFA000100
(1430401409.712738) can0 270#0000000000000000
(1430401409.811939) can0 475#D400134945000000
(1430401409.812259) can0 306#1A00000000000000
(1430401409.812516) can0 294#00009CFFFA000100
(1430401409.812770) can0 270#0000000000000000
(1430401409.912133) can0 475#CB00134945000000
(1430401409.912442) can0 306#1A00000000000000
(1430401409.912698) can0 294#00009CFFFA000100
(1430401409.912947) can0 270#0000000000000000
(1430401410.012038) can0 475#D300134945000000
(1430401410.012363) can0 306#1900000000000000
(1430401410.012617) can0 294#00009CFFFA000100
(1430401410.012869) can0 270#0000000000000000
(1430401410.111821) can0 475#CF00134945000000
(1430401410.112126) can0 306#1A00000000000000
(1430401410.112520) can0 294#00009CFFFA000100
(1430401410.112774) can0 270#0000000000000000
(1430401410.211795) can0 475#D400134945000000
(1430401410.212083) can0 306#1A00000000000000
(1430401410.212474) can0 294#00009CFFFA000100
(1430401410.212729) can0 270#0000000000000000
(1430401410.311754) can0 475#DC00134945000000
(1430401410.312050) can0 306#1900000000000000
(1430401410.312447) can0 294#00009CFFFA000100
(1430401410.312724) can0 270#0000000000000000
(1430401410.411755) can0 475#CF00134945000000
(1430401410.412176) can0 306#1900000000000000
(1430401410.412428) can0 294#00009CFFFA000100
(1430401410.412678) can0 270#0000000000000000
(1430401410.511684) can0 475#D600134945000000
(1430401410.512097) can0 306#1800000000000000
(1430401410.512378) can0 294#00009CFFFA000100
(1430401410.512632) can0 270#0000000000000000
(1430401410.611908) can0 475#CB00134945000000
(1430401410.612235) can0 306#1800000000000000
(1430401410.612487) can0 294#00009CFFFA000100
(1430401410.612867) can0 270#0000000000000000
(1430401410.711821) can0 475#D300134945000000
(1430401410.712130) can0 306#1800000000000000
(1430401410.712387) can0 294#00009CFFFA000100
(1430401410.712638) can0 270#0000000000000000
(1430401410.812052) can0 306#1800000000000000
(1430401410.812591) can0 294#00009CFFFA000100
(1430401410.813000) can0 270#0000000000000000
(1430401410.911731) can0 475#D100134945000000
(1430401410.912096) can0 306#1800000000000000
(1430401410.912353) can0 294#00009CFFFA000100
(1430401410.912613) can0 270#0000000000000000
(1430401411.012018) can0 306#1800000000000000
(1430401411.012341) can0 294#00009CFFFA000100
(1430401411.012836) can0 270#0000000000000000
(1430401411.111686) can0 475#CF00134945000000
(1430401411.112011) can0 306#1700000000000000
(1430401411.112267) can0 294#00009CFFFA000100
(1430401411.112514) can0 270#0000000000000000
(1430401411.211698) can0 475#D300134945000000
(1430401411.212004) can0 306#1700000000000000
(1430401411.212260) can0 294#00009CFFFA000100
(1430401411.212512) can0 270#0000000000000000
(1430401411.311703) can0 475#D100134945000000
(1430401411.312346) can0 306#1700000000000000
(1430401411.312585) can0 294#00009CFFFA000100
(1430401411.411908) can0 475#D100134945000000
(1430401411.412200) can0 306#1800000000000000
(1430401411.412457) can0 294#00009CFFFA000100
(1430401411.412709) can0 270#0000000000000000
(1430401411.511680) can0 475#D600134945000000
(1430401411.512103) can0 306#1700000000000000
(1430401411.512355) can0 294#00009CFFFA000100
(1430401411.512605) can0 270#0000000000000000
(1430401411.611774) can0 475#D100134945000000
(1430401411.612132) can0 306#1800000000000000
(1430401411.612389) can0 294#00009CFFFA000100
(1430401411.612639) can0 270#0000000000000000
(1430401411.712468) can0 294#00009CFFFA000100
(1430401411.811757) can0 475#CF00134945000000
(1430401411.812095) can0 306#1700000000000000
(1430401411.812343) can0 294#00009CFFFA000100
(1430401411.812594) can0 270#0000000000000000
(1430401411.911706) can0 475#D600134945000000
(1430401411.912037) can0 306#1700000000000000
(1430401411.912291) can0 294#00009CFFFA000100
(1430401411.912543) can0 270#0000000000000000
(1430401412.011756) can0 475#D400134945000000
(1430401412.012117) can0 306#1700000000000000
(1430401412.012372) can0 294#00009CFFFA000100
(1430401412.012621) can0 270#0000000000000000
(1430401412.111696) can0 475#D300134945000000
(1430401412.112030) can0 306#1700000000000000
(1430401412.112386) can0 294#00009CFFFA000100
(1430401412.112632) can0 270#0000000000000000
(1430401412.212099) can0 475#D400134945000000
(1430401412.212403) can0 306#1700000000000000
(1430401412.212655) can0 294#00009CFFFA000100
(1430401412.212910) can0 270#0000000000000000
(1430401412.311860) can0 475#D400134945000000
(1430401412.312169) can0 306#1600000000000000
(1430401412.312420) can0 294#00009CFFFA000100
(1430401412.312672) can0 270#0000000000000000
(1430401412.412026) can0 475#D400134945000000
(1430401412.412326) can0 306#1600000000000000
(1430401412.412579) can0 294#00009CFFFA000100
(1430401412.412827) can0 270#0000000000000000
(1430401412.511793) can0 475#D600134945000000
(1430401412.512114) can0 306#1600000000000000
(1430401412.512402) can0 294#00009CFFFA000100
(1430401412.512662) can0 270#0000000000000000
(1430401412.611989) can0 475#D400134945000000
(1430401412.612290) can0 306#1600000000000000
(1430401412.612545) can0 294#00009CFFFA000100
(1430401412.612792) can0 270#0000000000000000
(1430401412.711725) can0 475#D600134945000000
(1430401412.712056) can0 306#1600000000000000
(1430401412.712315) can0 294#00009CFFFA000100
(1430401412.712572) can0 270#0000000000000000
(1430401412.811942) can0 475#D800134945000000
(1430401412.812284) can0 306#1600000000000000
(1430401412.812543) can0 294#00009CFFFA000100
(1430401412.812797) can0 270#0000000000000000
(1430401412.911965) can0 475#D600134945000000
(1430401412.912312) can0 306#1600000000000000
(1430401412.912569) can0 294#00009CFFFA000100
(1430401412.912822) can0 270#0000000000000000
(1430401413.012093) can0 475#CF00134945000000
(1430401413.012425) can0 306#1600000000000000
(1430401413.012682) can0 294#00009CFFFA000100
(1430401413.012931) can0 270#0000000000000000
(1430401413.112119) can0 475#DA00134945000000
(1430401413.112426) can0 306#1600000000000000
(1430401413.112691) can0 294#00009CFFFA000100
(1430401413.112955) can0 270#0000000000000000
(1430401413.212068) can0 475#DA00134945000000
(1430401413.212369) can0 306#1700000000000000
(1430401413.212639) can0 294#00009CFFFA000100
(1430401413.212912) can0 270#0000000000000000
(1430401413.312060) can0 475#CF00134945000000
(1430401413.312354) can0 306#1700000000000000
(1430401413.312613) can0 294#00009CFFFA000100
(1430401413.312868) can0 270#0000000000000000
(1430401413.412034) can0 475#D300134945000000
(1430401413.412342) can0 306#1700000000000000
(1430401413.412598) can0 294#00009CFFFA000100
(1430401413.412851) can0 270#0000000000000000
(1430401413.511955) can0 475#D100134945000000
(1430401413.512269) can0 306#1700000000000000
(1430401413.512522) can0 294#00009CFFFA000100
(1430401413.512770) can0 270#0000000000000000
(1430401413.611848) can0 475#C900134945000000
(1430401413.612213) can0 306#1700000000000000
(1430401413.612740) can0 270#0000000000000000
(1430401413.612973) can0 294#00009CFFFA000100
(1430401413.711907) can0 475#D400134945000000
(1430401413.712228) can0 306#1700000000000000
(1430401413.712475) can0 294#00009CFFFA000100
(1430401413.712727) can0 270#0000000000000000
(1430401413.811918) can0 475#CF00134945000000
(1430401413.812209) can0 306#1700000000000000
(1430401413.812460) can0 294#00009CFFFA000100
(1430401413.812714) can0 270#0000000000000000
(1430401413.911887) can0 475#D100134945000000
(1430401413.912211) can0 306#1700000000000000
(1430401413.912466) can0 294#00009CFFFA000100
(1430401413.912716) can0 270#0000000000000000
(1430401414.011819) can0 475#CF00134945000000
(1430401414.012148) can0 306#1700000000000000
(1430401414.012427) can0 294#00009CFFFA000100
(1430401414.012681) can0 270#0000000000000000
(1430401414.111773) can0 475#D300134945000000
(1430401414.112088) can0 306#1800000000000000
(1430401414.112346) can0 294#00009CFFFA000100
(1430401414.112595) can0 270#0000000000000000
(1430401414.211773) can0 475#C700134945000000
(1430401414.212103) can0 306#1800000000000000
(1430401414.212361) can0 294#00009CFFFA000100
(1430401414.212622) can0 270#0000000000000000
(1430401414.311765) can0 475#C900134945000000
(1430401414.312107) can0 306#1800000000000000
(1430401414.312370) can0 294#00009CFFFA000100
(1430401414.312624) can0 270#0000000000000000
(1430401414.411727) can0 475#CB00134945000000
(1430401414.412041) can0 306#1800000000000000
(1430401414.412313) can0 294#00009CFFFA000100
(1430401414.412571) can0 270#0000000000000000
(1430401414.511875) can0 475#CB00134945000000
(1430401414.512198) can0 306#1800000000000000
(1430401414.512457) can0 294#00009CFFFA000100
(1430401414.512708) can0 270#0000000000000000
(1430401414.611872) can0 475#CF00134945000000
(1430401414.612174) can0 306#1800000000000000
(1430401414.612429) can0 294#00009CFFFA000100
(1430401414.612675) can0 270#0000000000000000
(1430401414.711637) can0 475#D100134945000000
(1430401414.711937) can0 306#1800000000000000
(1430401414.712339) can0 294#00009CFFFA000100
(1430401414.712600) can0 270#0000000000000000
(1430401414.811771) can0 475#C700134945000000
(1430401414.812122) can0 306#1800000000000000
(1430401414.812375) can0 294#00009CFFFA000100
(1430401414.812621) can0 270#0000000000000000
(1430401414.911776) can0 475#CB00134945000000
(1430401414.912102) can0 306#1800000000000000
(1430401414.912356) can0 294#00009CFFFA000100
(1430401414.912606) can0 270#0000000000000000
(1430401415.011559) can0 475#C900134945000000
(1430401415.011869) can0 306#1800000000000000
(1430401415.012267) can0 294#00009CFFFA000100
(1430401415.012529) can0 270#0000000000000000
(1430401415.111743) can0 475#C700134945000000
(1430401415.112141) can0 306#1800000000000000
(1430401415.112409) can0 294#00009CFFFA000100
(1430401415.112660) can0 270#0000000000000000
(1430401415.211712) can0 475#C500134945000000
(1430401415.212111) can0 306#1800000000000000
(1430401415.212391) can0 294#00009CFFFA000100
(1430401415.212648) can0 270#0000000000000000
(1430401415.311901) can0 475#CF00134945000000
(1430401415.312240) can0 306#1800000000000000
(1430401415.312497) can0 294#00009CFFFA000100
(1430401415.312749) can0 270#0000000000000000
(1430401415.411829) can0 475#C700134945000000
(1430401415.412169) can0 306#1800000000000000
(1430401415.412432) can0 294#00009CFFFA000100
(1430401415.412684) can0 270#0000000000000000
(1430401415.511876) can0 475#CF00134945000000
(1430401415.512207) can0 306#1800000000000000
(1430401415.512461) can0 294#00009CFFFA000100
(1430401415.512709) can0 270#0000000000000000
(1430401415.611781) can0 475#CF00134945000000
(1430401415.612097) can0 306#1900000000000000
(1430401415.612376) can0 294#00009CFFFA000100
(1430401415.612630) can0 270#0000000000000000
(1430401415.711791) can0 475#CD00134945000000
(1430401415.712137) can0 306#1900000000000000
(1430401415.712394) can0 294#00009CFFFA000100
(1430401415.712653) can0 270#0000000000000000
(1430401415.811739) can0 475#CB00134945000000
(1430401415.812089) can0 306#1900000000000000
(1430401415.812358) can0 294#00009CFFFA000100
(1430401415.812886) can0 270#0000000000000000
(1430401415.911973) can0 475#CD00134945000000
(1430401415.912315) can0 306#1900000000000000
(1430401415.912574) can0 294#00009CFFFA000100
(1430401415.912825) can0 270#0000000000000000
(1430401416.012010) can0 475#C700134945000000
(1430401416.012452) can0 306#1800000000000000
(1430401416.012715) can0 294#00009CFFFA000100
(1430401416.012970) can0 270#0000000000000000
(1430401416.112181) can0 475#CD00134945000000
(1430401416.112474) can0 306#1800000000000000
(1430401416.112726) can0 294#00009CFFFA000100
(1430401416.112981) can0 270#0000000000000000
(1430401416.212146) can0 475#CD00134945000000
(1430401416.212430) can0 306#1700000000000000
(1430401416.212689) can0 294#00009CFFFA000100
(1430401416.212940) can0 270#0000000000000000
(1430401416.312080) can0 475#D300134945000000
(1430401416.312388) can0 306#1700000000000000
(1430401416.312645) can0 294#00009CFFFA000100
(1430401416.312896) can0 270#0000000000000000
(1430401416.412101) can0 475#CF00134945000000
(1430401416.412392) can0 306#1700000000000000
(1430401416.412646) can0 294#00009CFFFA000100
(1430401416.412894) can0 270#0000000000000000
(1430401416.511801) can0 475#C700134945000000
(1430401416.512128) can0 306#1700000000000000
(1430401416.512518) can0 294#00009CFFFA000100
(1430401416.512776) can0 270#0000000000000000
(1430401416.611813) can0 475#C500134945000000
(1430401416.612242) can0 306#1700000000000000
(1430401416.612499) can0 294#00009CFFFA000100
(1430401416.612750) can0 270#0000000000000000
(1430401416.711953) can0 475#CD00134945000000
(1430401416.712272) can0 306#1700000000000000
(1430401416.712528) can0 294#00009CFFFA000100
(1430401416.712780) can0 270#0000000000000000
(1430401416.811936) can0 475#CB00134945000000
(1430401416.812226) can0 306#1800000000000000
(1430401416.812482) can0 294#00009CFFFA000100
(1430401416.812732) can0 270#0000000000000000
(1430401416.911875) can0 475#CD00134945000000
(1430401416.912223) can0 306#1800000000000000
(1430401416.912492) can0 294#00009CFFFA000100
(1430401416.912752) can0 270#0000000000000000
(1430401417.011906) can0 475#C500134945000000
(1430401417.012249) can0 306#1800000000000000
(1430401417.012507) can0 294#00009CFFFA000100
(1430401417.012757) can0 270#0000000000000000
(1430401417.111842) can0 475#CD00134945000000
(1430401417.112156) can0 306#1800000000000000
(1430401417.112421) can0 294#00009CFFFA000100
(1430401417.112672) can0 270#0000000000000000
(1430401417.211847) can0 475#C900134945000000
(1430401417.212134) can0 306#1800000000000000
(1430401417.212399) can0 294#00009CFFFA000100
(1430401417.212682) can0 270#0000000000000000
(1430401417.311802) can0 475#CD00134945000000
(1430401417.312097) can0 306#1800000000000000
(1430401417.312361) can0 294#00009CFFFA000100
(1430401417.312623) can0 270#0000000000000000
(1430401417.411722) can0 475#C900134945000000
(1430401417.412018) can0 306#1800000000000000
(1430401417.412278) can0 294#00009CFFFA000100
(1430401417.412540) can0 270#0000000000000000
(1430401417.511759) can0 475#C700134945000000
(1430401417.512160) can0 306#1900000000000000
(1430401417.512412) can0 294#00009CFFFA000100
(1430401417.512675) can0 270#0000000000000000
(1430401417.611715) can0 475#BF00134945000000
(1430401417.612143) can0 306#1900000000000000
(1430401417.612408) can0 294#00009CFFFA000100
(1430401417.612663) can0 270#0000000000000000
(1430401417.711881) can0 475#C900134945000000
(1430401417.712202) can0 306#1900000000000000
(1430401417.712464) can0 294#00009CFFFA000100
(1430401417.712711) can0 270#0000000000000000
(1430401417.811868) can0 475#CB00134945000000
(1430401417.812163) can0 306#1900000000000000
(1430401417.812418) can0 294#00009CFFFA000100
(1430401417.812670) can0 270#0000000000000000
(1430401417.911855) can0 475#C900134945000000
(1430401417.912167) can0 306#1A00000000000000
(1430401417.912423) can0 294#00009CFFFA000100
(1430401417.912790) can0 270#0000000000000000
(1430401418.011864) can0 475#C100134945000000
(1430401418.012190) can0 306#1900000000000000
(1430401418.012446) can0 294#00009CFFFA000100
(1430401418.012701) can0 270#0000000000000000
(1430401418.111748) can0 475#C700134945000000
(1430401418.112067) can0 306#1900000000000000
(1430401418.112319) can0 294#00009CFFFA000100
(1430401418.112568) can0 270#0000000000000000
(1430401418.211690) can0 475#CD00134945000000
(1430401418.212006) can0 306#1A00000000000000
(1430401418.212257) can0 294#00009CFFFA000100
(1430401418.212509) can0 270#0000000000000000
(1430401418.311705) can0 475#CF00134945000000
(1430401418.312171) can0 306#1A00000000000000
(1430401418.312431) can0 294#00009CFFFA000100
(1430401418.312681) can0 270#0000000000000000
(1430401418.411924) can0 475#CD00134945000000
(1430401418.412234) can0 306#1A00000000000000
(1430401418.412487) can0 294#00009CFFFA000100
(1430401418.412737) can0 270#0000000000000000
(1430401418.512019) can0 475#C900134945000000
(1430401418.512392) can0 306#1A00000000000000
(1430401418.512662) can0 294#00009CFFFA000100
(1430401418.512927) can0 270#0000000000000000
(1430401418.611865) can0 475#CD00134945000000
(1430401418.612202) can0 306#1A00000000000000
(1430401418.612452) can0 294#00009CFFFA000100
(1430401418.612698) can0 270#0000000000000000
(1430401418.711799) can0 475#C300134945000000
(1430401418.712129) can0 306#1A00000000000000
(1430401418.712384) can0 294#00009CFFFA000100
(1430401418.712631) can0 270#0000000000000000
(1430401418.812002) can0 475#C300134945000000
(1430401418.812304) can0 306#1A00000000000000
(1430401418.812554) can0 294#00009CFFFA000100
(1430401418.812801) can0 270#0000000000000000
(1430401418.911772) can0 475#C900134945000000
(1430401418.912097) can0 306#1A00000000000000
(1430401418.912348) can0 294#00009CFFFA000100
(1430401418.912600) can0 270#0000000000000000
(1430401419.011916) can0 475#C700134945000000
(1430401419.012256) can0 306#1A00000000000000
(1430401419.012511) can0 294#00009CFFFA000100
(1430401419.012765) can0 270#0000000000000000
(1430401419.112026) can0 475#C900134945000000
(1430401419.112340) can0 306#1A00000000000000
(1430401419.112591) can0 294#00009CFFFA000100
(1430401419.112837) can0 270#0000000000000000
(1430401419.211966) can0 475#C700134945000000
(1430401419.212272) can0 306#1A00000000000000
(1430401419.212661) can0 294#00009CFFFA000200
(1430401419.212916) can0 270#0000000000000000
(1430401419.312120) can0 475#C500134945000000
(1430401419.312429) can0 306#1A00000000000000
(1430401419.312679) can0 294#00009CFFFA000100
(1430401419.312924) can0 270#0000000000000000
(1430401419.411887) can0 475#BF00134945000000
(1430401419.412319) can0 306#1B00000000000000
(1430401419.412575) can0 294#00009CFFFA000100
(1430401419.412825) can0 270#0000000000000000
(1430401419.511884) can0 475#C300134945000000
(1430401419.512321) can0 306#1B00000000000000
(1430401419.512570) can0 294#00009CFFFA000100
(1430401419.512817) can0 270#0000000000000000
(1430401419.611842) can0 475#BF00134945000000
(1430401419.612265) can0 306#1B00000000000000
(1430401419.612521) can0 294#00009CFFFA000100
(1430401419.612777) can0 270#0000000000000000
(1430401419.711787) can0 475#BA00134945000000
(1430401419.712088) can0 306#1B00000000000000
(1430401419.712476) can0 294#00009CFFFA000100
(1430401419.712737) can0 270#0000000000000000
(1430401419.811789) can0 475#CD00134945000000
(1430401419.812175) can0 306#1B00000000000000
(1430401419.812445) can0 294#00009CFFFA000100
(1430401419.812718) can0 270#0000000000000000
(1430401419.911731) can0 475#C700134945000000
(1430401419.912175) can0 306#1B00000000000000
(1430401419.912439) can0 294#00009CFFFA000100
(1430401419.912682) can0 270#0000000000000000
(1430401420.011948) can0 475#C100134945000000
(1430401420.012255) can0 306#1A00000000000000
(1430401420.012506) can0 294#00009CFFFA000100
(1430401420.012754) can0 270#0000000000000000
(1430401420.111917) can0 475#C500134945000000
(1430401420.112227) can0 306#1A00000000000000
(1430401420.112476) can0 294#00009CFFFA000100
(1430401420.112721) can0 270#0000000000000000
(1430401420.211888) can0 475#C700134945000000
(1430401420.212174) can0 306#1A00000000000000
(1430401420.212425) can0 294#00009CFFFA000100
(1430401420.212670) can0 270#0000000000000000
(1430401420.311894) can0 475#D300134945000000
(1430401420.313538) can0 294#00009CFFFA000100
(1430401420.314372) can0 306#1B00000000000000
(1430401420.411824) can0 475#BD00134945000000
(1430401420.412129) can0 306#1A00000000000000
(1430401420.412380) can0 294#00009CFFFA000100
(1430401420.412623) can0 270#0000000000000000
(1430401420.511794) can0 475#BF00134945000000
(1430401420.512092) can0 306#1A00000000000000
(1430401420.512346) can0 294#00009CFFFA000100
(1430401420.512604) can0 270#0000000000000000
(1430401420.611790) can0 475#D100134945000000
(1430401420.612092) can0 306#1A00000000000000
(1430401420.612347) can0 294#00009CFFFA000100
(1430401420.612591) can0 270#0000000000000000
(1430401420.711734) can0 475#CD00134945000000
(1430401420.712123) can0 306#1A00000000000000
(1430401420.712422) can0 294#00009CFFFA000100
(1430401420.712675) can0 270#0000000000000000
(1430401420.811878) can0 475#D100134945000000
(1430401420.812232) can0 306#1A00000000000000
(1430401420.812487) can0 294#00009CFFFA000100
(1430401420.812733) can0 270#0000000000000000
(1430401420.911833) can0 475#C100134945000000
(1430401420.912188) can0 306#1A00000000000000
(1430401420.912446) can0 294#00009CFFFA000100
(1430401420.912706) can0 270#0000000000000000
(1430401421.011830) can0 475#CD00134945000000
(1430401421.012149) can0 306#1A00000000000000
(1430401421.012403) can0 294#00009CFFFA000100
(1430401421.012649) can0 270#0000000000000000
(1430401421.111828) can0 475#C900134945000000
(1430401421.112130) can0 306#1A00000000000000
(1430401421.112380) can0 294#00009CFFFA000100
(1430401421.112630) can0 270#0000000000000000
(1430401421.211821) can0 475#C700134945000000
(1430401421.212105) can0 306#1A00000000000000
(1430401421.212362) can0 294#00009CFFFA000100
(1430401421.212644) can0 270#0000000000000000
(1430401421.311793) can0 475#C500134945000000
(1430401421.312098) can0 306#1A00000000000000
(1430401421.312349) can0 294#00009CFFFA000100
(1430401421.312600) can0 270#0000000000000000
(1430401421.411795) can0 475#BF00134945000000
(1430401421.412124) can0 306#1A00000000000000
(1430401421.412375) can0 294#00009CFFFA000100
(1430401421.412619) can0 270#0000000000000000
(1430401421.511975) can0 475#C900134945000000
(1430401421.512298) can0 306#1B00000000000000
(1430401421.512552) can0 294#00009CFFFA000100
(1430401421.512799) can0 270#0000000000000000
(1430401421.612127) can0 475#C500134945000000
(1430401421.612431) can0 306#1B00000000000000
(1430401421.612682) can0 294#00009CFFFA000100
(1430401421.612934) can0 270#0000000000000000
(1430401421.712053) can0 475#CB00134945000000
(1430401421.712377) can0 306#1B00000000000000
(1430401421.712628) can0 294#00009CFFFA000100
(1430401421.712906) can0 270#0000000000000000
(1430401421.811798) can0 475#BA00134945000000
(1430401421.812158) can0 306#1B00000000000000
(1430401421.812422) can0 294#00009CFFFA000100
(1430401421.812678) can0 270#0000000000000000
(1430401421.912004) can0 475#C100134945000000
(1430401421.912345) can0 306#1B00000000000000
(1430401421.912609) can0 294#00009CFFFA000100
(1430401421.912860) can0 270#0000000000000000
(1430401422.011764) can0 475#C900134945000000
(1430401422.012092) can0 306#1A00000000000000
(1430401422.012362) can0 294#00009CFFFA000100
(1430401422.012611) can0 270#0000000000000000
(1430401422.111976) can0 475#BA00134945000000
(1430401422.112300) can0 306#1A00000000000000
(1430401422.112552) can0 294#00009CFFFA000100
(1430401422.112796) can0 270#0000000000000000
(1430401422.211986) can0 475#BC00134945000000
(1430401422.212282) can0 306#1A00000000000000
(1430401422.212566) can0 294#00009CFFFA000100
(1430401422.212817) can0 270#0000000000000000
(1430401422.311997) can0 475#B800134945000000
(1430401422.312387) can0 306#1A00000000000000
(1430401422.312663) can0 294#00009CFFFA000100
(1430401422.312913) can0 270#0000000000000000
(1430401422.412109) can0 475#B800134945000000
(1430401422.412440) can0 306#1A00000000000000
(1430401422.412694) can0 294#00009CFFFA000100
(1430401422.412940) can0 270#0000000000000000
(1430401422.512152) can0 475#B800134945000000
(1430401422.512468) can0 306#1A00000000000000
(1430401422.512717) can0 294#00009CFFFA000100
(1430401422.513976) can0 270#0000000000000000
(1430401422.611885) can0 475#CB00134945000000
(1430401422.612331) can0 306#1A00000000000000
(1430401422.612590) can0 294#00009CFFFA000100
(1430401422.612839) can0 270#0000000000000000
(1430401422.711876) can0 475#BC00134945000000
(1430401422.712303) can0 306#1A00000000000000
(1430401422.712566) can0 294#00009CFFFA000100
(1430401422.712816) can0 270#0000000000000000
(1430401422.811834) can0 475#BC00134945000000
(1430401422.812249) can0 306#1A00000000000000
(1430401422.812503) can0 294#00009CFFFA000100
(1430401422.812743) can0 270#0000000000000000
(1430401422.911810) can0 475#C100134945000000
(1430401422.912144) can0 306#1A00000000000000
(1430401422.912401) can0 294#00009CFFFA000100
(1430401422.912652) can0 270#0000000000000000
(1430401423.011871) can0 475#C500134945000000
(1430401423.012180) can0 306#1B00000000000000
(1430401423.012434) can0 294#00009CFFFA000100
(1430401423.012644) can0 270#0000000000000000
(1430401423.111691) can0 475#C500134945000000
(1430401423.112013) can0 306#1B00000000000000
(1430401423.112379) can0 294#00009CFFFA000100
(1430401423.112653) can0 270#0000000000000000
(1430401423.211753) can0 475#C500134945000000
(1430401423.212150) can0 306#1C00000000000000
(1430401423.212403) can0 294#00009CFFFA000100
(1430401423.212659) can0 270#0000000000000000
(1430401423.311891) can0 475#C300134945000000
(1430401423.312216) can0 306#1B00000000000000
(1430401423.312472) can0 294#00009CFFFA000100
(1430401423.312734) can0 270#0000000000000000
(1430401423.411866) can0 475#BC00134945000000
(1430401423.412167) can0 306#1B00000000000000
(1430401423.412425) can0 294#00009CFFFA000100
(1430401423.412674) can0 270#0000000000000000
(1430401423.511772) can0 475#C100134945000000
(1430401423.512114) can0 306#1B00000000000000
(1430401423.512376) can0 294#00009CFFFA000100
(1430401423.512644) can0 270#0000000000000000
(1430401423.611838) can0 475#C100134945000000
(1430401423.612169) can0 306#1B00000000000000
(1430401423.612428) can0 294#00009CFFFA000100
(1430401423.612809) can0 270#0000000000000000
(1430401423.711781) can0 475#C700134945000000
(1430401423.712145) can0 306#1B00000000000000
(1430401423.712404) can0 294#00009CFFFA000100
(1430401423.712651) can0 270#0000000000000000
(1430401423.811884) can0 475#BA00134945000000
(1430401423.812445) can0 306#1A00000000000000
(1430401423.812739) can0 270#0000000000000000
(1430401423.812972) can0 294#00009CFFFA000100
(1430401423.911977) can0 475#BF00134945000000
(1430401423.912340) can0 306#1A00000000000000
(1430401423.912597) can0 294#00009CFFFA000100
(1430401423.912847) can0 270#0000000000000000
(1430401424.011970) can0 475#BD00134945000000
(1430401424.012293) can0 306#1A00000000000000
(1430401424.012547) can0 294#00009CFFFA000100
(1430401424.012798) can0 270#0000000000000000
(1430401424.111954) can0 475#C300134945000000
(1430401424.112283) can0 306#1A00000000000000
(1430401424.112539) can0 294#00009CFFFA000100
(1430401424.112789) can0 270#0000000000000000
(1430401424.211902) can0 475#BF00134945000000
(1430401424.212209) can0 306#1A00000000000000
(1430401424.212463) can0 294#00009CFFFA000100
(1430401424.212666) can0 270#0000000000000000
(1430401424.311874) can0 475#C300134945000000
(1430401424.312200) can0 306#1A00000000000000
(1430401424.312464) can0 294#00009CFFFA000100
(1430401424.312720) can0 270#0000000000000000
(1430401424.411704) can0 475#BF00134945000000
(1430401424.412137) can0 306#1A00000000000000
(1430401424.412399) can0 294#00009CFFFA000100
(1430401424.412651) can0 270#0000000000000000
(1430401424.511782) can0 475#BC00134945000000
(1430401424.512096) can0 306#1A00000000000000
(1430401424.512446) can0 294#00009CFFFA000100
(1430401424.512718) can0 270#0000000000000000
(1430401424.611894) can0 475#BA00134945000000
(1430401424.612214) can0 306#1900000000000000
(1430401424.612478) can0 294#00009CFFFA000100
(1430401424.612733) can0 270#0000000000000000
(1430401424.702200) can0 475#AC00134945000000
(1430401424.702545) can0 306#1900000000000000
(1430401424.702820) can0 294#00009CFFFA000100
(1430401424.703070) can0 270#0000000000000000
(1430401424.802349) can0 475#BD00134945000000
(1430401424.802714) can0 306#1900000000000000
(1430401424.802975) can0 294#00009CFFFA000100
(1430401424.803227) can0 270#0000000000000000
(1430401424.902139) can0 475#BA00134945000000
(1430401424.902500) can0 306#1900000000000000
(1430401424.902757) can0 294#00009CFFFA000100
(1430401424.903012) can0 270#0000000000000000
(1430401425.002125) can0 475#C300134945000000
(1430401425.002475) can0 306#1900000000000000
(1430401425.002738) can0 294#00009CFFFA000100
(1430401425.002990) can0 270#0000000000000000
(1430401425.111809) can0 475#C100134945000000
(1430401425.112364) can0 306#1900000000000000
(1430401425.112602) can0 294#00009CFFFA000100
(1430401425.112860) can0 270#0000000000000000
(1430401425.202068) can0 475#BC00134945000000
(1430401425.202374) can0 306#1900000000000000
(1430401425.202782) can0 294#00009CFFFA000100
(1430401425.203043) can0 270#0000000000000000
(1430401425.302006) can0 475#C100134945000000
(1430401425.302463) can0 306#1A00000000000000
(1430401425.302718) can0 294#00009CFFFA000100
(1430401425.302968) can0 270#0000000000000000
(1430401425.402225) can0 475#BF00134945000000
(1430401425.402519) can0 306#1A00000000000000
(1430401425.402785) can0 294#00009CFFFA000100
(1430401425.403038) can0 270#0000000000000000
(1430401425.512224) can0 475#BD00134945000000
(1430401425.512535) can0 306#1A00000000000000
(1430401425.512791) can0 294#00009CFFFA000100
(1430401425.512995) can0 270#0000000000000000
(1430401425.612191) can0 475#BD00134945000000
(1430401425.612475) can0 306#1A00000000000000
(1430401425.612740) can0 294#00009CFFFA000100
(1430401425.612993) can0 270#0000000000000000
(1430401425.711951) can0 475#C500134945000000
(1430401425.712371) can0 306#1A00000000000000
(1430401425.712623) can0 294#00009CFFFA000100
(1430401425.712873) can0 270#0000000000000000
(1430401425.812071) can0 475#BD00134945000000
(1430401425.812395) can0 306#1A00000000000000
(1430401425.813036) can0 270#0000000000000000
(1430401425.813744) can0 294#00009CFFFA000100
(1430401425.911868) can0 475#BA00134945000000
(1430401425.912198) can0 306#1900000000000000
(1430401425.912582) can0 294#00009CFFFA000100
(1430401425.912856) can0 270#0000000000000000
(1430401426.012040) can0 475#B400134945000000
(1430401426.012348) can0 306#1900000000000000
(1430401426.012606) can0 294#00009CFFFA000100
(1430401426.012860) can0 270#0000000000000000
(1430401426.111780) can0 475#BA00134945000000
(1430401426.112112) can0 306#1900000000000000
(1430401426.112538) can0 294#00009CFFFA000100
(1430401426.112830) can0 270#0000000000000000
(1430401426.212194) can0 475#BC00134945000000
(1430401426.212514) can0 306#1900000000000000
(1430401426.212769) can0 294#00009CFFFA000100
(1430401426.213024) can0 270#0000000000000000
(1430401426.311925) can0 475#B800134945000000
(1430401426.312239) can0 306#1900000000000000
(1430401426.312491) can0 294#00009CFFFA000100
(1430401426.312746) can0 270#0000000000000000
(1430401426.411952) can0 475#BF00134945000000
(1430401426.412273) can0 294#00009CFFFA000100
(1430401426.412482) can0 306#1900000000000000
(1430401426.412768) can0 270#0000000000000000
(1430401426.511812) can0 475#BC00134945000000
(1430401426.512130) can0 306#1900000000000000
(1430401426.512386) can0 294#00009CFFFA000100
(1430401426.512636) can0 270#0000000000000000
(1430401426.611896) can0 475#B600134945000000
(1430401426.612197) can0 306#1900000000000000
(1430401426.612451) can0 294#00009CFFFA000100
(1430401426.612815) can0 270#0000000000000000
(1430401426.711780) can0 475#B800134945000000
(1430401426.712093) can0 306#1900000000000000
(1430401426.712343) can0 294#00009CFFFA000100
(1430401426.712592) can0 270#0000000000000000
(1430401426.811911) can0 475#BD00134945000000
(1430401426.812223) can0 306#1A00000000000000
(1430401426.812478) can0 294#00009CFFFA000100
(1430401426.812860) can0 270#0000000000000000
(1430401426.911780) can0 475#BA00134945000000
(1430401426.912096) can0 306#1A00000000000000
(1430401426.912485) can0 294#00009CFFFA000100
(1430401426.912740) can0 270#0000000000000000
(1430401427.011998) can0 475#BC001349450